write to 0x55 ack data: 0x00 read to 0x55 ack data: 0x01 0x02                   // get Bq28z620StdCmdManufacturerAccessAndControlStatus
write to 0x55 ack data: 0x06 read to 0x55 ack data: 0xAB 0x0B                   // get Bq28z620StdCmdTemperature
write to 0x55 ack data: 0x08 read to 0x55 ack data: 0x47 0x1E                   // get Bq28z620StdCmdVoltage
write to 0x55 ack data: 0x0C read to 0x55 ack data: 0x00 0x00                   // get Bq28z620StdCmdCurrent
write to 0x55 ack data: 0x2C read to 0x55 ack data: 0x35 0x00                   // get Bq28z620StdCmdRelativeStateOfCharge
write to 0x55 ack data: 0x2E read to 0x55 ack data: 0x64 0x00                   // get Bq28z620StdCmdStateOfHealth
write to 0x55 ack data: 0x00 0x54 0x00                                          // ! set Bq28z620MacSubcmdOperationStatus                                           
write to 0x55 ack data: 0x40 read to 0x55 ack data: 0x06 0x01 0x40 0x00         // ! get Bq28z620MacSubcmdOperationStatus
write to 0x55 ack data: 0x00 0x54 0x00                                          // ! set Bq28z620MacSubcmdOperationStatus         
write to 0x55 ack data: 0x40 read to 0x55 ack data: 0x06 0x01 0x40 0x00         // ! get Bq28z620MacSubcmdOperationStatus
write to 0x55 ack data: 0x00 read to 0x55 ack data: 0x01 0x02                   // get Bq28z620StdCmdManufacturerAccessAndControlStatus    
write to 0x55 ack data: 0x00 0x33 0x00                          // ! set NONE DOCUMENTED subcommand 0x0033 maybe  set Rom mode
//ROM mode
write to 0x0B ack data: 0x0D read to 0x0B ack data: 0x02 0x91   
write to 0x0B ack data: 0x0D read to 0x0B ack data: 0x02 0x91 0xE7
write to 0x0B ack data: 0x09 0x00 0x00 
write to 0x0B ack data: 0x0B read to 0x0B ack data: 0x02 0x00 0x6D
write to 0x0B ack data: 0x0A 0x0A 0x00 
write to 0x0B ack data: 0x09 0x02 0x00 
write to 0x0B ack data: 0x0A 0x00 0x00 
write to 0x0B ack data: 0x00 0x00 0x00 
write to 0x0B ack data: 0x1A 0xDE 0x83 
write to 0x0B ack data: 0x06 0x00 0x00 
write to 0x0B ack data: 0x00 0x80 0x00 
write to 0x0B ack data: 0x1A 0xDE 0x83 
write to 0x0B ack data: 0x06 0x80 0x00 
write to 0x0B ack data: 0x09 0x00 0x00 
write to 0x0B ack data: 0x0B read to 0x0B ack data: 0x0A 0x00 0xC5
write to 0x0B ack data: 0x0A 0x0A 0x00 
write to 0x0B ack data: 0x09 0x02 0x00 
write to 0x0B ack data: 0x0A 0xB8 0x00 
write to 0x0B ack data: 0x00 0x80 0x01 
write to 0x0B ack data: 0x1A 0xDE 0x83 
write to 0x0B ack data: 0x06 0x80 0x01 
write to 0x0B ack data: 0x09 0x00 0x00 
write to 0x0B ack data: 0x0B read to 0x0B ack data: 0x0A 0x00 0xC5
write to 0x0B ack data: 0x0A 0x0A 0x00 
write to 0x0B ack data: 0x09 0x02 0x00 
write to 0x0B ack data: 0x0A 0x00 0x00 
write to 0x0B ack data: 0x11 0xDE 0x83 
write to 0x0B ack data: 0x07 0xDE 0x83 
// load firmware
write to 0x0B ack data: 0x0F 0x1F 0x00 0x40 0x45 0x2F 0x05 0xC2 0x28 0xBF 0x0C 0x23 0xED 0x3F 0x92 0xE7 0x06 0x49 0x00 0x00 0x40 0x00 0x00 0x00 0x00 0x00 0x00 0x00 0x00 0xFF 0xFF 0xFF 0xFF 
write to 0x0B ack data: 0x0F 0x05 0x1D 0x40 0xFF 0xFF 0xFF 
write to 0x0B ack data: 0x0F 0x1F 0x40 0x40 0x20 0x61 0x62 0x63 0x64 0x65 0x66 0x67 0x68 0x69 0x6A 0x6B 0x6C 0x6D 0x6E 0x6F 0x70 0x71 0x72 0x73 0x74 0x75 0x76 0x77 0x7A 0x78 0x79 0x30 0x31 
write to 0x0B ack data: 0x0F 0x05 0x5D 0x40 0x32 0x33 0x34 
write to 0x0B ack data: 0x0F 0x1F 0x60 0x40 0x35 0x00 0x00 0x9E 0x24 0x00 0x00 0x21 0x00 0x01 0x00 0x11 0x54 0x65 0x78 0x61 0x73 0x20 0x49 0x6E 0x73 0x74 0x72 0x75 0x6D 0x65 0x6E 0x74 0x73 
write to 0x0B ack data: 0x0F 0x05 0x7D 0x40 0x00 0x00 0x00 
write to 0x0B ack data: 0x0F 0x1F 0x80 0x40 0x08 0x62 0x71 0x32 0x38 0x7A 0x36 0x32 0x30 0x00 0x00 0x00 0x00 0x00 0x00 0x00 0x00 0x00 0x00 0x00 0x00 0x04 0x4C 0x49 0x4F 0x4E 0x00 0x00 0x00 
write to 0x0B ack data: 0x0F 0x05 0x9D 0x40 0x00 0x00 0x00 
write to 0x0B ack data: 0x0F 0x1F 0xA0 0x40 0x00 0x00 0x00 0x00 0x00 0x00 0x00 0x00 0x00 0x00 0x00 0x00 0x00 0x00 0x00 0x00 0x00 0x00 0x00 0x00 0x00 0x00 0x00 0x00 0x00 0x00 0x00 0x00 0x00 
write to 0x0B ack data: 0x0F 0x05 0xBD 0x40 0x00 0x00 0x00 
write to 0x0B ack data: 0x0F 0x1F 0xC0 0x40 0x07 0xE1 0xFF 0x00 0x00 0x00 0x00 0x00 0x00 0x00 0x00 0x00 0x00 0x00 0x00 0x00 0x00 0x00 0x00 0x00 0x00 0x00 0x00 0x00 0x00 0x00 0x00 0x00 0x00 
write to 0x0B ack data: 0x0F 0x05 0xDD 0x40 0x00 0x00 0x00 
write to 0x0B ack data: 0x0F 0x1F 0xE0 0x40 0x00 0x00 0x00 0x00 0x00 0x00 0x00 0x00 0x00 0x00 0x00 0x00 0x00 0x00 0x00 0x00 0x00 0x00 0x00 0x00 0x00 0x00 0x00 0x00 0x00 0x00 0x00 0x00 0x00 
write to 0x0B ack data: 0x0F 0x05 0xFD 0x40 0x00 0x00 0x00 
write to 0x0B ack data: 0x0F 0x1F 0x00 0x41 0x55 0xFF 0x7A 0x00 0x77 0x00 0x80 0x00 0x88 0x00 0xA7 0x00 0x6D 0x00 0x7E 0x00 0x71 0x00 0x75 0x00 0x7E 0x00 0x75 0x00 0x7D 0x00 0x8D 0x00 0xE3 
write to 0x0B ack data: 0x0F 0x05 0x1D 0x41 0x00 0x8C 0x01 
write to 0x0B ack data: 0x0F 0x1F 0x20 0x41 0x00 0x00 0x00 0x00 0x00 0x00 0x00 0x00 0x00 0x00 0x00 0x00 0x00 0x00 0x00 0x00 0x00 0x00 0x00 0x00 0x00 0x00 0x00 0x00 0x00 0x00 0x00 0x00 0x00 
write to 0x0B ack data: 0x0F 0x05 0x3D 0x41 0x00 0x00 0x00 
write to 0x0B ack data: 0x0F 0x1F 0x40 0x41 0x55 0xFF 0x7A 0x00 0x77 0x00 0x80 0x00 0x88 0x00 0xA7 0x00 0x6D 0x00 0x7E 0x00 0x71 0x00 0x75 0x00 0x7E 0x00 0x75 0x00 0x7D 0x00 0x8D 0x00 0xE3 
write to 0x0B ack data: 0x0F 0x05 0x5D 0x41 0x00 0x8C 0x01 
write to 0x0B ack data: 0x0F 0x1F 0x60 0x41 0x00 0x00 0x00 0x00 0x00 0x00 0x00 0x00 0x00 0x00 0x00 0x00 0x00 0x00 0x00 0x00 0x00 0x00 0x00 0x00 0x00 0x00 0x00 0x00 0x00 0x00 0x00 0x00 0x00 
write to 0x0B ack data: 0x0F 0x05 0x7D 0x41 0x00 0x00 0x00 
write to 0x0B ack data: 0x0F 0x1F 0x80 0x41 0xFF 0xFF 0x7A 0x00 0x77 0x00 0x80 0x00 0x88 0x00 0xA7 0x00 0x6D 0x00 0x7E 0x00 0x71 0x00 0x75 0x00 0x7E 0x00 0x75 0x00 0x7D 0x00 0x8D 0x00 0xE3 
write to 0x0B ack data: 0x0F 0x05 0x9D 0x41 0x00 0x8C 0x01 
write to 0x0B ack data: 0x0F 0x1F 0xA0 0x41 0x00 0x00 0x00 0x00 0x00 0x00 0x00 0x00 0x00 0x00 0x00 0x00 0x00 0x00 0x00 0x00 0x00 0x00 0x00 0x00 0x00 0x00 0x00 0x00 0x00 0x00 0x00 0x00 0x00 
write to 0x0B ack data: 0x0F 0x05 0xBD 0x41 0x00 0x00 0x00 
write to 0x0B ack data: 0x0F 0x1F 0xC0 0x41 0xFF 0xFF 0x7A 0x00 0x77 0x00 0x80 0x00 0x88 0x00 0xA7 0x00 0x6D 0x00 0x7E 0x00 0x71 0x00 0x75 0x00 0x7E 0x00 0x75 0x00 0x7D 0x00 0x8D 0x00 0xE3 
write to 0x0B ack data: 0x0F 0x05 0xDD 0x41 0x00 0x8C 0x01 
write to 0x0B ack data: 0x0F 0x1F 0xE0 0x41 0x00 0x00 0x00 0x00 0x00 0x00 0x00 0x00 0x00 0x00 0x00 0x00 0x00 0x00 0x00 0x00 0x00 0x00 0x00 0x00 0x00 0x00 0x00 0x00 0x00 0x00 0x00 0x00 0x00 
write to 0x0B ack data: 0x0F 0x05 0xFD 0x41 0x00 0x00 0x00 
write to 0x0B ack data: 0x0F 0x1F 0x00 0x42 0x60 0x00 0x1E 0x00 0x00 0x00 0x30 0x11 0x30 0x11 0x30 0x11 0x00 0x00 0x04 0x30 0x11 0x30 0x11 0xFA 0x00 0x30 0xF8 0x32 0xF4 0x00 0x00 0x64 0x00 
write to 0x0B ack data: 0x0F 0x05 0x1D 0x42 0xE8 0x03 0x30 
write to 0x0B ack data: 0x0F 0x1F 0x20 0x42 0xF8 0x32 0xF4 0x00 0x00 0x00 0x00 0x00 0x00 0x00 0x00 0x00 0x00 0x00 0x00 0x00 0x00 0x00 0x00 0x00 0x00 0x00 0x00 0x00 0x00 0x00 0x00 0x00 0x00 
write to 0x0B ack data: 0x0F 0x05 0x3D 0x42 0x00 0x00 0x00 
write to 0x0B ack data: 0x0F 0x1F 0x40 0x42 0x00 0x00 0x00 0x00 0x00 0x00 0x00 0x00 0x00 0x00 0x00 0x00 0x00 0x00 0x00 0x00 0x00 0x00 0x00 0x00 0x00 0x00 0x00 0x00 0x00 0x00 0x00 0x00 0x00 
write to 0x0B ack data: 0x0F 0x05 0x5D 0x42 0x00 0x00 0x00 
write to 0x0B ack data: 0x0F 0x1F 0x60 0x42 0x00 0x00 0x00 0x00 0x00 0x00 0x00 0x00 0x00 0x00 0x00 0x00 0x00 0x00 0x00 0x00 0x00 0x00 0x00 0x00 0x00 0x00 0x00 0x00 0x00 0x00 0x00 0x00 0x00 
write to 0x0B ack data: 0x0F 0x05 0x7D 0x42 0x00 0x00 0x00 
write to 0x0B ack data: 0x0F 0x1F 0x80 0x42 0x00 0x00 0x00 0x00 0x00 0x00 0x00 0x00 0x80 0x7F 0x00 0x00 0x00 0x00 0x00 0x00 0x00 0x00 0x00 0x00 0x00 0x00 0x00 0x00 0x00 0x00 0x00 0x00 0x00 
write to 0x0B ack data: 0x0F 0x05 0x9D 0x42 0x00 0x00 0x00 
write to 0x0B ack data: 0x0F 0x1F 0xA0 0x42 0x00 0x00 0x00 0x00 0x00 0x00 0x00 0x00 0x00 0x00 0x00 0x00 0x00 0x00 0x00 0x00 0x00 0x00 0x00 0x00 0x00 0x00 0x00 0x00 0x00 0x00 0x00 0x00 0x00 
write to 0x0B ack data: 0x0F 0x05 0xBD 0x42 0x00 0x00 0x00 
write to 0x0B ack data: 0x0F 0x1F 0xC0 0x42 0x00 0x00 0x00 0x00 0x00 0x00 0x00 0x00 0x00 0x00 0x00 0x00 0x00 0x00 0x00 0x00 0x00 0x00 0x00 0x00 0x00 0x00 0x00 0x00 0x00 0x00 0x00 0x00 0x00 
write to 0x0B ack data: 0x0F 0x05 0xDD 0x42 0x00 0x00 0x00 
write to 0x0B ack data: 0x0F 0x1F 0xE0 0x42 0x00 0x00 0x00 0x00 0x00 0x00 0x00 0x00 0x00 0x00 0x00 0x00 0x00 0x00 0x00 0x00 0x00 0x00 0x00 0x00 0x00 0x00 0x00 0x00 0x00 0x00 0x00 0x00 0x00 
write to 0x0B ack data: 0x0F 0x05 0xFD 0x42 0x00 0x00 0x00 
write to 0x0B ack data: 0x0F 0x1F 0x00 0x43 0x00 0x00 0x00 0x00 0x00 0x00 0x00 0x00 0x00 0x00 0x00 0x00 0x00 0x00 0x00 0x00 0x00 0x00 0x00 0x00 0x00 0x00 0x00 0x00 0x00 0x00 0x00 0x00 0x00 
write to 0x0B ack data: 0x0F 0x05 0x1D 0x43 0x00 0x00 0x00 
write to 0x0B ack data: 0x0F 0x1F 0x20 0x43 0x00 0x00 0x00 0x00 0x00 0x00 0x00 0x00 0x00 0x00 0x00 0x00 0x00 0x00 0x00 0x00 0x00 0x00 0x00 0x00 0x00 0x00 0x00 0x00 0x00 0x00 0x00 0x00 0x00 
write to 0x0B ack data: 0x0F 0x05 0x3D 0x43 0x00 0x00 0x00 
write to 0x0B ack data: 0x0F 0x1F 0xC0 0x43 0x18 0x00 0xFF 0xFF 0xFF 0xFF 0xFF 0xFF 0xFF 0xFF 0xFF 0xFF 0xFF 0xFF 0xFF 0xFF 0xFF 0xFF 0xFF 0xFF 0xFF 0xFF 0xFF 0xFF 0xFF 0xFF 0xFF 0xFF 0xFF 
write to 0x0B ack data: 0x0F 0x05 0xDD 0x43 0xFF 0xFF 0xFF 
write to 0x0B ack data: 0x0F 0x1F 0x00 0x44 0x91 0xD0 0x58 0x18 0x00 0x00 0x58 0x18 0x86 0xD4 0xC6 0x4A 0xC2 0xB4 0x2B 0x6E 0x7C 0x03 0x48 0x01 0xA3 0xFD 0x75 0xF6 0x58 0x12 0xB7 0x2D 0xB7 
write to 0x0B ack data: 0x0F 0x05 0x1D 0x44 0x2D 0x00 0x00 
write to 0x0B ack data: 0x0F 0x1F 0x20 0x44 0x00 0x00 0x86 0xD4 0xC6 0x4A 0xC2 0xB4 0x2B 0x6E 0x7C 0x03 0x48 0x01 0xA3 0xFD 0x75 0xF6 0x58 0x12 0xB7 0x2D 0xB7 0x2D 0x00 0x00 0x00 0x00 0xEF 
write to 0x0B ack data: 0x0F 0x05 0x3D 0x44 0x40 0x40 0x40 
write to 0x0B ack data: 0x0F 0x1F 0x40 0x44 0x40 0x0A 0x0A 0x40 0x40 0x40 0x03 0x09 0x04 0x00 0x01 0x58 0x02 0x00 0x00 0x00 0x00 0x00 0x00 0x00 0x00 0x00 0x00 0x00 0x00 0x00 0x00 0x00 0x00 
write to 0x0B ack data: 0x0F 0x05 0x5D 0x44 0x00 0x00 0x00 
write to 0x0B ack data: 0x0F 0x1F 0x60 0x44 0x00 0x00 0x00 0x00 0x00 0x00 0x00 0x00 0x00 0x00 0x00 0x00 0x00 0x00 0x00 0x00 0x00 0x00 0x00 0x00 0x00 0x00 0x00 0x00 0x00 0x00 0x00 0x00 0x00 
write to 0x0B ack data: 0x0F 0x05 0x7D 0x44 0x00 0x00 0x00 
write to 0x0B ack data: 0x0F 0x1F 0x80 0x44 0x43 0x16 0x2D 0x11 0xFA 0x10 0xCD 0x10 0xAD 0x10 0x8E 0x10 0x73 0x10 0x57 0x10 0x3C 0x10 0x21 0x10 0x09 0x10 0xED 0x0F 0xD3 0x0F 0xAF 0x0F 0x81 
write to 0x0B ack data: 0x0F 0x05 0x9D 0x44 0x0F 0x76 0x0F 
write to 0x0B ack data: 0x0F 0x1F 0xA0 0x44 0x6A 0x0F 0x58 0x0F 0x47 0x0F 0x2A 0x0F 0x15 0x0F 0x04 0x0F 0xF7 0x0E 0xE9 0x0E 0xE1 0x0E 0xDA 0x0E 0xD4 0x0E 0xD0 0x0E 0xCB 0x0E 0xC9 0x0E 0xC3 
write to 0x0B ack data: 0x0F 0x05 0xBD 0x44 0x0E 0xBA 0x0E 
write to 0x0B ack data: 0x0F 0x1F 0xC0 0x44 0xB3 0x0E 0xAA 0x0E 0x9C 0x0E 0x85 0x0E 0x79 0x0E 0x76 0x0E 0x6D 0x0E 0xEF 0x0D 0x46 0x0C 0xE5 0x0E 0x97 0x0E 0x2E 0xFB 0x49 0xFD 0xCD 0xFE 0x55 
write to 0x0B ack data: 0x0F 0x05 0xDD 0x44 0xFF 0x39 0xFF 
write to 0x0B ack data: 0x0F 0x1F 0xE0 0x44 0x4E 0xFE 0xDF 0xFD 0x81 0xFD 0x4A 0xFD 0xE3 0xFB 0xE1 0xFC 0x9B 0xFE 0x55 0x01 0x57 0x05 0x82 0x04 0x8B 0x04 0xF2 0x03 0xF6 0x02 0x78 0x01 0xB6 
write to 0x0B ack data: 0x0F 0x05 0xFD 0x44 0xFF 0x94 0x00 
write to 0x0B ack data: 0x0F 0x1F 0x00 0x45 0x30 0x00 0xC7 0x01 0x0E 0x01 0x3A 0x00 0xA8 0xFF 0xA6 0xFE 0xE6 0xFD 0x36 0xFC 0x5C 0xFA 0xC2 0xF9 0xA4 0xF8 0x08 0xF8 0x33 0xF8 0xE1 0xF8 0x76 
write to 0x0B ack data: 0x0F 0x05 0x1D 0x45 0xF9 0xA2 0xF9 
write to 0x0B ack data: 0x0F 0x1F 0x20 0x45 0x08 0xF9 0x65 0xF7 0x94 0xD0 0x5B 0xFF 0x62 0xFF 0x60 0xFF 0x6F 0xFF 0x78 0xFF 0x7D 0xFF 0x7F 0xFF 0x7B 0xFF 0x7D 0xFF 0x72 0xFF 0x80 0xFF 0x85 
write to 0x0B ack data: 0x0F 0x05 0x3D 0x45 0xFF 0x71 0xFF 
write to 0x0B ack data: 0x0F 0x1F 0x40 0x45 0xAE 0xFF 0x27 0x00 0x3C 0xFE 0x3F 0xFE 0x4D 0xFE 0x6F 0xFE 0x8B 0xFE 0x5A 0xFE 0x57 0xFE 0x2E 0xFE 0x2C 0xFE 0x36 0xFE 0x15 0xFE 0xF6 0xFD 0xE3 
write to 0x0B ack data: 0x0F 0x05 0x5D 0x45 0xFD 0x1D 0xFE 
write to 0x0B ack data: 0x0F 0x1F 0x60 0x45 0x2E 0xFE 0x00 0x00 0x00 0x00 0x00 0x00 0x00 0x00 0x00 0x00 0x00 0x00 0x00 0x00 0x00 0x00 0x00 0x00 0x00 0x00 0x00 0x00 0x00 0x00 0x00 0x00 0x00 
write to 0x0B ack data: 0x0F 0x05 0x7D 0x45 0x00 0x00 0x00 
write to 0x0B ack data: 0x0F 0x1F 0x80 0x45 0xF4 0x01 0x1E 0x58 0x02 0x50 0x46 0x0A 0x00 0x32 0x02 0x1E 0x03 0x0F 0x20 0x03 0x02 0x0F 0x04 0x04 0x76 0xFE 0x54 0xE7 0x64 0x00 0x50 0x46 0x50 
write to 0x0B ack data: 0x0F 0x05 0x9D 0x45 0x46 0x0A 0x90 
write to 0x0B ack data: 0x0F 0x1F 0xA0 0x45 0x01 0x64 0x00 0x00 0x00 0x19 0xC0 0x55 0x5A 0x37 0x00 0x01 0x00 0x14 0x00 0x05 0x00 0x14 0x00 0x23 0x03 0x08 0x07 0x25 0x5A 0x0A 0x3C 0x60 0x05 
write to 0x0B ack data: 0x0F 0x05 0xBD 0x45 0x82 0x70 0x17 
write to 0x0B ack data: 0x0F 0x1F 0xC0 0x45 0x01 0x2C 0x01 0xF0 0x0A 0x28 0x32 0x00 0xC8 0x00 0x20 0x1C 0x1E 0x20 0x1C 0xE8 0x03 0xE8 0x03 0x0A 0x00 0x50 0x46 0x64 0x00 0x80 0x43 0x90 0x01 
write to 0x0B ack data: 0x0F 0x05 0xDD 0x45 0x0A 0xC8 0x00 
write to 0x0B ack data: 0x0F 0x1F 0xE0 0x45 0x88 0x13 0x96 0x00 0x32 0x00 0x00 0x00 0x32 0xFA 0x00 0x44 0x11 0xFF 0xFF 0xFF 0xFF 0xFF 0xFF 0xFF 0xFF 0xFF 0xFF 0xFF 0xFF 0xFF 0xFF 0xFF 0xFF 
write to 0x0B ack data: 0x0F 0x05 0xFD 0x45 0xFF 0xFF 0xFF 
write to 0x0B ack data: 0x0F 0x1F 0x00 0x46 0x20 0x04 0x08 0x00 0x00 0xF0 0x0A 0xFC 0x08 0x0A 0xB8 0x0B 0x0A 0x00 0x05 0x32 0x00 0xC2 0x01 0x05 0x14 0x00 0x0A 0x14 0xF6 0xFF 0x0C 0xFE 0x32 
write to 0x0B ack data: 0x0F 0x05 0x1D 0x46 0x90 0x00 0xB8 
write to 0x0B ack data: 0x0F 0x1F 0x20 0x46 0x0B 0xC8 0x00 0xD4 0x0C 0x0A 0x01 0x01 0x0F 0x1C 0x0C 0x60 0x09 0x3C 0x1E 0x5A 0x0A 0x8C 0x0C 0x8C 0xB8 0x0B 0x1C 0x0C 0x00 0x05 0x30 0x11 0xCC 
write to 0x0B ack data: 0x0F 0x05 0x3D 0x46 0x10 0x64 0x5F 
write to 0x0B ack data: 0x0F 0x1F 0x40 0x46 0x80 0x0C 0xE4 0x0C 0x06 0x08 0x30 0x11 0xCC 0x10 0x64 0x5F 0xCE 0x14 0xFF 0x01 0x07 0x00 0x00 0x00 0x00 0x00 0x00 0x00 0x00 0x00 0xE8 0x03 0x64 
write to 0x0B ack data: 0x0F 0x05 0x5D 0x46 0x00 0x00 0x0C 
write to 0x0B ack data: 0x0F 0x1F 0x60 0x46 0x14 0x19 0x1E 0x37 0x01 0x30 0x11 0x84 0x00 0x60 0x01 0x08 0x01 0x30 0x11 0xBC 0x07 0xA4 0x0F 0xB0 0x0B 0x30 0x11 0xF4 0x03 0xBC 0x07 0xD8 0x05 
write to 0x0B ack data: 0x0F 0x05 0x7D 0x46 0x30 0x11 0xCC 
write to 0x0B ack data: 0x0F 0x1F 0x80 0x46 0x09 0x88 0x11 0xC0 0x0D 0x58 0x00 0x2C 0x00 0xC4 0x09 0x54 0x0B 0x10 0x0E 0xA0 0x0F 0x00 0xFA 0x00 0x40 0x00 0x4B 0x00 0x28 0x03 0x01 0x83 0x70 
write to 0x0B ack data: 0x0F 0x05 0x9D 0x46 0xFA 0x77 0x77 
write to 0x0B ack data: 0x0F 0x1F 0xA0 0x46 0xE7 0x64 0x98 0x08 0xFA 0x64 0x00 0x32 0x00 0x0A 0x00 0x01 0x3C 0x00 0x57 0x35 0x14 0x0C 0x54 0x0B 0x02 0xB8 0x0B 0x49 0x11 0x49 0x11 0x49 0x11 
write to 0x0B ack data: 0x0F 0x05 0xBD 0x46 0x49 0x11 0x02 
write to 0x0B ack data: 0x0F 0x1F 0xC0 0x46 0x3C 0x0F 0x3C 0x0F 0x3C 0x0F 0x3C 0x0F 0x28 0x23 0x06 0x38 0xFF 0x05 0xD8 0xDC 0x06 0xC8 0x00 0x05 0x05 0x05 0x05 0x26 0x02 0x02 0xF4 0x01 0x58 
write to 0x0B ack data: 0x0F 0x05 0xDD 0x46 0x02 0x02 0x26 
write to 0x0B ack data: 0x0F 0x1F 0xE0 0x46 0x02 0x00 0x00 0x02 0x32 0x00 0x00 0x00 0x02 0x32 0x00 0xD0 0x07 0x08 0x07 0x08 0x07 0x02 0x00 0xC4 0x09 0xD0 0x07 0xF0 0xD2 0x02 0x00 0x00 0x00 
write to 0x0B ack data: 0x0F 0x05 0xFD 0x46 0x00 0x00 0xE8 
write to 0x0B ack data: 0x0F 0x1F 0x00 0x47 0x03 0x05 0x94 0x11 0x05 0x05 0x00 0x05 0xFB 0xFF 0x05 0x0A 0x01 0x62 0x01 0x69 0x01 0x03 0x50 0x46 0x00 0x00 0x50 0xAC 0x0D 0x0A 0x00 0xF4 0x01 
write to 0x0B ack data: 0x0F 0x05 0x1D 0x47 0x05 0x64 0x00 
write to 0x0B ack data: 0x0F 0x1F 0x20 0x47 0x74 0x0E 0x32 0x00 0xC8 0x00 0x05 0x64 0x00 0xE8 0x03 0x64 0x01 0x03 0x0C 0x05 0xFF 0xFF 0xFF 0xFF 0xFF 0xFF 0xFF 0xFF 0xFF 0xFF 0xFF 0xFF 0xFF 
write to 0x0B ack data: 0x0F 0x05 0x3D 0x47 0xFF 0xFF 0xFF 
write to 0x0B ack data: 0x0F 0x1F 0x40 0x47 0x06 0x00 0x50 0x47 0xFB 0x46 0x6C 0x01 0x16 0x00 0x8C 0x47 0xAE 0x46 0x64 0x01 0x00 0x12 0xAB 0x02 0xFF 0x46 0x01 0x47 0x74 0x01 0x01 0x13 0xA9 
write to 0x0B ack data: 0x0F 0x05 0x5D 0x47 0x02 0x02 0x47 
write to 0x0B ack data: 0x0F 0x1F 0x60 0x47 0x04 0x47 0x75 0x01 0x8C 0x13 0x07 0x2D 0x24 0x47 0x26 0x47 0x76 0x01 0x8B 0x13 0x07 0x2D 0x1B 0x47 0x1D 0x47 0x77 0x01 0x11 0x12 0x9B 0x02 0x08 
write to 0x0B ack data: 0x0F 0x05 0x7D 0x47 0x47 0x0A 0x47 
write to 0x0B ack data: 0x0F 0x1F 0x80 0x47 0x78 0x01 0x10 0x13 0x9B 0x02 0x05 0x47 0x07 0x47 0x79 0x01 0x00 0x12 0xAB 0x02 0xB2 0x46 0xB4 0x46 0x7A 0x01 0x00 0x83 0xAB 0x02 0xB5 0x46 0x00 
write to 0x0B ack data: 0x0F 0x05 0x9D 0x47 0x00 0x00 0x00 
write to 0x0B ack data: 0x0F 0x1F 0xA0 0x47 0x8D 0x13 0xC8 0x01 0xDC 0x46 0xDE 0x46 0x7B 0x01 0x8D 0x82 0xC8 0x01 0xDF 0x46 0x00 0x00 0x00 0x00 0x8C 0x13 0xC8 0x01 0xD7 0x46 0xD9 0x46 0x7C 
write to 0x0B ack data: 0x0F 0x05 0xBD 0x47 0x01 0x8C 0x82 
write to 0x0B ack data: 0x0F 0x1F 0xC0 0x47 0xC8 0x01 0xDA 0x46 0x00 0x00 0x00 0x00 0x41 0x13 0xA9 0x02 0xEB 0x2C 0xBF 0x46 0x7D 0x01 0x41 0x82 0xA9 0x02 0xF7 0x2C 0x00 0x00 0x00 0x00 0x02 
write to 0x0B ack data: 0x0F 0x05 0xDD 0x47 0x13 0x9B 0x02 
write to 0x0B ack data: 0x0F 0x1F 0xE0 0x47 0xC8 0x46 0xCA 0x46 0x7E 0x01 0x02 0x92 0x9B 0x02 0xCB 0x46 0xCD 0x46 0x7F 0x01 0x04 0x12 0x9B 0x02 0xCE 0x46 0xD0 0x46 0x80 0x01 0x04 0x93 0x9B 
write to 0x0B ack data: 0x0F 0x05 0xFD 0x47 0x02 0xD1 0x46 
write to 0x0B ack data: 0x0F 0x1F 0x00 0x48 0xD3 0x46 0x81 0x01 0x06 0x6E 0x2F 0x00 0x08 0x00 0x00 0x00 0x00 0x00 0x08 0x6E 0x2F 0x00 0x04 0x00 0x00 0x00 0x00 0x00 0x0A 0x6E 0x2F 0x00 0x03 
write to 0x0B ack data: 0x0F 0x05 0x1D 0x48 0x00 0x00 0x00 
write to 0x0B ack data: 0x0F 0x1F 0x20 0x48 0x00 0x00 0x06 0x91 0x00 0x00 0x00 0x00 0xD4 0x46 0x82 0x01 0x08 0x91 0x00 0x00 0x00 0x00 0xD5 0x46 0x83 0x01 0x0A 0x91 0x00 0x00 0x00 0x00 0xD6 
write to 0x0B ack data: 0x0F 0x05 0x3D 0x48 0x46 0x84 0x01 
write to 0x0B ack data: 0x0F 0x1F 0x40 0x48 0x9A 0x12 0xC8 0x01 0xE1 0x46 0xE3 0x46 0x85 0x01 0x9A 0x83 0xC8 0x01 0xE4 0x46 0x00 0x00 0x00 0x00 0x9B 0x12 0xC8 0x01 0xE6 0x46 0xE8 0x46 0x86 
write to 0x0B ack data: 0x0F 0x05 0x5D 0x48 0x01 0x9B 0x83 
write to 0x0B ack data: 0x0F 0x1F 0x60 0x48 0xC8 0x01 0xE9 0x46 0x00 0x00 0x00 0x00 0xFF 0xFF 0xFF 0xFF 0xFF 0xFF 0xFF 0xFF 0xFF 0xFF 0xFF 0xFF 0xFF 0xFF 0xFF 0xFF 0xFF 0xFF 0xFF 0xFF 0xFF 
write to 0x0B ack data: 0x0F 0x05 0x7D 0x48 0xFF 0xFF 0xFF 
write to 0x0B ack data: 0x0F 0x1F 0x80 0x4F 0x20 0x04 0x08 0x00 0x00 0xF0 0x0A 0xFC 0x08 0x0A 0xB8 0x0B 0x0A 0x00 0x05 0x32 0x00 0xC2 0x01 0x05 0x14 0x00 0x0A 0x14 0xF6 0xFF 0x0C 0xFE 0x32 
write to 0x0B ack data: 0x0F 0x05 0x9D 0x4F 0x90 0x00 0xB8 
write to 0x0B ack data: 0x0F 0x1F 0xA0 0x4F 0x0B 0xC8 0x00 0xD4 0x0C 0x0A 0x01 0x01 0x0F 0x1C 0x0C 0x60 0x09 0x3C 0x1E 0x5A 0x0A 0x8C 0x0C 0x8C 0xB8 0x0B 0x1C 0x0C 0x00 0x05 0x30 0x11 0xCC 
write to 0x0B ack data: 0x0F 0x05 0xBD 0x4F 0x10 0x64 0x5F 
write to 0x0B ack data: 0x0F 0x1F 0xC0 0x4F 0xFF 0xFF 0xFF 0xFF 0x7E 0x00 0x00 0x00 0x80 0xFF 0xFF 0xFF 0xFF 0xFF 0xFF 0xFF 0xFF 0xFF 0xFF 0xFF 0xFF 0xFF 0xFF 0xFF 0xFF 0xFF 0xFF 0xFF 0xFF 
write to 0x0B ack data: 0x0F 0x05 0xDD 0x4F 0xFF 0xFF 0xFF 
// load rom
write to 0x0B ack data: 0x14 read to 0x0B ack data: 0x66 0x61 0x59
write to 0x0B ack data: 0x05 0x1F 0x00 0x00 0x19 0x00 0x0D 0x00 0x10 0x00 0x13 0x00 0x16 0x00 0x9B 0x97 0x70 0x9B 0x3B 0xC1 0x9B 0x3E 0xC1 0x9B 0x29 0x7C 0x9B 0xA2 0x7C 0xFC 0x60 0x30 0x18 
write to 0x0B ack data: 0x05 0x05 0x1D 0x00 0x0C 0x24 0x50 
write to 0x0B ack data: 0x05 0x1F 0x20 0x00 0x80 0x60 0x01 0xF1 0x00 0xF1 0x28 0x20 0x00 0x06 0xF6 0x08 0x9F 0xF1 0x26 0x9F 0x16 0x7D 0xA6 0x20 0x90 0x1C 0x34 0x25 0x96 0x02 0x9F 0x5F 0x00 
write to 0x0B ack data: 0x05 0x05 0x3D 0x00 0x24 0xD3 0x00 
write to 0x0B ack data: 0x05 0x1F 0x40 0x00 0x25 0xD3 0x00 0x26 0x68 0x48 0x9F 0x6E 0x00 0x24 0x96 0x02 0x25 0x96 0x02 0x9F 0x6E 0x00 0x9F 0xE4 0x72 0x9F 0x5C 0x26 0x99 0xBF 0x70 0x50 0x00 
write to 0x0B ack data: 0x05 0x05 0x5D 0x00 0xEC 0x94 0xF6 
write to 0x0B ack data: 0x05 0x1F 0x60 0x00 0x40 0xED 0x40 0x87 0xF5 0x9A 0x40 0x80 0x50 0x00 0xEE 0x96 0xEC 0x94 0xEC 0x55 0x87 0xF4 0x9A 0x98 0x08 0x98 0x0F 0x98 0x15 0x98 0x1C 0x98 0x22 
write to 0x0B ack data: 0x05 0x05 0x7D 0x00 0x22 0x7A 0x22 
write to 0x0B ack data: 0x05 0x1F 0x80 0x00 0x24 0x00 0x06 0x63 0x04 0xFD 0x22 0x8E 0x0D 0x24 0x7C 0x05 0x73 0xFD 0x22 0xB6 0x00 0x24 0x07 0x05 0x63 0x04 0xFD 0x22 0x63 0x15 0x24 0xF6 0x04 
write to 0x0B ack data: 0x05 0x05 0x9D 0x00 0x73 0xFD 0x22 
write to 0x0B ack data: 0x05 0x1F 0xA0 0x00 0x08 0x27 0x24 0x3F 0x04 0x73 0xFD 0x3F 0x24 0x93 0x80 0x60 0xFE 0xF0 0x00 0x21 0x02 0x00 0x9C 0x47 0x2F 0x9A 0x32 0x21 0x0E 0x00 0x9C 0x43 0x26 
write to 0x0B ack data: 0x05 0x05 0xBD 0x00 0x90 0x80 0x60 
write to 0x0B ack data: 0x05 0x1F 0xC0 0x00 0x01 0xF1 0x83 0x21 0x02 0x00 0x9C 0x45 0x72 0x9F 0x5E 0x6A 0xA6 0x2A 0xA6 0x23 0xC3 0x7F 0x72 0x9F 0xA4 0x69 0xE6 0xEA 0x00 0x88 0x0B 0x21 0x00 
write to 0x0B ack data: 0x05 0x05 0xDD 0x00 0x7F 0x9F 0xAC 
write to 0x0B ack data: 0x05 0x1F 0xE0 0x00 0x6B 0x21 0x08 0x00 0x9C 0x47 0xE6 0xAA 0x0E 0x93 0xD4 0x21 0x04 0x00 0x9C 0x47 0x99 0xCD 0x3F 0x9F 0x0E 0x69 0x2F 0x9A 0x3F 0x9F 0x7D 0x68 0x2F 
write to 0x0B ack data: 0x05 0x05 0xFD 0x00 0x9A 0x3F 0x21 
write to 0x0B ack data: 0x05 0x1F 0x00 0x01 0x9B 0x46 0x9F 0x19 0x69 0x2F 0x9A 0x24 0x05 0x46 0x02 0x00 0xA1 0x00 0xCD 0xC0 0x02 0x90 0x03 0x32 0x98 0x1E 0x24 0x97 0x02 0x01 0x02 0xEA 0xE1 
write to 0x0B ack data: 0x05 0x05 0x1D 0x01 0x88 0x12 0x01 
write to 0x0B ack data: 0x05 0x1F 0x20 0x01 0x0E 0xEA 0xE1 0x88 0x0C 0xA1 0x02 0x9E 0xE9 0x09 0xB3 0x70 0x32 0xB4 0x74 0x98 0x03 0x22 0x01 0x00 0xA6 0x42 0x9A 0x3D 0x3F 0x9F 0x39 0x73 0xF6 
write to 0x0B ack data: 0x05 0x05 0x3D 0x01 0x15 0x9F 0x0E 
write to 0x0B ack data: 0x05 0x1F 0x40 0x01 0x73 0xD2 0x00 0x84 0x04 0xF9 0x50 0x90 0x12 0x9F 0xFD 0x6D 0xED 0xC1 0x90 0x0B 0x24 0x64 0x01 0x60 0x01 0xF1 0x0F 0x60 0x02 0xF3 0xCD 0x2F 0x2D 
write to 0x0B ack data: 0x05 0x05 0x5D 0x01 0x9A 0x9B 0x8C 
write to 0x0B ack data: 0x05 0x1F 0x60 0x01 0x67 0x9A 0x9B 0xCB 0x6C 0x9A 0x24 0x99 0x46 0x43 0x01 0xC3 0x01 0xC2 0xBF 0xE7 0x38 0x40 0xA6 0x03 0xB3 0x12 0x9A 0xA6 0x26 0x24 0x00 0x46 0xE0 
write to 0x0B ack data: 0x05 0x05 0x7D 0x01 0x60 0x00 0x80 
write to 0x0B ack data: 0x05 0x1F 0x80 0x01 0x22 0x24 0x5A 0x01 0xE0 0x60 0x01 0x80 0x1A 0x24 0x97 0x02 0x02 0x0A 0x24 0x05 0x46 0x01 0x1A 0xE9 0xE2 0x80 0x0C 0xF4 0x21 0x1C 0xE9 0xE2 0x94 
write to 0x0B ack data: 0x05 0x05 0x9D 0x01 0x08 0xA4 0x2D 
write to 0x0B ack data: 0x05 0x1F 0xA0 0x01 0x01 0x98 0x03 0xA4 0x2D 0x00 0xA1 0x00 0x2D 0x90 0x06 0xA6 0x62 0xE6 0x12 0x80 0x9A 0xA6 0x62 0xC2 0x7F 0x9A 0xA1 0x03 0x9D 0xCB 0x02 0x90 0x03 
write to 0x0B ack data: 0x05 0x05 0xBD 0x01 0xE6 0x12 0x02 
write to 0x0B ack data: 0x05 0x1F 0xC0 0x01 0xCB 0x04 0x90 0x03 0xE6 0x12 0x01 0x9A 0x24 0x97 0x02 0x01 0x00 0x20 0x54 0xF5 0xE8 0x21 0x9A 0x3D 0x24 0xDD 0x02 0x02 0x14 0x24 0x97 0x02 0x01 
write to 0x0B ack data: 0x05 0x05 0xDD 0x01 0x04 0xEA 0xE1 
write to 0x0B ack data: 0x05 0x1F 0xE0 0x01 0x94 0x02 0xF6 0x21 0x25 0x05 0x46 0x24 0xDD 0x02 0x40 0x1A 0xE0 0x50 0x57 0x88 0x03 0xA4 0x24 0x01 0xA1 0x00 0x24 0x90 0x13 0xE4 0x60 0x9B 0x80 
write to 0x0B ack data: 0x05 0x05 0xFD 0x01 0x0E 0xA4 0x24 
write to 0x0B ack data: 0x05 0x1F 0x00 0x02 0x00 0x24 0x05 0x46 0xF4 0x21 0x15 0xE5 0x73 0x30 0xB2 0xE2 0x2D 0x9A 0x3D 0x3E 0x3F 0xA7 0x04 0x24 0x00 0x40 0x06 0x0E 0xA1 0x04 0xC5 0xCC 0x04 
write to 0x0B ack data: 0x05 0x05 0x1D 0x02 0x84 0x05 0x24 
write to 0x0B ack data: 0x05 0x1F 0x20 0x02 0xC0 0x40 0x06 0x01 0xCC 0x02 0x90 0x04 0x31 0x32 0x98 0x3C 0xA6 0x30 0xA6 0x14 0xA6 0x15 0x9C 0x85 0x11 0xC0 0x12 0xC2 0x25 0x00 0x40 0xF4 0x26 
write to 0x0B ack data: 0x05 0x05 0x3D 0x02 0x52 0xF6 0x61 
write to 0x0B ack data: 0x05 0x1F 0x40 0x02 0xA6 0x30 0xA6 0x14 0xA6 0x15 0x9C 0x85 0xF6 0x16 0xF6 0x27 0x01 0x50 0xA6 0x30 0xA6 0x14 0xA6 0x15 0x9C 0x85 0x3A 0x39 0xF6 0x61 0xF6 0x72 0x9C 
write to 0x0B ack data: 0x05 0x05 0x5D 0x02 0x7F 0xAC 0x3A 
write to 0x0B ack data: 0x05 0x1F 0x60 0x02 0x39 0x01 0xC4 0x02 0xC6 0x9C 0x73 0xAC 0xAC 0x2F 0x2E 0x2D 0x9A 0x24 0x99 0x46 0x42 0x01 0xC2 0x01 0xB2 0x92 0x9A 0x3F 0xA1 0x00 0x28 0x90 0x04 
write to 0x0B ack data: 0x05 0x05 0x7D 0x02 0x63 0x04 0x98 
write to 0x0B ack data: 0x05 0x1F 0x80 0x02 0x01 0x73 0x9F 0x8A 0x10 0x66 0x08 0x9C 0x82 0x24 0xD9 0x02 0xF4 0xC9 0x01 0x2F 0x9A 0x3F 0xE4 0x92 0x1B 0xA3 0x1B 0x20 0xD2 0x01 0x94 0x03 0xA4 
write to 0x0B ack data: 0x05 0x05 0x9D 0x02 0x1B 0x00 0xA1 
write to 0x0B ack data: 0x05 0x1F 0xA0 0x02 0x00 0x1B 0x90 0x04 0x62 0x10 0x98 0x02 0x62 0xE5 0xA1 0x00 0x28 0x90 0x04 0x63 0x04 0x98 0x02 0x63 0x02 0x9F 0x8A 0x10 0x66 0x08 0x9C 0x81 0xF6 
write to 0x0B ack data: 0x05 0x05 0xBD 0x02 0x13 0xA1 0x04 
write to 0x0B ack data: 0x05 0x1F 0xC0 0x02 0x1B 0xF6 0x31 0x9F 0xBF 0x0F 0x2F 0x9A 0x3F 0xF6 0x14 0xF8 0x01 0x84 0x01 0x33 0xF6 0x41 0x9C 0x6B 0x2F 0x9A 0x3D 0x3F 0x25 0x97 0x02 0x33 0x02 
write to 0x0B ack data: 0x05 0x05 0xDD 0x02 0x60 0x21 0xF0 
write to 0x0B ack data: 0x05 0x1F 0xE0 0x02 0x00 0x9C 0x6B 0x33 0x02 0x46 0x21 0xEC 0x00 0x9C 0x6B 0x33 0x02 0x50 0x21 0xF4 0x00 0x9C 0x6B 0x2F 0x2D 0x9A 0x3F 0xA4 0x31 0x00 0x32 0x21 0x9B 
write to 0x0B ack data: 0x05 0x05 0xFD 0x02 0x02 0x9F 0xA1 
write to 0x0B ack data: 0x05 0x1F 0x00 0x03 0x72 0x32 0x21 0x9D 0x02 0x9F 0xA1 0x72 0x32 0x21 0xB7 0x02 0x9F 0xA1 0x72 0x9F 0xD6 0x02 0x2F 0x9A 0x3D 0xA2 0xC0 0x3F 0x24 0x97 0x02 0x02 0x04 
write to 0x0B ack data: 0x05 0x05 0x1D 0x03 0xA1 0x06 0x2E 
write to 0x0B ack data: 0x05 0x1F 0x20 0x03 0x24 0x99 0x46 0xF4 0xE2 0x0E 0x80 0x07 0x31 0x19 0x25 0x6C 0x01 0x98 0x4A 0xF4 0xB1 0x0C 0xE9 0xE2 0x8C 0x07 0x31 0x19 0x25 0x6C 0xFF 0x98 0x3C 
write to 0x0B ack data: 0x05 0x05 0x3D 0x03 0xD6 0xFF 0x84 
write to 0x0B ack data: 0x05 0x1F 0x40 0x03 0x1B 0xEA 0xB1 0xF4 0xE1 0x10 0x8C 0x4D 0xF5 0x91 0x25 0x19 0x25 0xB3 0xB3 0xB2 0xE2 0xB3 0xB3 0xB2 0xE2 0xE0 0x52 0x12 0x88 0x47 0x98 0x39 0xD6 
write to 0x0B ack data: 0x05 0x05 0x5D 0x03 0x01 0x84 0x35 
write to 0x0B ack data: 0x05 0x1F 0x60 0x03 0xF4 0xE2 0x10 0x8C 0x30 0xF5 0x91 0x25 0x19 0x25 0xB3 0xB3 0xB2 0xE2 0xB3 0xB3 0xB2 0xE2 0xE0 0x52 0x13 0x88 0x2A 0x98 0x1C 0xBC 0x56 0x90 0x18 
write to 0x0B ack data: 0x05 0x05 0x7D 0x03 0x25 0x97 0x02 
write to 0x0B ack data: 0x05 0x1F 0x80 0x03 0x02 0x5E 0x21 0xB7 0x02 0x9F 0xA1 0x72 0x02 0x44 0x21 0x9D 0x02 0x9F 0xA1 0x72 0x9F 0xD6 0x02 0xA6 0xC6 0xA3 0x2E 0x60 0xD6 0x01 0x84 0x08 0xA4 
write to 0x0B ack data: 0x05 0x05 0x9D 0x03 0x89 0x00 0x98 
write to 0x0B ack data: 0x05 0x1F 0xA0 0x03 0x03 0x7C 0x99 0xD9 0x2F 0xA0 0x0C 0x2D 0x9A 0x3F 0x24 0x00 0x40 0x00 0x08 0x38 0x00 0x06 0x38 0x9C 0x79 0xAC 0x9F 0xBF 0x76 0x20 0x00 0x80 0xE9 
write to 0x0B ack data: 0x05 0x05 0xBD 0x03 0xC0 0x84 0x03 
write to 0x0B ack data: 0x05 0x1F 0xC0 0x03 0x21 0x01 0x80 0x2F 0x9A 0x3D 0x3E 0x3F 0xA7 0x02 0xA6 0x2A 0x7B 0xED 0x66 0xF6 0x64 0x20 0x1C 0x01 0xE8 0x24 0x01 0x0E 0x9F 0x0E 0x02 0x9F 0xA9 
write to 0x0B ack data: 0x05 0x05 0xDD 0x03 0x03 0x11 0xC0 
write to 0x0B ack data: 0x05 0x1F 0xE0 0x03 0xF6 0x12 0xF6 0x61 0x20 0xC1 0x02 0xE8 0x21 0x9F 0xA1 0x72 0xED 0x61 0xE9 0x61 0x20 0x3C 0x44 0xE8 0x25 0x46 0x41 0x77 0x02 0xC0 0x20 0x00 0x01 
write to 0x0B ack data: 0x05 0x05 0xFD 0x03 0xE8 0x21 0x9C 
write to 0x0B ack data: 0x05 0x1F 0x00 0x04 0x6B 0xAA 0x2F 0x2E 0x2D 0x9A 0x3D 0x3E 0x3F 0xA7 0x01 0xA6 0x2A 0xA1 0x00 0x32 0x90 0x04 0x62 0x04 0x98 0x01 0x72 0x52 0xC0 0x24 0x5A 0x01 0xE0 
write to 0x0B ack data: 0x05 0x05 0x1D 0x04 0x60 0x01 0x80 
write to 0x0B ack data: 0x05 0x1F 0x20 0x04 0x06 0x40 0x03 0xC0 0x08 0x90 0x07 0x42 0xC0 0xE6 0x12 0x08 0x52 0xC0 0x43 0xC0 0xA6 0xA2 0xE6 0x22 0xE8 0x9F 0x8A 0x10 0xA6 0xAC 0x7D 0xEE 0x65 
write to 0x0B ack data: 0x05 0x05 0x3D 0x04 0x20 0x1E 0x01 
write to 0x0B ack data: 0x05 0x1F 0x40 0x04 0xE8 0x25 0x24 0xD9 0x02 0xF4 0xC9 0x00 0xF4 0xD2 0x02 0x66 0x08 0x20 0x80 0x00 0xE8 0x21 0x30 0xE8 0x32 0x9C 0x81 0x11 0x40 0x40 0xC0 0xC0 0x08 
write to 0x0B ack data: 0x05 0x05 0x5D 0x04 0x90 0x10 0x9F 
write to 0x0B ack data: 0x05 0x1F 0x60 0x04 0x84 0x67 0xEE 0x65 0x20 0x1C 0x01 0xE8 0x25 0x66 0x08 0x9C 0x81 0x11 0x4E 0xEE 0x64 0x20 0x1E 0x01 0xE8 0x24 0x01 0x00 0xB3 0x60 0x80 0x01 0x31 
write to 0x0B ack data: 0x05 0x05 0x7D 0x04 0xA9 0x2F 0x2E 
write to 0x0B ack data: 0x05 0x1F 0x80 0x04 0x2D 0x9A 0xA2 0xB0 0x3E 0x3F 0xA7 0x0B 0x24 0x00 0x40 0x00 0x00 0x10 0xC0 0x84 0x08 0x21 0x48 0x01 0x9F 0x69 0x6E 0x11 0xC0 0x9F 0x6D 0x02 0x52 
write to 0x0B ack data: 0x05 0x05 0x9D 0x04 0xC6 0x7B 0x31 
write to 0x0B ack data: 0x05 0x1F 0xA0 0x04 0x32 0x11 0xC2 0x12 0xC4 0x98 0x4A 0xA6 0xB2 0x9F 0x06 0x04 0x11 0xC7 0x02 0xC0 0x9C 0x76 0xF4 0x21 0xC2 0xF4 0x3A 0xC4 0x11 0xC2 0x12 0xC4 0x02 
write to 0x0B ack data: 0x05 0x05 0xBD 0x04 0xC7 0x01 0xC0 
write to 0x0B ack data: 0x05 0x1F 0xC0 0x04 0x9F 0x83 0x76 0x11 0xC9 0xA6 0xBC 0x7D 0xEE 0x61 0x02 0xC9 0x20 0xBD 0x02 0xE8 0x21 0x9F 0xA1 0x72 0xEE 0x61 0xE9 0x61 0x20 0x3C 0x44 0xE8 0x26 
write to 0x0B ack data: 0x05 0x05 0xDD 0x04 0x46 0x81 0x77 
write to 0x0B ack data: 0x05 0x1F 0xE0 0x04 0x02 0xC9 0x20 0xF8 0x00 0xE8 0x21 0x9F 0xC8 0x02 0xA6 0xB2 0x9F 0xC5 0x03 0xBB 0x9B 0xE0 0x5B 0xC6 0x83 0xB1 0x98 0x07 0xA6 0xB2 0x9F 0x06 0x04 
write to 0x0B ack data: 0x05 0x05 0xFD 0x04 0xBB 0x9B 0xE6 
write to 0x0B ack data: 0x05 0x1F 0x00 0x05 0x5B 0x01 0x97 0xF4 0x01 0xC2 0x02 0xC4 0x9F 0xF3 0x76 0xF6 0x12 0x21 0xC5 0x02 0x9F 0xA1 0x72 0x24 0x3C 0x44 0x46 0x07 0x77 0x24 0xBD 0x02 0x02 
write to 0x0B ack data: 0x05 0x05 0x1D 0x05 0x08 0x21 0x10 
write to 0x0B ack data: 0x05 0x1F 0x20 0x05 0x01 0x9F 0xC8 0x02 0xA5 0x0B 0x2F 0x2E 0xA0 0x0B 0x9A 0x3D 0x3F 0xA7 0x04 0x24 0xD9 0x02 0x01 0x00 0x02 0x02 0x11 0xC0 0x12 0xC2 0x24 0xFC 0x02 
write to 0x0B ack data: 0x05 0x05 0x3D 0x05 0x40 0x00 0x84 
write to 0x0B ack data: 0x05 0x1F 0x40 0x05 0x03 0x35 0x98 0x06 0x24 0x99 0x46 0x4A 0x0B 0x7B 0x21 0xEF 0x00 0x9F 0x8A 0x10 0x3A 0x39 0xF6 0x52 0xF6 0x81 0xE6 0x22 0x04 0xB3 0xD3 0x9C 0x6C 
write to 0x0B ack data: 0x05 0x05 0x5D 0x05 0x66 0x04 0xF6 
write to 0x0B ack data: 0x05 0x1F 0x60 0x05 0x82 0xE6 0x24 0x04 0xB5 0xD5 0x21 0xD9 0x02 0x9F 0x79 0x72 0xAC 0xAC 0x2F 0x2D 0x9A 0x3F 0xB3 0x60 0x80 0x01 0x31 0x9F 0x83 0x77 0x2F 0x9A 0x3D 
write to 0x0B ack data: 0x05 0x05 0x7D 0x05 0x3F 0xA1 0x02 
write to 0x0B ack data: 0x05 0x1F 0x80 0x05 0x27 0x84 0x08 0xA4 0x27 0x01 0x9F 0x2B 0x05 0x98 0x74 0x24 0x00 0x40 0xD2 0x01 0x84 0x36 0x01 0x02 0x84 0x06 0x21 0x5E 0x01 0x9F 0x69 0x6E 0xF6 
write to 0x0B ack data: 0x05 0x05 0x9D 0x05 0x15 0xA4 0x27 
write to 0x0B ack data: 0x05 0x1F 0xA0 0x05 0x02 0x62 0xEC 0x9F 0x77 0x02 0x24 0x1C 0x01 0x11 0x0A 0xF6 0x52 0x9F 0x71 0x05 0xF6 0x12 0x21 0xC9 0x02 0x9F 0xA1 0x72 0x24 0x3C 0x44 0x46 0x05 
write to 0x0B ack data: 0x05 0x05 0xBD 0x05 0x77 0x24 0xBD 
write to 0x0B ack data: 0x05 0x1F 0xC0 0x05 0x02 0x02 0x0C 0x21 0x0C 0x01 0x98 0x34 0x01 0x04 0x84 0x06 0x21 0x5C 0x01 0x9F 0x69 0x6E 0xF6 0x15 0xA4 0x27 0x00 0x62 0xED 0x9F 0x77 0x02 0x24 
write to 0x0B ack data: 0x05 0x05 0xDD 0x05 0x1C 0x01 0x11 
write to 0x0B ack data: 0x05 0x1F 0xE0 0x05 0x0C 0xF6 0x52 0x9F 0x71 0x05 0xF6 0x12 0x21 0xC7 0x02 0x9F 0xA1 0x72 0x24 0x3C 0x44 0x46 0x06 0x77 0x24 0xBD 0x02 0x02 0x0A 0x21 0x08 0x01 0x9F 
write to 0x0B ack data: 0x05 0x05 0xFD 0x05 0xC8 0x02 0x2F 
write to 0x0B ack data: 0x05 0x1F 0x00 0x06 0x2D 0x9A 0x3F 0x24 0xFC 0x02 0x40 0x00 0x90 0x08 0x24 0x5A 0x01 0xE0 0x60 0x01 0x80 0x0E 0xA4 0x28 0x01 0xA4 0x27 0x00 0x9F 0x7C 0x05 0x9F 0x7C 
write to 0x0B ack data: 0x05 0x05 0x1D 0x06 0x05 0x98 0x03 
write to 0x0B ack data: 0x05 0x1F 0x20 0x06 0xA4 0x28 0x00 0x9F 0x91 0x02 0x9F 0x91 0x02 0x72 0x9F 0xE7 0x6A 0x9F 0x82 0x04 0x9F 0x7C 0x05 0xA1 0x02 0x32 0x9F 0xE7 0x6A 0x9F 0x02 0x68 0x2F 
write to 0x0B ack data: 0x05 0x05 0x3D 0x06 0x9A 0xA2 0xA0 
write to 0x0B ack data: 0x05 0x1F 0x40 0x06 0x3F 0xFC 0x60 0x24 0xCF 0x02 0x4A 0x09 0x74 0x21 0xD8 0x02 0x9F 0x97 0x72 0xFC 0x50 0xA6 0xA2 0x2F 0xA0 0x0A 0x9A 0x3D 0x3E 0x3F 0xA7 0x08 0x09 
write to 0x0B ack data: 0x05 0x05 0x5D 0x06 0x34 0x0A 0x36 
write to 0x0B ack data: 0x05 0x1F 0x60 0x06 0x11 0xC0 0x12 0xC2 0x24 0x5A 0x01 0xE0 0x60 0x01 0x80 0x09 0x24 0x00 0x46 0x40 0x04 0xC0 0x10 0x90 0xC9 0x01 0xC0 0x02 0xC2 0x9D 0xFF 0x7E 0x9C 
write to 0x0B ack data: 0x05 0x05 0x7D 0x06 0x6A 0x24 0x46 
write to 0x0B ack data: 0x05 0x1F 0x80 0x06 0x44 0x4A 0x02 0x7B 0x0A 0x1E 0x0B 0x20 0xED 0xE1 0x8C 0x5E 0x3B 0x3A 0x01 0xC4 0x02 0xC6 0x9C 0x72 0xAC 0xF6 0x23 0xF6 0x12 0x19 0x1E 0x1B 0x20 
write to 0x0B ack data: 0x05 0x05 0x9D 0x06 0xF5 0x91 0x1C 
write to 0x0B ack data: 0x05 0x1F 0xA0 0x06 0x19 0x1C 0x24 0x46 0x44 0x07 0x03 0xEF 0xC1 0x88 0x04 0x31 0x32 0x98 0x4D 0xF7 0x00 0x42 0xF7 0x00 0x00 0xF6 0x21 0xF6 0x32 0x9C 0x79 0xAC 0xF6 
write to 0x0B ack data: 0x05 0x05 0xBD 0x06 0x15 0xF6 0x26 
write to 0x0B ack data: 0x05 0x1F 0xC0 0x06 0xF6 0x71 0x32 0x9C 0x86 0x3A 0x39 0xF6 0x51 0xF6 0x62 0x9C 0x7F 0xAC 0x9D 0xFF 0x7E 0x9C 0x6A 0x24 0x46 0x44 0x4A 0x01 0x7B 0xED 0xE1 0x8C 0x04 
write to 0x0B ack data: 0x05 0x05 0xDD 0x06 0x31 0x32 0x98 
write to 0x0B ack data: 0x05 0x1F 0xE0 0x06 0x04 0x09 0x1E 0x0A 0x20 0x33 0x1B 0x1C 0x98 0x0C 0x3B 0x3A 0x01 0xC4 0x02 0xC6 0x9C 0x72 0xAC 0x34 0x1C 0x1C 0x33 0x34 0x1B 0x1E 0x1C 0x20 0x24 
write to 0x0B ack data: 0x05 0x05 0xFD 0x06 0x00 0x40 0x00 
write to 0x0B ack data: 0x05 0x1F 0x00 0x07 0x0C 0x38 0x00 0x0A 0x38 0x9C 0x79 0xAC 0x11 0xC4 0x12 0xC6 0x25 0x3C 0x01 0x4D 0x44 0x3A 0x39 0xF6 0x51 0x9F 0x5B 0x7E 0x44 0x44 0xE5 0xC4 0xD4 
write to 0x0B ack data: 0x05 0x05 0x1D 0x07 0x21 0xD7 0x02 
write to 0x0B ack data: 0x05 0x1F 0x20 0x07 0x9F 0x97 0x72 0x76 0x01 0xC8 0x02 0xCA 0x9F 0x68 0x35 0xFC 0x60 0x24 0xCF 0x02 0x44 0x08 0xE0 0x24 0x09 0x21 0xD8 0x02 0x9F 0x97 0x72 0xFC 0x50 
write to 0x0B ack data: 0x05 0x05 0x3D 0x07 0xAC 0xA8 0x2F 
write to 0x0B ack data: 0x05 0x1F 0x40 0x07 0x2E 0x2D 0x9A 0x3D 0xA2 0xC0 0x3F 0xA1 0x0A 0xC5 0x7B 0x24 0xC0 0x40 0x4C 0x00 0xE6 0xAC 0x02 0x90 0x26 0xE6 0xAA 0x02 0x84 0x24 0xA1 0x02 0x31 
write to 0x0B ack data: 0x05 0x05 0x5D 0x07 0x73 0xE9 0x64 
write to 0x0B ack data: 0x05 0x1F 0x60 0x07 0x20 0xCF 0x02 0xE8 0x24 0x01 0x00 0x9C 0x6A 0x24 0x99 0x46 0xF4 0xE1 0x0C 0x94 0x0A 0xE4 0x60 0x9E 0x88 0x05 0xE6 0xAC 0x04 0x84 0x03 0x74 0x98 
write to 0x0B ack data: 0x05 0x05 0x7D 0x07 0x02 0x64 0x01 
write to 0x0B ack data: 0x05 0x1F 0x80 0x07 0xBB 0xB3 0xBA 0xE2 0xB3 0xB3 0xB2 0xE2 0xE6 0x42 0x01 0xC2 0x01 0xB2 0x54 0x90 0x0F 0xD4 0x00 0x90 0x05 0x21 0x08 0x0C 0x98 0x03 0x21 0x0C 0x0C 
write to 0x0B ack data: 0x05 0x05 0x9D 0x07 0x9F 0x2E 0x68 
write to 0x0B ack data: 0x05 0x1F 0xA0 0x07 0x2F 0xA0 0x0C 0x2D 0x9A 0x3D 0x3F 0x9F 0xBA 0x6C 0x24 0x1C 0x01 0x11 0x00 0x9F 0x0E 0x02 0x19 0x34 0x1A 0x36 0x9F 0xA9 0x03 0xF6 0x13 0xA1 0x02 
write to 0x0B ack data: 0x05 0x05 0xBD 0x07 0x31 0xA6 0x2A 
write to 0x0B ack data: 0x05 0x1F 0xC0 0x07 0x7B 0x20 0x02 0x00 0xE8 0xE5 0x94 0x03 0x72 0x98 0x02 0xB2 0x92 0xA3 0x31 0x20 0x24 0x5A 0x01 0xE0 0x60 0x01 0x88 0x05 0x32 0xD2 0x00 0x84 0x03 
write to 0x0B ack data: 0x05 0x05 0xDD 0x07 0x22 0x01 0x00 
write to 0x0B ack data: 0x05 0x1F 0xE0 0x07 0xA3 0x30 0x40 0x73 0xE9 0x61 0xF6 0x32 0x20 0xCF 0x02 0xE8 0x21 0x9F 0xA1 0x72 0x9F 0x43 0x07 0x9F 0x57 0x06 0x2F 0x2D 0x9A 0x3D 0x3F 0xF6 0x15 
write to 0x0B ack data: 0x05 0x05 0xFD 0x07 0xB3 0x60 0x80 
write to 0x0B ack data: 0x05 0x1F 0x00 0x08 0x2A 0x24 0xDD 0x02 0xF4 0x61 0x10 0xE9 0xE5 0x80 0x20 0xA1 0x00 0x22 0x90 0x10 0x24 0x3C 0x44 0x46 0x00 0x77 0xA1 0x04 0x23 0xEA 0x0A 0x21 0x18 
write to 0x0B ack data: 0x05 0x05 0x1D 0x08 0x01 0x9C 0x6B 
write to 0x0B ack data: 0x05 0x1F 0x20 0x08 0xA1 0x02 0x23 0xA3 0x22 0x20 0xA3 0x23 0xA0 0x98 0x06 0xA4 0x23 0x00 0xA4 0x22 0x00 0x21 0x18 0x01 0x9C 0x6D 0x2F 0x2D 0x9A 0x3D 0x3E 0x3F 0x24 
write to 0x0B ack data: 0x05 0x05 0x3D 0x08 0xCF 0x02 0x05 
write to 0x0B ack data: 0x05 0x1F 0x40 0x08 0x02 0xA6 0xB0 0xA6 0x1C 0xA6 0x1D 0x01 0x00 0xA6 0x30 0xA6 0x14 0xA6 0x15 0xE9 0x25 0xEA 0x36 0x01 0x04 0xA6 0x30 0xA6 0x14 0xA6 0x15 0xE9 0x25 
write to 0x0B ack data: 0x05 0x05 0x5D 0x08 0xEA 0x36 0x01 
write to 0x0B ack data: 0x05 0x1F 0x60 0x08 0x06 0xA6 0x30 0xA6 0x14 0xA6 0x15 0xE9 0x25 0xEA 0x36 0xE6 0xED 0x00 0x88 0x08 0x20 0x03 0x00 0xE8 0x25 0x30 0xE8 0x36 0x66 0x02 0xF6 0x51 0xF6 
write to 0x0B ack data: 0x05 0x05 0x7D 0x08 0x62 0x9C 0x81 
write to 0x0B ack data: 0x05 0x1F 0x80 0x08 0xF6 0x16 0x24 0x5A 0x01 0xE0 0x60 0x01 0x88 0x10 0xA1 0x00 0x30 0x90 0x0B 0x9F 0xF9 0x07 0xF6 0x12 0x21 0xED 0x02 0x9F 0xA1 0x72 0xF6 0x61 0x9C 
write to 0x0B ack data: 0x05 0x05 0x9D 0x08 0x6A 0x24 0x46 
write to 0x0B ack data: 0x05 0x1F 0xA0 0x08 0x44 0x4A 0x00 0x7B 0xED 0xE1 0x88 0x01 0x36 0xF6 0x62 0x21 0x9B 0x02 0x9F 0xA1 0x72 0xA1 0x00 0x30 0x90 0x28 0x24 0x3C 0x44 0x46 0x00 0x77 0x24 
write to 0x0B ack data: 0x05 0x05 0xBD 0x08 0x97 0x02 0x02 
write to 0x0B ack data: 0x05 0x1F 0xC0 0x08 0x04 0x21 0xEC 0x00 0x9C 0x6B 0x21 0xEC 0x00 0x9C 0x6D 0xF6 0x12 0x21 0x9D 0x02 0x9F 0xA1 0x72 0x9F 0xD3 0x01 0xF6 0x12 0x21 0xF1 0x02 0x9F 0xA1 
write to 0x0B ack data: 0x05 0x05 0xDD 0x08 0x72 0x2F 0x2E 
write to 0x0B ack data: 0x05 0x1F 0xE0 0x08 0x2D 0x9A 0x3D 0xA2 0xC0 0x3F 0xA7 0x02 0x24 0x99 0x46 0x4A 0x00 0x4E 0x01 0xE6 0x0E 0x40 0xE6 0xAA 0x01 0x84 0x06 0x32 0x23 0xFF 0x7F 0x98 0x1C 
write to 0x0B ack data: 0x05 0x05 0xFD 0x08 0x24 0xBD 0x02 
write to 0x0B ack data: 0x05 0x1F 0x00 0x09 0x01 0x0E 0xF6 0x13 0xF6 0x12 0xB3 0x60 0x80 0x01 0x32 0xE6 0x5E 0x00 0x90 0x04 0x6C 0x01 0x98 0x07 0x30 0xE8 0xE1 0x8C 0x01 0x31 0x7C 0xE6 0xAA 
write to 0x0B ack data: 0x05 0x05 0x1D 0x09 0x02 0x90 0x20 
write to 0x0B ack data: 0x05 0x1F 0x20 0x09 0x24 0xBD 0x02 0x05 0x10 0xED 0xE3 0x94 0x02 0xF6 0x53 0xED 0xE2 0x88 0x02 0xF6 0x52 0xE6 0x5E 0x00 0x90 0x06 0xE9 0x25 0xBC 0x9C 0x98 0x06 0xE9 
write to 0x0B ack data: 0x05 0x05 0x3D 0x09 0xE5 0x8C 0x02 
write to 0x0B ack data: 0x05 0x1F 0x40 0x09 0xF6 0x15 0x21 0xB9 0x02 0x13 0xC0 0x9F 0xA1 0x72 0x03 0xC0 0xF6 0x32 0x21 0xBB 0x02 0x9F 0xA1 0x72 0x24 0x99 0x46 0x40 0x01 0xC0 0x40 0x90 0x0E 
write to 0x0B ack data: 0x05 0x05 0x5D 0x09 0xE6 0x5C 0x00 
write to 0x0B ack data: 0x05 0x1F 0x60 0x09 0x90 0x09 0xF6 0x51 0xA6 0xC4 0x75 0x9C 0x7B 0xF6 0x15 0x24 0x3C 0x44 0x46 0x08 0x77 0xF6 0x52 0x21 0x14 0x01 0x9F 0xC8 0x02 0x21 0x14 0x01 0x9C 
write to 0x0B ack data: 0x05 0x05 0x7D 0x09 0x6D 0xF6 0x12 
write to 0x0B ack data: 0x05 0x1F 0x80 0x09 0x21 0x97 0x02 0x9F 0xA1 0x72 0xAA 0x2F 0xA0 0x0C 0x2D 0x9A 0x3D 0x3E 0x3F 0xA7 0x0B 0x9F 0x6D 0x02 0x52 0xC6 0x31 0x11 0xC4 0x24 0xFF 0x7F 0x14 
write to 0x0B ack data: 0x05 0x05 0x9D 0x09 0xC2 0x98 0x6F 
write to 0x0B ack data: 0x05 0x1F 0xA0 0x09 0xE0 0x89 0xC6 0x59 0xC6 0x59 0xC9 0x72 0x52 0xCA 0xF4 0x66 0xC9 0xEE 0x66 0xF6 0x61 0x20 0xF8 0x00 0xE8 0x21 0x9C 0x6D 0xF6 0x15 0xF4 0x64 0xC9 
write to 0x0B ack data: 0x05 0x05 0xBD 0x09 0x14 0xC7 0xF6 
write to 0x0B ack data: 0x05 0x1F 0xC0 0x09 0x12 0xF6 0x41 0x20 0x9F 0x02 0xE8 0x21 0x9F 0xA1 0x72 0x24 0x97 0x02 0xF8 0x04 0x84 0x03 0x36 0x98 0x0B 0xF6 0x61 0x20 0x00 0x01 0xE8 0x21 0x9C 
write to 0x0B ack data: 0x05 0x05 0xDD 0x09 0x6D 0xF6 0x16 
write to 0x0B ack data: 0x05 0x1F 0xE0 0x09 0x01 0xC2 0xED 0xE1 0x94 0x02 0x15 0xC2 0x04 0xC4 0xED 0xE4 0x88 0x02 0x15 0xC4 0xF6 0x62 0x01 0xC7 0x20 0xAD 0x02 0xE8 0x21 0x9F 0xA1 0x72 0xF6 
write to 0x0B ack data: 0x05 0x05 0xFD 0x09 0x52 0xF6 0x61 
write to 0x0B ack data: 0x05 0x1F 0x00 0x0A 0x9F 0xD2 0x73 0xF6 0x12 0x01 0xC7 0x20 0xB1 0x02 0xE8 0x21 0x9F 0xA1 0x72 0x49 0xC6 0xE6 0x59 0x00 0x87 0x8A 0x02 0xC2 0x21 0xAB 0x02 0x9F 0xA1 
write to 0x0B ack data: 0x05 0x05 0x1D 0x0A 0x72 0x02 0xC4 
write to 0x0B ack data: 0x05 0x1F 0x20 0x0A 0x21 0xA9 0x02 0x9F 0xA1 0x72 0x21 0x0C 0x01 0x9C 0x6D 0xF6 0x12 0x21 0xA5 0x02 0x9F 0xA1 0x72 0x21 0x08 0x01 0x9C 0x6D 0xF6 0x12 0x21 0xA3 0x02 
write to 0x0B ack data: 0x05 0x05 0x3D 0x0A 0x9F 0xA1 0x72 
write to 0x0B ack data: 0x05 0x1F 0x40 0x0A 0x21 0x10 0x01 0x9C 0x6D 0xF6 0x16 0xF6 0x12 0x21 0x99 0x02 0x9F 0xA1 0x72 0xF6 0x62 0x24 0x97 0x02 0x01 0x04 0x9F 0xD2 0x73 0x11 0xC0 0xF6 0x12 
write to 0x0B ack data: 0x05 0x05 0x5D 0x0A 0x21 0xB5 0x02 
write to 0x0B ack data: 0x05 0x1F 0x60 0x0A 0x9F 0xA1 0x72 0xA1 0x00 0x30 0x90 0x37 0x24 0x3C 0x44 0x4A 0x00 0x7B 0xA6 0xA6 0xA6 0xB7 0xF6 0x62 0x21 0xF4 0x00 0x9F 0xC8 0x02 0x21 0xF4 0x00 
write to 0x0B ack data: 0x05 0x05 0x7D 0x0A 0x9C 0x6D 0xF6 
write to 0x0B ack data: 0x05 0x1F 0x80 0x0A 0x12 0x21 0xA7 0x02 0x9F 0xA1 0x72 0xA6 0xA6 0xA6 0xB7 0x02 0xC0 0x21 0xF0 0x00 0x9C 0x6B 0x21 0xF0 0x00 0x9C 0x6D 0xF6 0x12 0x21 0xB7 0x02 0x9F 
write to 0x0B ack data: 0x05 0x05 0x9D 0x0A 0xA1 0x72 0xA5 
write to 0x0B ack data: 0x05 0x1F 0xA0 0x0A 0x0B 0x2F 0x2E 0x2D 0x9A 0x3D 0x3F 0x24 0x5A 0x01 0x40 0x02 0xC0 0x01 0x90 0x1B 0xA1 0x06 0x33 0x24 0x05 0x46 0x44 0x12 0x75 0xA6 0x62 0x73 0xE9 
write to 0x0B ack data: 0x05 0x05 0xBD 0x0A 0xE2 0x88 0x04 
write to 0x0B ack data: 0x05 0x1F 0xC0 0x0A 0x64 0x01 0x98 0x0B 0xB6 0x92 0xA3 0x33 0x20 0x98 0x03 0xA4 0x33 0x00 0x74 0x25 0x05 0x46 0x24 0x97 0x02 0x01 0x14 0x24 0x5A 0x01 0xF4 0xE1 0x42 
write to 0x0B ack data: 0x05 0x05 0xDD 0x0A 0x8C 0x1A 0x60 
write to 0x0B ack data: 0x05 0x1F 0xE0 0x0A 0x04 0xF1 0x01 0xA1 0x02 0x2B 0xE0 0x52 0x44 0x88 0x07 0xB2 0x92 0xA3 0x2B 0x20 0x98 0x0E 0xE4 0x60 0x9E 0x80 0x0D 0x98 0x07 0x60 0xFB 0xF0 0x01 
write to 0x0B ack data: 0x05 0x05 0xFD 0x0A 0xA4 0x2B 0x00 
write to 0x0B ack data: 0x05 0x1F 0x00 0x0B 0xD4 0x00 0x90 0x26 0x25 0x97 0x02 0x01 0x4E 0x24 0x05 0x46 0xF4 0xE1 0x05 0x88 0x19 0x01 0x44 0x30 0xE8 0xE1 0x8C 0x12 0x72 0x9F 0x65 0x6C 0x9F 
write to 0x0B ack data: 0x05 0x05 0x1D 0x0B 0xE5 0x27 0x9F 
write to 0x0B ack data: 0x05 0x1F 0x20 0x0B 0x1D 0x72 0x9F 0xBA 0x6A 0x62 0xFF 0x9F 0x73 0x77 0x2F 0x2D 0x9A 0x3F 0x9F 0x8C 0x09 0x9F 0xE2 0x08 0x24 0xCF 0x02 0x42 0x08 0x9F 0x10 0x2D 0xA1 
write to 0x0B ack data: 0x05 0x05 0x3D 0x0B 0x00 0x30 0x90 
write to 0x0B ack data: 0x05 0x1F 0x40 0x0B 0x59 0x9F 0xA0 0x6A 0xA3 0x2F 0x20 0x9F 0xF5 0x2E 0x9F 0x78 0x2E 0x9F 0xC9 0x2D 0x24 0x64 0x01 0x40 0x08 0xC0 0x01 0x90 0x06 0x40 0x09 0xC0 0x01 
write to 0x0B ack data: 0x05 0x05 0x5D 0x0B 0x90 0x03 0xA4 
write to 0x0B ack data: 0x05 0x1F 0x60 0x0B 0x2C 0x01 0x24 0x64 0x01 0x40 0x01 0x84 0x0C 0x40 0x03 0x84 0x08 0x40 0x05 0x84 0x04 0x40 0x07 0x90 0x09 0x24 0x5A 0x01 0x60 0x08 0xF1 0x01 0x98 
write to 0x0B ack data: 0x05 0x05 0x7D 0x0B 0x07 0x24 0x5A 
write to 0x0B ack data: 0x05 0x1F 0x80 0x0B 0x01 0x60 0xF7 0xF0 0x01 0x24 0x5A 0x01 0xA1 0x00 0x32 0x90 0x06 0x60 0x10 0xF1 0x03 0x98 0x04 0x60 0xEF 0xF0 0x03 0x9F 0xA5 0x0A 0x2F 0x9A 0x3F 
write to 0x0B ack data: 0x05 0x05 0x9D 0x0B 0x9F 0xEC 0x69 
write to 0x0B ack data: 0x05 0x1F 0xA0 0x0B 0xB2 0x62 0x65 0x06 0xA6 0x24 0x21 0x5A 0x01 0x9F 0x66 0x72 0x2F 0x9A 0x3D 0x3F 0xA1 0x00 0x9D 0xC0 0x10 0x90 0x1A 0x24 0x5A 0x01 0x40 0x03 0xC0 
write to 0x0B ack data: 0x05 0x05 0xBD 0x0B 0x20 0x84 0x11 
write to 0x0B ack data: 0x05 0x1F 0xC0 0x0B 0xA1 0x00 0x2C 0x90 0x0C 0x32 0x24 0x05 0x46 0xA1 0x00 0x33 0xE0 0x50 0x11 0x94 0x03 0x22 0x01 0x00 0xA6 0x45 0x24 0x99 0x46 0x44 0x02 0xD2 0x00 
write to 0x0B ack data: 0x05 0x05 0xDD 0x0B 0x90 0x29 0xD5 
write to 0x0B ack data: 0x05 0x1F 0xE0 0x0B 0x00 0x84 0x0F 0xD2 0x01 0x90 0x0B 0xD2 0x03 0x84 0x08 0x24 0x96 0x02 0x44 0x00 0x98 0x01 0x74 0x73 0xA6 0x42 0x9F 0xE3 0x6B 0xA6 0x24 0x21 0x96 
write to 0x0B ack data: 0x05 0x05 0xFD 0x0B 0x02 0x9F 0x97 
write to 0x0B ack data: 0x05 0x1F 0x00 0x0C 0x72 0x24 0x96 0x02 0x4B 0x00 0x98 0x9C 0xD5 0x00 0x84 0x15 0x25 0x05 0x46 0x24 0x97 0x02 0x01 0x14 0xF4 0xE1 0x42 0x8C 0x0E 0xA1 0x00 0x2B 0xE0 
write to 0x0B ack data: 0x05 0x05 0x1D 0x0C 0x50 0x44 0x80 
write to 0x0B ack data: 0x05 0x1F 0x20 0x0C 0x06 0xC4 0xFE 0xD5 0x00 0x84 0x32 0x24 0x00 0x46 0x42 0x00 0xCA 0x10 0x90 0x07 0xA1 0x00 0x9B 0xC0 0x10 0x84 0x22 0xCA 0x08 0x90 0x07 0xA1 0x00 
write to 0x0B ack data: 0x05 0x05 0x3D 0x0C 0x9B 0xC0 0x20 
write to 0x0B ack data: 0x05 0x1F 0x40 0x0C 0x84 0x17 0xCA 0x20 0x90 0x07 0xA1 0x00 0xB0 0xC0 0x08 0x84 0x0C 0xCA 0x40 0x84 0x0A 0x24 0x5A 0x01 0xE0 0x60 0x01 0x80 0x02 0xC4 0xF5 0xCC 0x02 
write to 0x0B ack data: 0x05 0x05 0x5D 0x0C 0x90 0x10 0x24 
write to 0x0B ack data: 0x05 0x1F 0x60 0x0C 0x97 0x02 0x01 0x02 0x24 0x99 0x46 0xF4 0xE1 0x09 0x88 0x03 0xE6 0x14 0x08 0xA6 0x42 0x9F 0x66 0x01 0x9F 0x77 0x01 0x9F 0xB6 0x01 0x24 0x00 0x46 
write to 0x0B ack data: 0x05 0x05 0x7D 0x0C 0x40 0x00 0xE7 
write to 0x0B ack data: 0x05 0x1F 0x80 0x0C 0x08 0x40 0xA6 0x1A 0xE6 0x0A 0x01 0xA6 0xA3 0x9F 0xE8 0x2D 0xA6 0x2B 0xA6 0xA3 0x9F 0x4C 0x2E 0xA6 0x2A 0xA6 0x24 0x21 0x96 0x02 0x9F 0x97 0x72 
write to 0x0B ack data: 0x05 0x05 0x9D 0x0C 0x63 0xCF 0xA6 
write to 0x0B ack data: 0x05 0x1F 0xA0 0x0C 0xA2 0x9F 0x1C 0x6B 0x24 0x5A 0x01 0xE6 0xAB 0x01 0x84 0x06 0x60 0x20 0xF1 0x01 0x98 0x04 0x60 0xDF 0xF0 0x01 0x24 0x5A 0x01 0xE6 0xAB 0x02 0x84 
write to 0x0B ack data: 0x05 0x05 0xBD 0x0C 0x06 0x60 0x40 
write to 0x0B ack data: 0x05 0x1F 0xC0 0x0C 0xF1 0x01 0x98 0x04 0x60 0xBF 0xF0 0x01 0xA1 0x00 0x2F 0x90 0x06 0x9F 0xF5 0x68 0xA4 0x2F 0x00 0x9F 0x9C 0x0B 0x2F 0x2D 0x9A 0x3F 0x62 0x03 0x9F 
write to 0x0B ack data: 0x05 0x05 0xDD 0x0C 0xAE 0x0B 0x9F 
write to 0x0B ack data: 0x05 0x1F 0xE0 0x0C 0xD6 0x02 0x2F 0x9A 0x3F 0xE4 0x92 0x2A 0xA3 0x2A 0x20 0xFC 0x60 0x24 0x42 0x01 0x52 0x00 0xA1 0x02 0x29 0x52 0x01 0x23 0x16 0x00 0x22 0x1C 0x01 
write to 0x0B ack data: 0x05 0x05 0xFD 0x0C 0x21 0x44 0x01 
write to 0x0B ack data: 0x05 0x1F 0x00 0x0D 0x9C 0x71 0xFC 0x50 0xA1 0x02 0x29 0x24 0x5A 0x01 0x40 0x02 0xC0 0x20 0x90 0x0C 0xD2 0x02 0x90 0x15 0xA4 0x29 0x02 0x9F 0xFD 0x6C 0x98 0x0A 0xD2 
write to 0x0B ack data: 0x05 0x05 0x1D 0x0D 0x01 0x90 0x09 
write to 0x0B ack data: 0x05 0x1F 0x20 0x0D 0xA4 0x29 0x01 0x9F 0xED 0x6C 0x9F 0x43 0x07 0x2F 0x9A 0x3F 0x9F 0x19 0x6C 0x9F 0x02 0x06 0x9F 0xA5 0x07 0x9F 0xE4 0x0C 0x9F 0x39 0x08 0x9F 0x2D 
write to 0x0B ack data: 0x05 0x05 0x3D 0x0D 0x0B 0x21 0x00 
write to 0x0B ack data: 0x05 0x1F 0x40 0x0D 0x02 0x9C 0x47 0x2F 0x9A 0xA2 0xA0 0x3F 0xA6 0x2A 0x32 0x21 0x01 0x02 0x9C 0x43 0x9F 0x43 0x07 0xE6 0x5A 0x00 0x90 0x03 0x9F 0xED 0x6C 0x2F 0xA0 
write to 0x0B ack data: 0x05 0x05 0x5D 0x0D 0x0A 0x9A 0x3F 
write to 0x0B ack data: 0x05 0x1F 0x60 0x0D 0x62 0x01 0x9F 0xAE 0x0B 0x9F 0x37 0x01 0xA4 0x31 0x03 0x9F 0x2B 0x0D 0x2F 0x9A 0x3F 0x24 0x64 0x01 0x40 0x09 0x84 0x0C 0x40 0x0B 0x84 0x08 0x40 
write to 0x0B ack data: 0x05 0x05 0x7D 0x0D 0x0D 0x84 0x04 
write to 0x0B ack data: 0x05 0x1F 0x80 0x0D 0x40 0x0F 0x90 0x08 0x64 0x01 0x21 0xF4 0x0E 0x9F 0x01 0x26 0x2F 0x9A 0x3D 0x3F 0x62 0x80 0x9F 0x65 0x6C 0x62 0x01 0x9F 0x45 0x0D 0x25 0xFC 0x02 
write to 0x0B ack data: 0x05 0x05 0x9D 0x0D 0xE0 0x80 0x40 
write to 0x0B ack data: 0x05 0x1F 0xA0 0x0D 0x90 0x16 0x21 0xC8 0x42 0x9F 0x6B 0x2F 0x40 0x40 0xD0 0x02 0x90 0x05 0x9F 0x5F 0x0D 0x98 0x08 0x9F 0xD9 0x0C 0x98 0x03 0x9F 0xF8 0x00 0xA4 0x2E 
write to 0x0B ack data: 0x05 0x05 0xBD 0x0D 0x00 0x64 0x02 
write to 0x0B ack data: 0x05 0x1F 0xC0 0x0D 0x21 0xFC 0x02 0x9F 0x97 0x72 0x9F 0x70 0x0D 0x72 0x9F 0xAE 0x0B 0x9F 0x2B 0x0D 0x9F 0x77 0x2A 0x9F 0x14 0x03 0x99 0xEE 0x3F 0xA7 0x10 0x24 0xC0 
write to 0x0B ack data: 0x05 0x05 0xDD 0x0D 0x42 0x40 0x09 
write to 0x0B ack data: 0x05 0x1F 0xE0 0x0D 0x84 0x0C 0x40 0x0B 0x84 0x08 0x40 0x0D 0x84 0x04 0x40 0x0F 0x90 0x1C 0x64 0x10 0x21 0x64 0x01 0x9C 0x68 0x64 0x10 0xF6 0x81 0x9C 0x68 0x60 0xFD 
write to 0x0B ack data: 0x05 0x05 0xFD 0x0D 0xF2 0xCD 0x23 
write to 0x0B ack data: 0x05 0x1F 0x00 0x0E 0x10 0x00 0xF6 0x82 0x21 0xC0 0x42 0x9F 0x86 0x6D 0xA5 0x10 0x2F 0x9A 0x3D 0x3F 0xA7 0x12 0x24 0x5A 0x01 0x01 0x00 0x02 0x02 0x11 0xC0 0x12 0xC2 
write to 0x0B ack data: 0x05 0x05 0x1D 0x0E 0x25 0x9A 0x00 
write to 0x0B ack data: 0x05 0x1F 0x20 0x0E 0x23 0x03 0x00 0xF6 0x52 0xF6 0x81 0xE6 0x22 0x04 0xB3 0xD3 0x9C 0x71 0xA1 0x03 0xB0 0x53 0xC7 0x0A 0xB1 0x12 0xC8 0x24 0x97 0x02 0x01 0x08 0x02 
write to 0x0B ack data: 0x05 0x05 0x3D 0x0E 0x0A 0x11 0xCA 
write to 0x0B ack data: 0x05 0x1F 0x40 0x0E 0x12 0xCC 0x02 0x0C 0x12 0xCE 0x01 0x0E 0x11 0xD0 0x23 0x12 0x00 0xF6 0x82 0x21 0xD0 0x42 0x9F 0x86 0x6D 0x64 0x03 0xF6 0x51 0x9C 0x68 0xA5 0x12 
write to 0x0B ack data: 0x05 0x05 0x5D 0x0E 0x2F 0x2D 0x9A 
write to 0x0B ack data: 0x05 0x1F 0x60 0x0E 0x3D 0x3E 0x3F 0xA7 0x10 0x21 0xC0 0x42 0xF6 0x86 0x25 0x64 0x01 0x98 0x0F 0xF6 0x14 0x40 0x40 0xE0 0x10 0x00 0x50 0x80 0xEE 0x96 0xE9 0x91 0xED 
write to 0x0B ack data: 0x05 0x05 0x7D 0x0E 0x95 0x20 0x74 
write to 0x0B ack data: 0x05 0x1F 0x80 0x0E 0x01 0xED 0xC0 0x87 0xEA 0x60 0xFD 0xF2 0xCD 0x23 0x10 0x00 0xF6 0x82 0x21 0xC0 0x42 0x9F 0x86 0x6D 0x60 0x02 0xF3 0xCD 0xA5 0x10 0x2F 0x2E 0x2D 
write to 0x0B ack data: 0x05 0x05 0x9D 0x0E 0x9A 0x3F 0xA7 
write to 0x0B ack data: 0x05 0x1F 0xA0 0x0E 0x0E 0x23 0x06 0x00 0x22 0xCB 0x02 0xF6 0x84 0xEC 0x91 0xE9 0x91 0x9C 0x71 0x9F 0xA0 0x35 0x23 0x04 0x00 0xF6 0x12 0xF6 0x81 0xE6 0x22 0x08 0xB3 
write to 0x0B ack data: 0x05 0x05 0xBD 0x0E 0xD3 0x9C 0x71 
write to 0x0B ack data: 0x05 0x1F 0xC0 0x0E 0x24 0x97 0x02 0x01 0x04 0x11 0xC0 0x24 0xCA 0x01 0x01 0x00 0x11 0xCC 0x23 0x0E 0x00 0xF6 0x82 0x21 0xE2 0x42 0x9F 0x86 0x6D 0xA5 0x0E 0x2F 0x9A 
write to 0x0B ack data: 0x05 0x05 0xDD 0x0E 0x3F 0xA7 0x15 
write to 0x0B ack data: 0x05 0x1F 0xE0 0x0E 0xF6 0x81 0x9F 0x7A 0x6A 0x23 0x15 0x00 0xF6 0x82 0x21 0xF0 0x42 0x9F 0x86 0x6D 0xA5 0x15 0x2F 0x9A 0x3D 0x3F 0x62 0x01 0x9F 0xAE 0x0B 0x24 0x5A 
write to 0x0B ack data: 0x05 0x05 0xFD 0x0E 0x01 0x60 0x10 
write to 0x0B ack data: 0x05 0x1F 0x00 0x0F 0xF1 0x01 0x62 0x82 0x9F 0x65 0x6C 0x62 0x01 0x9F 0x45 0x0D 0x24 0xC0 0x42 0x40 0x09 0x84 0x1B 0x40 0x0B 0x84 0x17 0x40 0x0D 0x84 0x13 0x40 0x0F 
write to 0x0B ack data: 0x05 0x05 0x1D 0x0F 0x84 0x0F 0x9F 
write to 0x0B ack data: 0x05 0x1F 0x20 0x0F 0x73 0x27 0x9F 0x0E 0x0E 0x9F 0x9E 0x0E 0x9F 0xDD 0x0E 0x9F 0x60 0x0E 0x60 0x02 0xF3 0xCD 0x9F 0xF6 0x02 0x25 0x64 0x01 0x98 0x0D 0x72 0x9F 0xAE 
write to 0x0B ack data: 0x05 0x05 0x3D 0x0F 0x0B 0x9F 0x60 
write to 0x0B ack data: 0x05 0x1F 0x40 0x0F 0x0E 0x9F 0x2B 0x0D 0x9F 0x14 0x03 0x40 0x49 0x87 0xEF 0x40 0x4B 0x87 0xEB 0x40 0x4D 0x87 0xE7 0x40 0x4F 0x87 0xE3 0x60 0xFD 0xF2 0xCD 0x24 0x5A 
write to 0x0B ack data: 0x05 0x05 0x5D 0x0F 0x01 0x60 0xEF 
write to 0x0B ack data: 0x05 0x1F 0x60 0x0F 0xF0 0x01 0x64 0x01 0x21 0x8E 0x0D 0x9F 0x01 0x26 0x2F 0x2D 0x9A 0x3F 0x62 0x02 0x9F 0x95 0x71 0x9F 0x02 0x06 0x62 0x02 0x9F 0x9E 0x71 0x9F 0x2D 
write to 0x0B ack data: 0x05 0x05 0x7D 0x0F 0x0B 0x9F 0x77 
write to 0x0B ack data: 0x05 0x1F 0x80 0x0F 0x2A 0x2F 0x9A 0xA2 0xA0 0x3E 0x3F 0x72 0x9F 0x45 0x0D 0x7A 0x26 0x5A 0x01 0x21 0x01 0x00 0x9C 0x45 0x72 0x9F 0xAE 0x0B 0x60 0xFB 0xF0 0x83 0xE6 
write to 0x0B ack data: 0x05 0x05 0x9D 0x0F 0x5A 0x00 0x90 
write to 0x0B ack data: 0x05 0x1F 0xA0 0x0F 0x07 0xA1 0x00 0xB1 0xC0 0x20 0x90 0x0E 0x60 0x04 0xF1 0x83 0x9F 0x6D 0x0F 0x24 0x05 0x46 0x4A 0x0E 0x90 0x02 0xBA 0x8A 0x21 0x00 0x02 0x9C 0x47 
write to 0x0B ack data: 0x05 0x05 0xBD 0x0F 0x99 0xD0 0x3D 
write to 0x0B ack data: 0x05 0x1F 0xC0 0x0F 0x3E 0x3F 0xA7 0x05 0x54 0xC4 0x24 0xD9 0x02 0xF6 0x16 0xF4 0xCE 0x01 0x54 0xC2 0x72 0x52 0xC3 0xF4 0x64 0xC2 0x20 0x1C 0x01 0xE8 0x24 0x16 0x16 
write to 0x0B ack data: 0x05 0x05 0xDD 0x0F 0x25 0x00 0x44 
write to 0x0B ack data: 0x05 0x1F 0xE0 0x0F 0xD4 0x00 0x84 0x17 0xF4 0xE6 0x44 0x88 0x04 0x03 0x46 0x98 0x7E 0x02 0x40 0xF6 0x61 0x9F 0x83 0x76 0xF6 0x13 0xF4 0x23 0x42 0x98 0x70 0x21 0x6A 
write to 0x0B ack data: 0x05 0x05 0xFD 0x0F 0x01 0x9F 0x69 
write to 0x0B ack data: 0x05 0x1F 0x00 0x10 0x6E 0x11 0xC0 0x21 0x6C 0x01 0x9F 0x69 0x6E 0xF6 0x13 0x02 0x5E 0x84 0x02 0x02 0xC0 0x24 0x00 0x44 0x01 0x20 0x84 0x02 0xF6 0x31 0xF6 0x13 0x21 
write to 0x0B ack data: 0x05 0x05 0x1D 0x10 0x00 0x80 0xEE 
write to 0x0B ack data: 0x05 0x1F 0x20 0x10 0xC1 0x9F 0x2F 0x77 0xE9 0xC6 0x24 0x00 0x44 0x01 0x1C 0x05 0x1A 0x23 0x00 0x80 0xE9 0xC3 0xF6 0x52 0xE9 0xC2 0x21 0x00 0x80 0xEE 0xC1 0x9F 0x2F 
write to 0x0B ack data: 0x05 0x05 0x3D 0x10 0x77 0xF6 0x53 
write to 0x0B ack data: 0x05 0x1F 0x40 0x10 0xE9 0xC3 0xF6 0x52 0xF6 0x61 0x9F 0x2F 0x77 0xF6 0x15 0x66 0x05 0xF6 0x12 0x21 0x08 0x44 0x9F 0x92 0x76 0xF6 0x13 0xF6 0x52 0x21 0x00 0x40 0x9F 
write to 0x0B ack data: 0x05 0x05 0x5D 0x10 0x2F 0x77 0x66 
write to 0x0B ack data: 0x05 0x1F 0x60 0x10 0x04 0xF6 0x12 0x21 0x12 0x44 0x9F 0x92 0x76 0xF6 0x13 0x04 0xC2 0x20 0x00 0x40 0xE8 0x24 0x44 0x14 0xEA 0x0A 0x42 0xC4 0x73 0xE9 0x61 0xEB 0x22 
write to 0x0B ack data: 0x05 0x05 0x7D 0x10 0x20 0xCB 0x02 
write to 0x0B ack data: 0x05 0x1F 0x80 0x10 0xE8 0x21 0x9F 0xA1 0x72 0xAD 0x2F 0x2E 0x2D 0x9A 0x3F 0x9F 0xD7 0x67 0x9F 0xB7 0x67 0x2F 0x9A 0x3D 0xB3 0x60 0x80 0x01 0x31 0xF6 0x15 0xEA 0xE1 
write to 0x0B ack data: 0x05 0x05 0x9D 0x10 0x94 0x02 0xF6 
write to 0x0B ack data: 0x05 0x1F 0xA0 0x10 0x25 0x24 0x00 0x46 0x40 0x01 0xC0 0x01 0x90 0x29 0xE4 0x60 0x9B 0x88 0x24 0xA1 0x00 0xB0 0xC0 0x02 0x84 0x1D 0xF7 0x00 0x00 0xF7 0x70 0xFD 0xF6 
write to 0x0B ack data: 0x05 0x05 0xBD 0x10 0x21 0xA6 0x30 
write to 0x0B ack data: 0x05 0x1F 0xC0 0x10 0xA6 0x14 0xA6 0x15 0x9C 0x78 0xAC 0x66 0x10 0x9C 0x81 0xF6 0x12 0xE9 0xE5 0x94 0x02 0xF6 0x25 0xF6 0x51 0x2D 0x9A 0x9A 0x3D 0x3F 0xF6 0x15 0x24 
write to 0x0B ack data: 0x05 0x05 0xDD 0x10 0x00 0x46 0x40 
write to 0x0B ack data: 0x05 0x1F 0xE0 0x10 0x01 0xC0 0x02 0x90 0x1D 0x24 0x4C 0x46 0x40 0x01 0xC0 0x10 0x84 0x14 0x24 0x5A 0x01 0x40 0x03 0xC0 0x01 0x84 0x0B 0xE4 0xA0 0x2E 0x84 0x06 0x00 
write to 0x0B ack data: 0x05 0x05 0xFD 0x10 0x40 0xEA 0x50 
write to 0x0B ack data: 0x05 0x1F 0x00 0x11 0x94 0x05 0xF6 0x51 0x9F 0xA1 0x72 0x2F 0x2D 0x9A 0x3D 0x3E 0x3F 0x25 0x21 0x03 0x44 0x48 0x75 0x21 0xF5 0x02 0x9F 0xA1 0x72 0x02 0x44 0x21 0xE7 
write to 0x0B ack data: 0x05 0x05 0x1D 0x11 0x02 0x9F 0xA1 
write to 0x0B ack data: 0x05 0x1F 0x20 0x11 0x72 0x26 0xDD 0x02 0x02 0x8A 0x01 0x40 0x9F 0x93 0x10 0xF6 0x12 0x21 0xE5 0x02 0x9F 0xD8 0x10 0x24 0x00 0x46 0x40 0x01 0xC0 0x04 0x90 0x0E 0xA1 
write to 0x0B ack data: 0x05 0x05 0x3D 0x11 0x00 0xB0 0xC0 
write to 0x0B ack data: 0x05 0x1F 0x40 0x11 0x01 0x90 0x07 0xF8 0x88 0x84 0x03 0xA4 0x89 0x01 0x2F 0x2E 0x2D 0x9A 0x3D 0x3F 0x25 0x29 0x46 0x02 0x40 0x21 0xE7 0x02 0x9F 0xA1 0x72 0x02 0x44 
write to 0x0B ack data: 0x05 0x05 0x5D 0x11 0x21 0x99 0x02 
write to 0x0B ack data: 0x05 0x1F 0x60 0x11 0x9F 0xA1 0x72 0x22 0x40 0x00 0x21 0xE3 0x02 0x9F 0xA1 0x72 0x22 0x72 0x0B 0x21 0x97 0x02 0x9F 0xA1 0x72 0x25 0x05 0x46 0x02 0x53 0x21 0xED 0x02 
write to 0x0B ack data: 0x05 0x05 0x7D 0x11 0x9F 0xA1 0x72 
write to 0x0B ack data: 0x05 0x1F 0x80 0x11 0x02 0x55 0x21 0xF1 0x02 0x9F 0xA1 0x72 0x24 0x27 0x47 0x44 0x04 0x75 0x21 0xF5 0x02 0x9F 0xA1 0x72 0x21 0x00 0x02 0x9C 0x45 0x9F 0x3B 0x71 0x2F 
write to 0x0B ack data: 0x05 0x05 0x9D 0x11 0x2D 0x9A 0x3D 
write to 0x0B ack data: 0x05 0x1F 0xA0 0x11 0x3F 0x25 0xDD 0x02 0x66 0x01 0x02 0x4A 0x01 0x48 0x9F 0x93 0x73 0xA6 0x24 0x75 0x21 0xF7 0x02 0x9F 0xD8 0x10 0x42 0x5A 0x9F 0x93 0x44 0x72 0x9F 
write to 0x0B ack data: 0x05 0x05 0xBD 0x11 0x9A 0x45 0x24 
write to 0x0B ack data: 0x05 0x1F 0xC0 0x11 0x21 0x03 0x44 0x0A 0x75 0x21 0xF9 0x02 0x9F 0xA1 0x72 0x01 0x46 0xC2 0x8F 0xC3 0x35 0xA6 0x24 0xA6 0x35 0xA1 0x06 0xB0 0xCE 0x40 0x90 0x03 0xE6 
write to 0x0B ack data: 0x05 0x05 0xDD 0x11 0x14 0x40 0xCE 
write to 0x0B ack data: 0x05 0x1F 0xE0 0x11 0x08 0x90 0x05 0xE4 0x80 0x2E 0x90 0x25 0x24 0x64 0x01 0x42 0x00 0xCA 0x06 0x84 0x1C 0x40 0x02 0xC0 0x10 0x84 0x16 0x40 0x08 0xC0 0x02 0x84 0x10 
write to 0x0B ack data: 0x05 0x05 0xFD 0x11 0x40 0x09 0x84 
write to 0x0B ack data: 0x05 0x1F 0x00 0x12 0x0C 0x40 0x0B 0x84 0x08 0x40 0x0D 0x84 0x04 0x40 0x0F 0x90 0x03 0xE6 0x15 0x40 0xCE 0x02 0x90 0x03 0xE6 0x14 0x20 0xCE 0x04 0x90 0x05 0xE4 0xA0 
write to 0x0B ack data: 0x05 0x05 0x1D 0x12 0x2E 0x90 0x25 
write to 0x0B ack data: 0x05 0x1F 0x20 0x12 0x24 0x64 0x01 0x42 0x00 0xCA 0x11 0x84 0x1C 0x40 0x02 0xC0 0x20 0x84 0x16 0x40 0x08 0xC0 0x01 0x84 0x10 0x40 0x09 0x84 0x0C 0x40 0x0B 0x84 0x08 
write to 0x0B ack data: 0x05 0x05 0x3D 0x12 0x40 0x0D 0x84 
write to 0x0B ack data: 0x05 0x1F 0x40 0x12 0x04 0x40 0x0F 0x90 0x03 0xE6 0x15 0x08 0xCE 0x01 0x84 0x0F 0x24 0x64 0x01 0x40 0x01 0xC0 0x01 0x84 0x06 0x40 0x09 0xC0 0x01 0x90 0x03 0xE6 0x14 
write to 0x0B ack data: 0x05 0x05 0x5D 0x12 0x10 0x21 0xE3 
write to 0x0B ack data: 0x05 0x1F 0x60 0x12 0x02 0x9F 0xA1 0x72 0x2F 0x2D 0x9A 0x3D 0x3F 0xF6 0x15 0x30 0xE8 0xE1 0x8C 0x05 0x21 0xFF 0xFF 0x98 0x59 0x24 0xCA 0x01 0x07 0x00 0xF4 0x27 0x1E 
write to 0x0B ack data: 0x05 0x05 0x7D 0x12 0x30 0xE8 0xE7 
write to 0x0B ack data: 0x05 0x1F 0x80 0x12 0x8C 0x03 0x31 0x98 0x49 0x24 0x5D 0x46 0x02 0x35 0xF6 0x20 0xE9 0x50 0x94 0x03 0x34 0x98 0x0A 0xF6 0x14 0xEA 0xC4 0xEF 0x54 0x94 0x02 0xF6 0x74 
write to 0x0B ack data: 0x05 0x05 0x9D 0x12 0xF6 0x51 0x9C 
write to 0x0B ack data: 0x05 0x1F 0xA0 0x12 0x7C 0x20 0x02 0x00 0xE8 0x51 0x8C 0x04 0xE9 0x61 0x98 0x10 0x20 0x08 0x00 0xE8 0x51 0x94 0x05 0x21 0x0A 0x00 0x98 0x04 0xE9 0x91 0xE9 0x91 0xF6 
write to 0x0B ack data: 0x05 0x05 0xBD 0x12 0x42 0x9C 0x77 
write to 0x0B ack data: 0x05 0x1F 0xC0 0x12 0x66 0x03 0x9C 0x81 0xF6 0x53 0x22 0x3C 0x00 0xEF 0x21 0x9F 0x92 0x77 0x2F 0x2D 0x9A 0x3F 0xF6 0x27 0xB3 0x60 0x88 0x05 0x21 0xFF 0xFF 0x98 0x0C 
write to 0x0B ack data: 0x05 0x05 0xDD 0x12 0xE9 0xB3 0x24 
write to 0x0B ack data: 0x05 0x1F 0xE0 0x12 0xDD 0x02 0x02 0x08 0xF6 0x71 0x9F 0x92 0x77 0x2F 0x9A 0x3D 0x3F 0x24 0x97 0x02 0x01 0x06 0x9F 0x67 0x12 0xF6 0x12 0x21 0xEB 0x02 0x9F 0xA1 0x72 
write to 0x0B ack data: 0x05 0x05 0xFD 0x12 0x21 0x03 0x00 
write to 0x0B ack data: 0x05 0x1F 0x00 0x13 0x9F 0x74 0x39 0x22 0x3C 0x00 0x9F 0xD1 0x12 0xF6 0x12 0x21 0xE9 0x02 0x9F 0xA1 0x72 0x25 0xDD 0x02 0x22 0x3C 0x00 0x01 0x50 0x9F 0xD1 0x12 0xF6 
write to 0x0B ack data: 0x05 0x05 0x1D 0x13 0x12 0x21 0xEF 
write to 0x0B ack data: 0x05 0x1F 0x20 0x13 0x02 0x9F 0xA1 0x72 0x22 0x3C 0x00 0x01 0x54 0x9F 0xD1 0x12 0xF6 0x12 0x21 0xF3 0x02 0x9F 0xA1 0x72 0x2F 0x2D 0x9A 0x3F 0x21 0x05 0x00 0x9F 0x74 
write to 0x0B ack data: 0x05 0x05 0x3D 0x13 0x39 0x22 0x3C 
write to 0x0B ack data: 0x05 0x1F 0x40 0x13 0x00 0x9F 0xD1 0x12 0xF6 0x12 0x21 0xE1 0x02 0x9F 0xA1 0x72 0x2F 0x9A 0x3F 0x24 0x64 0x01 0x42 0x03 0xCA 0x30 0x90 0x05 0x22 0x10 0x10 0x98 0x03 
write to 0x0B ack data: 0x05 0x05 0x5D 0x13 0x22 0x00 0x10 
write to 0x0B ack data: 0x05 0x1F 0x60 0x13 0x21 0xE4 0x02 0x9F 0x66 0x72 0x9F 0x0A 0x11 0x9F 0x9F 0x11 0x9F 0xEB 0x12 0x9F 0x37 0x13 0x9F 0x2D 0x21 0x2F 0x9A 0x3D 0x3F 0xF5 0x91 0x3B 0x19 
write to 0x0B ack data: 0x05 0x05 0x7D 0x13 0x3B 0x24 0x00 
write to 0x0B ack data: 0x05 0x1F 0x80 0x13 0x46 0x40 0x04 0xC0 0x01 0x90 0x14 0x25 0x5A 0x01 0xE0 0x60 0x41 0x80 0x0C 0x24 0x05 0x46 0x02 0x18 0x90 0x05 0xA1 0x00 0x8A 0x84 0x05 0x31 0x19 
write to 0x0B ack data: 0x05 0x05 0x9D 0x13 0x39 0x98 0x15 
write to 0x0B ack data: 0x05 0x1F 0xA0 0x13 0x20 0x57 0x02 0xE8 0x51 0x94 0x10 0xF5 0x91 0x39 0x19 0x39 0xEA 0x51 0x80 0x04 0x60 0x01 0xF1 0x42 0x31 0x19 0x3B 0x09 0x3D 0x90 0x04 0xE9 0x81 
write to 0x0B ack data: 0x05 0x05 0xBD 0x13 0x19 0x3D 0xA1 
write to 0x0B ack data: 0x05 0x1F 0xC0 0x13 0x02 0x8A 0xD2 0xFF 0x90 0x05 0xB2 0x92 0xA3 0x8A 0x20 0x9F 0x65 0x30 0x9F 0xAA 0x27 0x9F 0x76 0x2F 0x2F 0x2D 0x9A 0x3F 0x24 0x00 0x46 0x40 0x02 
write to 0x0B ack data: 0x05 0x05 0xDD 0x13 0xC0 0x01 0x90 
write to 0x0B ack data: 0x05 0x1F 0xE0 0x13 0x33 0xA1 0x02 0x8C 0x90 0x05 0xB2 0x82 0xA3 0x8C 0x20 0xA1 0x00 0x8C 0x84 0x1C 0xA1 0x02 0x8B 0xCA 0x0C 0x90 0x07 0x24 0x17 0x80 0x60 0xDF 0xF0 
write to 0x0B ack data: 0x05 0x05 0xFD 0x13 0x00 0xE6 0x12 
write to 0x0B ack data: 0x05 0x1F 0x00 0x14 0x0C 0xA3 0x8B 0x20 0x24 0x23 0x46 0x42 0x05 0xA3 0x8C 0x20 0xA1 0x00 0x8B 0x90 0x03 0x9F 0xC0 0x70 0x2F 0x9A 0x3D 0x3E 0x3F 0xA7 0x03 0x9F 0xFD 
write to 0x0B ack data: 0x05 0x05 0x1D 0x14 0x6C 0x9F 0x43 
write to 0x0B ack data: 0x05 0x1F 0x20 0x14 0x07 0x21 0x00 0x02 0x9C 0x45 0x31 0x11 0xC1 0x24 0x00 0x40 0x05 0x10 0x26 0x5A 0x01 0x98 0x24 0x9F 0x3B 0x71 0x21 0x00 0x02 0x9C 0x45 0x24 0x1C 
write to 0x0B ack data: 0x05 0x05 0x3D 0x14 0x01 0x00 0xC1 
write to 0x0B ack data: 0x05 0x1F 0x40 0x14 0xF4 0x20 0x00 0x10 0xC1 0x21 0x01 0x01 0x9F 0x3F 0x16 0xD2 0x00 0x84 0x06 0x40 0x82 0xC0 0x08 0x90 0x06 0xED 0x85 0xF9 0x50 0x87 0xD8 0x9F 0xED 
write to 0x0B ack data: 0x05 0x05 0x5D 0x14 0x6C 0x9F 0x43 
write to 0x0B ack data: 0x05 0x1F 0x60 0x14 0x07 0xF9 0x50 0x84 0x32 0x01 0xC1 0x9C 0x6A 0x24 0x46 0x44 0xF4 0xE1 0x05 0x88 0x26 0x24 0xC0 0x40 0x42 0x00 0xE6 0x12 0x04 0x52 0xC0 0x23 0x03 
write to 0x0B ack data: 0x05 0x05 0x7D 0x14 0x00 0xF6 0x82 
write to 0x0B ack data: 0x05 0x1F 0x80 0x14 0xF6 0x41 0x9F 0x86 0x6D 0x24 0x5A 0x01 0x60 0x02 0xF1 0x03 0x60 0xF7 0xF0 0x02 0x21 0xA0 0x8C 0x19 0x3D 0x98 0x07 0x24 0x5A 0x01 0x60 0x02 0xF1 
write to 0x0B ack data: 0x05 0x05 0x9D 0x14 0x03 0x9F 0x3B 
write to 0x0B ack data: 0x05 0x1F 0xA0 0x14 0x71 0xAB 0x2F 0x2E 0x2D 0x9A 0x3D 0x3E 0x3F 0xA7 0x01 0x9F 0xFD 0x15 0x52 0xC0 0x63 0x01 0x9F 0x3F 0x16 0x25 0x5A 0x01 0xD2 0x00 0x90 0x2D 0x40 
write to 0x0B ack data: 0x05 0x05 0xBD 0x14 0x43 0xC0 0x02 
write to 0x0B ack data: 0x05 0x1F 0xC0 0x14 0x84 0x3C 0x24 0xC0 0x40 0x40 0x00 0xC0 0x01 0x90 0x33 0xFA 0x3D 0x84 0x2F 0x9F 0xC8 0x01 0x26 0x05 0x46 0xF4 0xE1 0x8C 0x8C 0x24 0x9F 0xC8 0x01 
write to 0x0B ack data: 0x05 0x05 0xDD 0x14 0xF4 0xE1 0x8A 
write to 0x0B ack data: 0x05 0x1F 0xE0 0x14 0x80 0x1C 0xE0 0x60 0x42 0x88 0x17 0x98 0x06 0x40 0x42 0xC0 0x08 0x90 0x05 0x9F 0x16 0x14 0x98 0x0A 0x42 0xC0 0xD2 0x00 0x84 0x04 0x60 0xFD 0xF0 
write to 0x0B ack data: 0x05 0x05 0xFD 0x14 0x43 0x73 0x42 
write to 0x0B ack data: 0x05 0x1F 0x00 0x15 0xC0 0x9F 0x3F 0x16 0xA9 0x2F 0x2E 0x2D 0x9A 0xA2 0xA0 0x3F 0xA6 0x2A 0xA1 0x00 0x38 0x84 0x03 0x9F 0x4E 0x13 0x21 0x00 0x02 0x9C 0x45 0x9F 0x3B 
write to 0x0B ack data: 0x05 0x05 0x1D 0x15 0x71 0x9F 0x3E 
write to 0x0B ack data: 0x05 0x1F 0x20 0x15 0x06 0xE9 0x09 0x9F 0xA3 0x31 0x9F 0x3F 0x28 0x72 0xA1 0x00 0x30 0x84 0x02 0x62 0x01 0xA3 0x38 0x20 0xD2 0x00 0x84 0x10 0x9F 0x77 0x13 0xE6 0x5A 
write to 0x0B ack data: 0x05 0x05 0x3D 0x15 0x00 0x84 0x08 
write to 0x0B ack data: 0x05 0x1F 0x40 0x15 0x9F 0xD7 0x13 0x9F 0xA6 0x14 0x98 0x02 0xA6 0xA2 0x2F 0xA0 0x0A 0x9A 0x3F 0x24 0x5A 0x01 0x60 0x80 0xF1 0x01 0x66 0x01 0x22 0x16 0x18 0x21 0x83 
write to 0x0B ack data: 0x05 0x05 0x5D 0x15 0x0F 0x9F 0x1F 
write to 0x0B ack data: 0x05 0x1F 0x60 0x15 0x26 0x2F 0x9A 0x3D 0x3E 0x3F 0x9F 0x3B 0x71 0x24 0xFB 0x02 0x42 0x00 0xD2 0x01 0x90 0x28 0xD2 0x02 0x90 0x03 0x9F 0x4E 0x11 0x72 0x24 0xFB 0x02 
write to 0x0B ack data: 0x05 0x05 0x7D 0x15 0x40 0x00 0xD0 
write to 0x0B ack data: 0x05 0x1F 0x80 0x15 0x02 0x84 0x02 0x62 0x01 0x9F 0x2C 0x29 0x72 0x24 0xFB 0x02 0x40 0x00 0xD0 0x02 0x84 0x02 0x62 0x01 0x9F 0x76 0x33 0x9F 0x4E 0x13 0x64 0x02 0x21 
write to 0x0B ack data: 0x05 0x05 0x9D 0x15 0xFB 0x02 0x9F 
write to 0x0B ack data: 0x05 0x1F 0xA0 0x15 0x97 0x72 0x65 0x80 0xA6 0x54 0x21 0xE3 0x02 0x9F 0x66 0x72 0x25 0x5A 0x01 0x60 0xFE 0xF0 0x43 0x9F 0x3B 0x71 0xF6 0x56 0x25 0xDD 0x02 0xA1 0x00 
write to 0x0B ack data: 0x05 0x05 0xBD 0x15 0x30 0x90 0x0C 
write to 0x0B ack data: 0x05 0x1F 0xC0 0x15 0x9F 0x2E 0x72 0xD2 0x00 0x84 0x05 0x62 0x01 0x9F 0x73 0x77 0x40 0x81 0xE7 0x08 0x04 0xA6 0x12 0xE6 0x42 0x01 0xC2 0x01 0x9F 0x6C 0x2C 0xD2 0x00 
write to 0x0B ack data: 0x05 0x05 0xDD 0x15 0x90 0x03 0x9F 
write to 0x0B ack data: 0x05 0x1F 0xE0 0x15 0x1E 0x30 0x01 0x42 0x9F 0x9A 0x35 0x72 0x9F 0x7B 0x32 0x72 0x9F 0x09 0x15 0xD2 0x00 0x93 0xC8 0xA1 0x00 0x2E 0x87 0xC3 0x9F 0x4E 0x15 0x99 0xBE 
write to 0x0B ack data: 0x05 0x05 0xFD 0x15 0x3F 0x9C 0x22 
write to 0x0B ack data: 0x05 0x1F 0x00 0x16 0xD2 0x00 0x90 0x1B 0xA1 0x06 0x3F 0xA6 0x62 0x73 0xE9 0x91 0xE9 0x91 0x24 0x05 0x46 0x44 0x09 0x75 0xEA 0xE1 0x88 0x22 0xB6 0x92 0xA3 0x3F 0x20 
write to 0x0B ack data: 0x05 0x05 0x1D 0x16 0x98 0x03 0xA4 
write to 0x0B ack data: 0x05 0x1F 0x20 0x16 0x3F 0x00 0x24 0x99 0x46 0x40 0x01 0xC0 0x08 0x84 0x03 0x31 0x98 0x0F 0x31 0x24 0x05 0x46 0xA1 0x00 0x8A 0xE0 0x50 0x09 0x80 0x03 0x21 0x01 0x00 
write to 0x0B ack data: 0x05 0x05 0x3D 0x16 0x2F 0x9A 0x3D 
write to 0x0B ack data: 0x05 0x1F 0x40 0x16 0xA2 0xC0 0x3F 0xA6 0x3C 0x24 0x99 0x46 0x40 0x01 0xC0 0x10 0x84 0x0B 0x24 0x5A 0x01 0xE0 0x60 0x02 0x88 0x03 0x35 0x98 0x0F 0x73 0x24 0x05 0x46 
write to 0x0B ack data: 0x05 0x05 0x5D 0x16 0x40 0x0E 0x84 
write to 0x0B ack data: 0x05 0x1F 0x60 0x16 0x02 0x63 0x01 0xE6 0x43 0x01 0xA6 0x3A 0xD2 0x00 0x84 0x08 0x24 0x5A 0x01 0xE0 0x60 0x02 0x80 0x63 0x24 0x5A 0x01 0x40 0x02 0xC0 0x01 0x84 0x5A 
write to 0x0B ack data: 0x05 0x05 0x7D 0x16 0x24 0x97 0x02 
write to 0x0B ack data: 0x05 0x1F 0x80 0x16 0x01 0x04 0x9C 0x6A 0x24 0x05 0x46 0xF4 0xE1 0x07 0x8C 0x4B 0xE6 0x5C 0x00 0x84 0x05 0xE6 0x5A 0x00 0x90 0x41 0x24 0x64 0x01 0x40 0x09 0x84 0x3A 
write to 0x0B ack data: 0x05 0x05 0x9D 0x16 0x40 0x0B 0x84 
write to 0x0B ack data: 0x05 0x1F 0xA0 0x16 0x36 0x40 0x0D 0x84 0x32 0x40 0x0F 0x84 0x2E 0x40 0x0A 0x84 0x2A 0x40 0x0C 0x84 0x26 0x40 0x0E 0x84 0x22 0x40 0x01 0xC0 0x40 0x84 0x1C 0x42 0x03 
write to 0x0B ack data: 0x05 0x05 0xBD 0x16 0xCA 0x05 0x84 
write to 0x0B ack data: 0x05 0x1F 0xC0 0x16 0x16 0x40 0x00 0x84 0x12 0x40 0x02 0x84 0x0E 0x42 0x04 0xCA 0xC3 0x84 0x08 0x40 0x06 0x84 0x04 0x62 0x01 0x98 0x0D 0x72 0x24 0x5A 0x01 0xE0 0x60 
write to 0x0B ack data: 0x05 0x05 0xDD 0x16 0x01 0x80 0x04 
write to 0x0B ack data: 0x05 0x1F 0xE0 0x16 0x60 0x7F 0xF0 0x02 0x2F 0xA0 0x0C 0x2D 0x9A 0x3F 0xD2 0x00 0x84 0x0B 0x9F 0xFD 0x15 0x73 0x9F 0x3F 0x16 0xD2 0x00 0x84 0x16 0x24 0x5A 0x01 0x60 
write to 0x0B ack data: 0x05 0x05 0xFD 0x16 0x7F 0xF0 0x01 
write to 0x0B ack data: 0x05 0x1F 0x00 0x17 0x60 0xF3 0xF0 0x03 0x66 0x01 0x22 0x63 0x15 0x21 0x8E 0x0D 0x9F 0x1F 0x26 0x2F 0x9A 0x3D 0x3E 0x3F 0xA7 0x04 0x72 0x9F 0x65 0x6C 0x21 0x00 0x0C 
write to 0x0B ack data: 0x05 0x05 0x1D 0x17 0x9F 0xA4 0x69 
write to 0x0B ack data: 0x05 0x1F 0x20 0x17 0x21 0x0C 0x00 0x9C 0x44 0x9F 0xED 0x6C 0x24 0x5A 0x01 0x60 0x08 0xF1 0x03 0x24 0x00 0x46 0x42 0x04 0xC2 0x20 0x52 0xC1 0x35 0x36 0x68 0x04 0x58 
write to 0x0B ack data: 0x05 0x05 0x3D 0x17 0xC0 0x98 0x5F 
write to 0x0B ack data: 0x05 0x1F 0x40 0x17 0x9F 0xA5 0x07 0x9F 0x39 0x08 0x49 0xC1 0xE6 0x59 0x00 0x90 0x30 0x24 0x97 0x02 0x01 0x04 0x9C 0x6A 0x24 0x05 0x46 0xF4 0xE1 0x07 0x94 0x21 0x42 
write to 0x0B ack data: 0x05 0x05 0x5D 0x17 0x0F 0xD2 0x02 
write to 0x0B ack data: 0x05 0x1F 0x60 0x17 0x94 0x1B 0x52 0xC2 0x79 0x59 0xC3 0xF4 0x61 0xC2 0x32 0x9C 0x86 0x3A 0x39 0x09 0x34 0x0A 0x36 0x9C 0x79 0xAC 0x19 0x34 0x1A 0x36 0x9F 0x57 0x06 
write to 0x0B ack data: 0x05 0x05 0x7D 0x17 0x72 0x9F 0xE9 
write to 0x0B ack data: 0x05 0x1F 0x80 0x17 0x16 0x08 0x36 0x38 0x08 0x34 0x38 0xF6 0x51 0xF6 0x62 0x9C 0x72 0xAC 0xF6 0x15 0xF6 0x26 0xF7 0x80 0x3E 0xF7 0x00 0x00 0x9C 0x79 0xAC 0x19 0x34 
write to 0x0B ack data: 0x05 0x05 0x9D 0x17 0x1A 0x36 0xE0 
write to 0x0B ack data: 0x05 0x1F 0xA0 0x17 0x82 0xC0 0x52 0xC0 0xD2 0xFF 0x87 0x98 0x24 0x5A 0x01 0x60 0xF7 0xF0 0x03 0x9F 0x0D 0x6D 0x62 0x40 0x9F 0x65 0x6C 0xAC 0x2F 0x2E 0x2D 0x9A 0xA2 
write to 0x0B ack data: 0x05 0x05 0xBD 0x17 0xA0 0x3F 0x24 
write to 0x0B ack data: 0x05 0x1F 0xC0 0x17 0x00 0x46 0x40 0x04 0xE7 0x08 0x02 0xA6 0x12 0x40 0x04 0xC0 0x40 0x84 0x09 0x24 0x99 0x46 0x40 0x01 0xC0 0x08 0x84 0x04 0xD2 0x00 0x90 0x05 0xA4 
write to 0x0B ack data: 0x05 0x05 0xDD 0x17 0x12 0x02 0x98 
write to 0x0B ack data: 0x05 0x1F 0xE0 0x17 0x03 0xA4 0x12 0x01 0x63 0x0C 0x24 0x05 0x46 0x42 0x10 0x9F 0xC8 0x69 0x21 0x0E 0x0E 0x9F 0xA4 0x69 0x6A 0x04 0x98 0x10 0x21 0x0C 0x00 0x9C 0x45 
write to 0x0B ack data: 0x05 0x05 0xFD 0x17 0xC2 0x04 0x9F 
write to 0x0B ack data: 0x05 0x1F 0x00 0x18 0xE9 0x16 0x9F 0x19 0x6C 0x9F 0x57 0x06 0xBA 0x8A 0xE6 0x5A 0xFF 0x87 0xE9 0xA4 0x12 0x00 0x2F 0xA0 0x0A 0x9A 0xA2 0xA0 0x3E 0x3F 0x7A 0x26 0x05 
write to 0x0B ack data: 0x05 0x05 0x1D 0x18 0x46 0x72 0x9F 
write to 0x0B ack data: 0x05 0x1F 0x20 0x18 0x6C 0x2C 0x62 0x01 0x9F 0x7B 0x32 0x21 0x01 0x00 0x9C 0x47 0xE6 0x5A 0x00 0x84 0x09 0x9F 0x11 0x17 0x4A 0x8F 0x90 0x07 0x98 0x03 0x9F 0xBC 0x17 
write to 0x0B ack data: 0x05 0x05 0x3D 0x18 0xBA 0x8A 0x62 
write to 0x0B ack data: 0x05 0x1F 0x40 0x18 0x01 0x9F 0x09 0x15 0x99 0xD8 0xF6 0x12 0xF6 0x14 0xE6 0x29 0x70 0x20 0xFF 0x0F 0xE8 0x54 0x94 0x18 0xE6 0x23 0x80 0x20 0xFF 0x00 0xE8 0x51 0x94 
write to 0x0B ack data: 0x05 0x05 0x5D 0x18 0x0E 0xF6 0x21 
write to 0x0B ack data: 0x05 0x1F 0x60 0x18 0xE6 0x23 0xC0 0x20 0xFF 0x1F 0xE8 0x51 0x94 0x02 0x72 0x9A 0xF6 0x23 0x20 0xFF 0x8F 0xE8 0x52 0x94 0x07 0xF6 0x43 0x24 0xFF 0x0F 0x98 0x0C 0xB5 
write to 0x0B ack data: 0x05 0x05 0x7D 0x18 0x60 0x80 0x05 
write to 0x0B ack data: 0x05 0x1F 0x80 0x18 0x24 0xFF 0x80 0x98 0x03 0x24 0xFF 0x5F 0x1B 0x03 0xA1 0x02 0x85 0x84 0x02 0x62 0x20 0xA3 0x88 0x20 0xEC 0x92 0xEB 0xC2 0x73 0xE9 0xE2 0x80 0x03 
write to 0x0B ack data: 0x05 0x05 0x9D 0x18 0x62 0x01 0x9A 
write to 0x0B ack data: 0x05 0x1F 0xA0 0x18 0xB8 0x92 0xE5 0xC2 0x62 0xA3 0x88 0x20 0x62 0x01 0x9A 0x0B 0x83 0x20 0xFF 0x3F 0xE8 0x53 0x94 0x11 0xA1 0x04 0x88 0x75 0x21 0xFF 0x5F 0xEA 0xC1 
write to 0x0B ack data: 0x05 0x05 0xBD 0x18 0xE9 0x53 0x8C 
write to 0x0B ack data: 0x05 0x1F 0xC0 0x18 0x04 0xEB 0x22 0x1A 0x83 0x9A 0xF6 0x14 0x01 0x00 0xC3 0x7F 0x11 0x00 0xC5 0x7F 0xF6 0x20 0xE9 0xC0 0x90 0x05 0xE6 0x13 0x80 0x11 0x00 0x9A 0x3F 
write to 0x0B ack data: 0x05 0x05 0xDD 0x18 0x9F 0x0E 0x73 
write to 0x0B ack data: 0x05 0x1F 0xE0 0x18 0x24 0x5A 0x01 0xD2 0x00 0x90 0x06 0x60 0x03 0xF1 0x01 0x98 0x09 0x42 0x01 0xC2 0xFC 0xE6 0x12 0x01 0x52 0x01 0x9F 0x2D 0x21 0x2F 0x9A 0x3F 0x9F 
write to 0x0B ack data: 0x05 0x05 0xFD 0x18 0x4B 0x73 0x62 
write to 0x0B ack data: 0x05 0x1F 0x00 0x19 0x0B 0x2F 0x9A 0x3F 0x64 0x40 0x21 0x42 0x00 0x9C 0x68 0x2F 0x9A 0x3D 0x3F 0xF6 0x15 0xD4 0x40 0x94 0x02 0x64 0x40 0xA3 0x82 0x40 0x9F 0x03 0x19 
write to 0x0B ack data: 0x05 0x05 0x1D 0x19 0xA1 0x06 0x82 
write to 0x0B ack data: 0x05 0x1F 0x20 0x19 0x77 0xF6 0x52 0x21 0x42 0x00 0x9C 0x71 0x2F 0x2D 0x9A 0x3F 0x66 0x10 0x0A 0x86 0x21 0x80 0x00 0x9F 0x78 0x6E 0x2F 0x9A 0x3F 0x66 0x08 0xF6 0x12 
write to 0x0B ack data: 0x05 0x05 0x3D 0x19 0x21 0x90 0x00 
write to 0x0B ack data: 0x05 0x1F 0x40 0x19 0x9F 0x78 0x6E 0x2F 0x9A 0x3F 0x21 0x80 0x00 0x9F 0x15 0x6E 0x66 0x18 0x22 0x42 0x00 0x21 0x80 0x00 0x9F 0x31 0x6E 0x2F 0x9A 0x3F 0x66 0x08 0x22 
write to 0x0B ack data: 0x05 0x05 0x5D 0x19 0x52 0x00 0x21 
write to 0x0B ack data: 0x05 0x1F 0x60 0x19 0x90 0x00 0x9F 0x78 0x6E 0x9F 0x45 0x19 0x2F 0x9A 0x3D 0x3F 0x25 0x42 0x00 0x23 0x08 0x00 0xF6 0x52 0x21 0x52 0x00 0x9C 0x71 0x66 0x10 0xF6 0x52 
write to 0x0B ack data: 0x05 0x05 0x7D 0x19 0x21 0x80 0x00 
write to 0x0B ack data: 0x05 0x1F 0x80 0x19 0x9F 0x78 0x6E 0x9F 0x45 0x19 0x2F 0x2D 0x9A 0x3F 0x0A 0x40 0x09 0x83 0xF6 0x10 0xEA 0xC0 0x85 0x16 0x20 0x00 0x02 0xEA 0xC0 0x84 0x14 0xE4 0x80 
write to 0x0B ack data: 0x05 0x05 0x9D 0x19 0x82 0x84 0x0F 
write to 0x0B ack data: 0x05 0x1F 0xA0 0x19 0xA1 0x02 0x42 0xA3 0x85 0x20 0xD2 0x40 0x94 0xCC 0xA4 0x85 0x40 0x98 0xC7 0x9F 0x46 0x18 0xD2 0x00 0x90 0x24 0x09 0x03 0xA1 0x06 0x82 0xE4 0x56 
write to 0x0B ack data: 0x05 0x05 0xBD 0x19 0x88 0x8C 0xB6 
write to 0x0B ack data: 0x05 0x1F 0xC0 0x19 0xE4 0x60 0x84 0x80 0x08 0x77 0x22 0x42 0x00 0x9C 0x71 0x98 0xA9 0x20 0x40 0x47 0xE9 0x50 0x94 0xA2 0x77 0x22 0x42 0x00 0x98 0x99 0x0A 0x83 0x20 
write to 0x0B ack data: 0x05 0x05 0xDD 0x19 0x37 0x00 0xEA 
write to 0x0B ack data: 0x05 0x1F 0xE0 0x19 0xC0 0x84 0x1C 0xA1 0x00 0x82 0xD0 0x10 0x84 0x28 0x64 0x10 0x21 0x42 0x00 0x9C 0x65 0x9F 0x59 0x19 0x31 0x19 0x83 0xA4 0x82 0x14 0x9F 0x03 0x19 
write to 0x0B ack data: 0x05 0x05 0xFD 0x19 0x98 0x77 0x20 
write to 0x0B ack data: 0x05 0x1F 0x00 0x1A 0x35 0x00 0xEA 0xC0 0x84 0x0C 0xA1 0x00 0x82 0xD0 0x08 0x84 0x05 0x9F 0x6A 0x19 0x98 0x64 0x24 0x5A 0x01 0x42 0x01 0xCA 0x03 0xD0 0x03 0x90 0x59 
write to 0x0B ack data: 0x05 0x05 0x1D 0x1A 0x20 0x70 0x00 
write to 0x0B ack data: 0x05 0x1F 0x20 0x1A 0xEA 0xC0 0x84 0x1F 0xA1 0x00 0x82 0xD0 0x20 0x8C 0x4B 0x23 0x01 0x00 0x22 0x82 0x00 0x21 0x40 0x40 0x9F 0x86 0x6D 0xA1 0x06 0x82 0x77 0x22 0x42 
write to 0x0B ack data: 0x05 0x05 0x3D 0x1A 0x00 0x21 0x41 
write to 0x0B ack data: 0x05 0x1F 0x40 0x1A 0x40 0x98 0x30 0x20 0x4D 0x00 0xEA 0xC0 0x84 0x12 0xA1 0x00 0x82 0xD0 0x02 0x84 0x25 0x23 0x02 0x00 0x22 0x42 0x00 0x21 0x67 0x40 0x98 0x17 0x20 
write to 0x0B ack data: 0x05 0x05 0x5D 0x1A 0x4E 0x00 0xEA 
write to 0x0B ack data: 0x05 0x1F 0x60 0x1A 0xC0 0x84 0x13 0xA1 0x00 0x82 0xD0 0x02 0x84 0x0C 0x23 0x02 0x00 0x22 0x42 0x00 0x21 0x69 0x40 0x9F 0x86 0x6D 0xFA 0x83 0x84 0x2D 0xA1 0x00 0x82 
write to 0x0B ack data: 0x05 0x05 0x7D 0x1A 0xD0 0x14 0x84 
write to 0x0B ack data: 0x05 0x1F 0x80 0x1A 0x26 0x20 0x37 0x00 0xF5 0xC0 0x40 0x90 0x09 0x24 0x00 0x46 0x40 0x03 0xC0 0x04 0x84 0x0A 0x21 0x56 0x00 0x19 0x86 0x9F 0x2B 0x19 0x98 0x05 0x21 
write to 0x0B ack data: 0x05 0x05 0x9D 0x1A 0xFE 0xFF 0x19 
write to 0x0B ack data: 0x05 0x1F 0xA0 0x1A 0x86 0x60 0x04 0xF3 0x8D 0x98 0x03 0x9F 0x03 0x19 0x2F 0x9A 0x3D 0x3E 0x3F 0xA7 0x02 0xA6 0x2C 0x7D 0x21 0x04 0x00 0xEE 0x01 0x11 0xC0 0xFB 0x84 
write to 0x0B ack data: 0x05 0x05 0xBD 0x1A 0x04 0x09 0x83 
write to 0x0B ack data: 0x05 0x1F 0xC0 0x1A 0x19 0x40 0x0D 0x40 0xA4 0x82 0x02 0x20 0x00 0x02 0xED 0xC0 0x84 0x0C 0xA1 0x03 0x85 0xA3 0x42 0x30 0xA4 0x43 0x40 0x9B 0x49 0x1D 0xF6 0x51 0x9F 
write to 0x0B ack data: 0x05 0x05 0xDD 0x1A 0x46 0x18 0xD2 
write to 0x0B ack data: 0x05 0x1F 0xE0 0x1A 0x00 0x90 0x08 0xA1 0x04 0x88 0x09 0x03 0x9B 0xE0 0x1C 0xF6 0x51 0x20 0x7F 0x0F 0xE8 0x21 0x20 0x01 0x00 0xE8 0x51 0x8C 0x08 0x64 0x18 0x21 0x42 
write to 0x0B ack data: 0x05 0x05 0xFD 0x1A 0x01 0x9B 0xE0 
write to 0x0B ack data: 0x05 0x1F 0x00 0x1B 0x1C 0x20 0xFF 0x00 0xE8 0x55 0x8D 0xB0 0xE6 0x5A 0x50 0x91 0x0B 0xE6 0x5A 0x50 0x8C 0x54 0xE6 0x5A 0x09 0x8C 0x28 0xE6 0x5A 0x07 0x80 0x03 0x9B 
write to 0x0B ack data: 0x05 0x05 0x1D 0x1B 0x49 0x1D 0xE6 
write to 0x0B ack data: 0x05 0x1F 0x20 0x1B 0x5A 0x03 0x90 0x9F 0xE6 0x5A 0x03 0x8C 0x0C 0xE6 0x5A 0x01 0x90 0x90 0xE6 0x5A 0x02 0x85 0x85 0x98 0x9A 0xE6 0x5A 0x05 0x8C 0x03 0x9B 0x49 0x1D 
write to 0x0B ack data: 0x05 0x05 0x3D 0x1B 0x98 0x99 0xE6 
write to 0x0B ack data: 0x05 0x1F 0x40 0x1B 0x5A 0x4B 0x90 0xB2 0xE6 0x5A 0x4B 0x8C 0x0C 0xE6 0x5A 0x35 0x90 0x92 0xE6 0x5A 0x4A 0x85 0x65 0x98 0x97 0xE6 0x5A 0x4D 0x90 0xB0 0xE6 0x5A 0x4D 
write to 0x0B ack data: 0x05 0x05 0x5D 0x1B 0x80 0xA1 0xE6 
write to 0x0B ack data: 0x05 0x1F 0x60 0x1B 0x5A 0x4E 0x85 0x54 0x98 0xAB 0xE6 0x5A 0x58 0x91 0x35 0xE6 0x5A 0x58 0x8C 0x25 0xE6 0x5A 0x54 0x91 0x04 0xE6 0x5A 0x54 0x8C 0x0F 0xE6 0x5A 0x52 
write to 0x0B ack data: 0x05 0x05 0x7D 0x1B 0x90 0xC8 0x24 
write to 0x0B ack data: 0x05 0x1F 0x80 0x1B 0x64 0x01 0xE6 0x5A 0x52 0x8C 0xD9 0x98 0xA8 0xE6 0x5A 0x56 0x90 0xFC 0xE6 0x5A 0x56 0x8D 0x06 0x98 0xEE 0xE6 0x5A 0x71 0x91 0x4B 0xE6 0x5A 0x71 
write to 0x0B ack data: 0x05 0x05 0x9D 0x1B 0x8C 0x12 0xE6 
write to 0x0B ack data: 0x05 0x1F 0xA0 0x1B 0x5A 0x60 0x81 0x14 0xE6 0x5A 0x61 0x95 0x02 0xE6 0x5A 0x70 0x85 0x0A 0x9B 0xD8 0x1C 0xE6 0x5A 0x72 0x91 0x6B 0xE6 0x5A 0x78 0x8C 0xFD 0x9B 0x3B 
write to 0x0B ack data: 0x05 0x05 0xBD 0x1B 0x1D 0x21 0x20 
write to 0x0B ack data: 0x05 0x1F 0xC0 0x1B 0x26 0x98 0x18 0x9F 0xEA 0x72 0xA3 0x42 0x20 0xA4 0x43 0x00 0x9B 0x49 0x1D 0x21 0x42 0x00 0x9F 0xFB 0x18 0x9B 0x46 0x1D 0x9F 0x19 0x48 0x19 0x42 
write to 0x0B ack data: 0x05 0x05 0xDD 0x1B 0x9B 0x49 0x1D 
write to 0x0B ack data: 0x05 0x1F 0xE0 0x1B 0xA4 0x82 0x08 0x21 0x42 0x00 0x9F 0x38 0x19 0x9B 0x49 0x1D 0x24 0x67 0x40 0x44 0x19 0x21 0x81 0x40 0x98 0xEA 0x24 0x67 0x40 0x44 0x2E 0x21 0x96 
write to 0x0B ack data: 0x05 0x05 0xFD 0x1B 0x40 0x98 0xE0 
write to 0x0B ack data: 0x05 0x1F 0x00 0x1C 0x24 0x67 0x40 0x44 0x04 0x21 0x6C 0x40 0x98 0xD6 0x64 0x02 0x21 0x67 0x40 0x98 0xCF 0x64 0x02 0x21 0x69 0x40 0x98 0xC8 0xA4 0x82 0x04 0x24 0x64 
write to 0x0B ack data: 0x05 0x05 0x1D 0x1C 0x01 0x43 0x00 
write to 0x0B ack data: 0x05 0x1F 0x20 0x1C 0xA3 0x42 0x30 0x42 0x02 0xA3 0x43 0x20 0x43 0x04 0xA3 0x44 0x30 0x42 0x06 0x98 0x43 0xA4 0x82 0x04 0x43 0x01 0xA3 0x42 0x30 0x42 0x03 0xA3 0x43 
write to 0x0B ack data: 0x05 0x05 0x3D 0x1C 0x20 0x43 0x05 
write to 0x0B ack data: 0x05 0x1F 0x40 0x1C 0xA3 0x44 0x30 0x42 0x07 0x98 0x2D 0xA4 0x82 0x04 0x24 0x64 0x01 0x43 0x08 0xA3 0x42 0x30 0x42 0x0A 0xA3 0x43 0x20 0x43 0x0C 0xA3 0x44 0x30 0x42 
write to 0x0B ack data: 0x05 0x05 0x5D 0x1C 0x0E 0x98 0x14 
write to 0x0B ack data: 0x05 0x1F 0x60 0x1C 0xA4 0x82 0x04 0x43 0x09 0xA3 0x42 0x30 0x42 0x0B 0xA3 0x43 0x20 0x43 0x0D 0xA3 0x44 0x30 0x42 0x0F 0xA3 0x45 0x20 0x98 0xD0 0x9F 0x9C 0x0B 0x64 
write to 0x0B ack data: 0x05 0x05 0x7D 0x1C 0x04 0x21 0x5A 
write to 0x0B ack data: 0x05 0x1F 0x80 0x1C 0x01 0x98 0x5D 0x64 0x03 0x21 0x9A 0x00 0x98 0x56 0xA4 0x82 0x03 0xA1 0x03 0xB0 0xA3 0x42 0x30 0x09 0xB1 0x19 0x43 0x98 0xB0 0x64 0x02 0x21 0x9D 
write to 0x0B ack data: 0x05 0x05 0x9D 0x1C 0x00 0x98 0x40 
write to 0x0B ack data: 0x05 0x1F 0xA0 0x1C 0xA4 0x82 0x15 0x21 0x42 0x00 0x9F 0x7A 0x6A 0x98 0x9E 0x22 0x42 0x00 0xA6 0xA2 0xE6 0x22 0xA0 0x9F 0x0E 0x27 0x98 0x8E 0x31 0x19 0x40 0xF8 0xC0 
write to 0x0B ack data: 0x05 0x05 0xBD 0x1C 0x90 0x03 0x72 
write to 0x0B ack data: 0x05 0x1F 0xC0 0x1C 0x98 0x89 0xE6 0xAC 0x08 0x84 0x11 0xA4 0x82 0x14 0x24 0x5A 0x01 0x40 0x02 0xC0 0x04 0x84 0x76 0x9F 0x03 0x19 0x98 0x71 0x24 0x40 0x40 0x44 0x00 
write to 0x0B ack data: 0x05 0x05 0xDD 0x1C 0x21 0x41 0x40 
write to 0x0B ack data: 0x05 0x1F 0xE0 0x1C 0x9F 0x0D 0x19 0x98 0x64 0xA4 0x82 0x20 0x9F 0x03 0x19 0x23 0x04 0x00 0x22 0x9F 0x02 0x21 0x42 0x00 0x9C 0x71 0x25 0x97 0x02 0x01 0x4C 0x19 0x4A 
write to 0x0B ack data: 0x05 0x05 0xFD 0x1C 0x01 0x4E 0x19 
write to 0x0B ack data: 0x05 0x1F 0x00 0x1D 0x4C 0x23 0x04 0x00 0x22 0xAD 0x02 0x21 0x4E 0x00 0x9C 0x71 0x23 0x04 0x00 0x22 0xB1 0x02 0x21 0x56 0x00 0x9C 0x71 0x01 0x5E 0x19 0x5E 0x01 0x60 
write to 0x0B ack data: 0x05 0x05 0x1D 0x1D 0x19 0x60 0x98 
write to 0x0B ack data: 0x05 0x1F 0x20 0x1D 0x28 0xA4 0x82 0x0E 0x9F 0x03 0x19 0x23 0x04 0x00 0x22 0xCB 0x02 0x21 0x42 0x00 0x9C 0x71 0x24 0x97 0x02 0x01 0x00 0x19 0x4C 0x98 0x0E 0x22 0x42 
write to 0x0B ack data: 0x05 0x05 0x3D 0x1D 0x00 0xA6 0xA2 
write to 0x0B ack data: 0x05 0x1F 0x40 0x1D 0xE6 0x22 0x8D 0x9F 0xC1 0x45 0xA3 0x82 0x20 0x62 0x01 0xAA 0x2F 0x2E 0x2D 0x9A 0x3D 0xA2 0xC0 0x3F 0xA7 0x04 0xF6 0x15 0x21 0x0C 0x27 0x11 0xC0 
write to 0x0B ack data: 0x05 0x05 0x5D 0x1D 0x21 0x3D 0x04 
write to 0x0B ack data: 0x05 0x1F 0x60 0x1D 0x11 0xC2 0x66 0x04 0xF6 0x82 0xF6 0x51 0x9F 0x88 0x2F 0xD2 0x00 0x84 0x03 0x7C 0x98 0x09 0x24 0x5A 0x01 0x60 0x20 0xF1 0x03 0x6C 0x01 0x21 0x10 
write to 0x0B ack data: 0x05 0x05 0x7D 0x1D 0x00 0x11 0xC0 
write to 0x0B ack data: 0x05 0x1F 0x80 0x1D 0x11 0xC2 0x66 0x03 0xF6 0x82 0xF6 0x51 0x9F 0x88 0x2F 0xD2 0x00 0x90 0x07 0x24 0x5A 0x01 0x60 0x01 0xF1 0x02 0xA6 0xC2 0xAC 0x2F 0xA0 0x0C 0x2D 
write to 0x0B ack data: 0x05 0x05 0x9D 0x1D 0x9A 0xA2 0xA0 
write to 0x0B ack data: 0x05 0x1F 0xA0 0x1D 0x3E 0x3F 0xA7 0x08 0xF6 0x16 0x24 0x5A 0x01 0x4A 0x01 0xE6 0x0A 0x03 0xF6 0x81 0x9F 0x38 0x19 0xE6 0x5A 0x03 0x84 0x19 0x66 0x01 0xF6 0x82 0xF6 
write to 0x0B ack data: 0x05 0x05 0xBD 0x1D 0x61 0x9F 0x88 
write to 0x0B ack data: 0x05 0x1F 0xC0 0x1D 0x2F 0xD2 0x00 0x90 0x33 0x24 0x5A 0x01 0x42 0x01 0xC2 0xFC 0xE6 0x12 0x02 0x98 0x21 0xE6 0x5A 0x02 0x84 0x22 0x66 0x02 0xF6 0x82 0xE6 0x24 0x04 
write to 0x0B ack data: 0x05 0x05 0xDD 0x1D 0xB5 0xD5 0xF6 
write to 0x0B ack data: 0x05 0x1F 0xE0 0x1D 0x61 0x9F 0x88 0x2F 0xD2 0x00 0x90 0x10 0x24 0x5A 0x01 0x42 0x01 0xC2 0xFC 0xE6 0x12 0x01 0x52 0x01 0x6A 0x01 0x98 0x01 0x7A 0xF6 0x61 0x9F 0xB7 
write to 0x0B ack data: 0x05 0x05 0xFD 0x1D 0x2F 0xD2 0x00 
write to 0x0B ack data: 0x05 0x1F 0x00 0x1E 0x90 0x0E 0x24 0x5A 0x01 0x42 0x01 0xC2 0xFC 0xE6 0x12 0x01 0x52 0x01 0x6A 0x01 0xA6 0xA2 0xA8 0x2F 0x2E 0xA0 0x0A 0x9A 0xA2 0xA0 0x3F 0xA6 0x2A 
write to 0x0B ack data: 0x05 0x05 0x1D 0x1E 0x9F 0xBA 0x2C 
write to 0x0B ack data: 0x05 0x1F 0x20 0x1E 0xA1 0x00 0x9D 0xC0 0x10 0x84 0x24 0xE6 0xAA 0x06 0x90 0x1F 0x72 0x9F 0xB6 0x01 0x24 0x00 0x46 0x40 0x00 0xE7 0x08 0x40 0xA6 0x13 0xC3 0x01 0x9F 
write to 0x0B ack data: 0x05 0x05 0x3D 0x1E 0x4C 0x2E 0xA6 
write to 0x0B ack data: 0x05 0x1F 0x40 0x1E 0x2A 0x9F 0xF5 0x68 0x63 0x0F 0xA6 0xA2 0x9F 0x1C 0x6B 0x2F 0xA0 0x0A 0x9A 0x3D 0xA2 0xC0 0x3F 0xF6 0x15 0x7C 0x24 0x5A 0x01 0x42 0x01 0xCA 0x03 
write to 0x0B ack data: 0x05 0x05 0x5D 0x1E 0xD0 0x01 0x84 
write to 0x0B ack data: 0x05 0x1F 0x60 0x1E 0x02 0x6C 0x01 0x24 0x5A 0x01 0x60 0xCF 0xF0 0x02 0xE6 0x5C 0x00 0x90 0x23 0x20 0x33 0x00 0xED 0xC0 0x90 0x07 0x20 0x00 0x0F 0xED 0xC0 0x84 0x07 
write to 0x0B ack data: 0x05 0x05 0x7D 0x1E 0x9F 0x00 0x77 
write to 0x0B ack data: 0x05 0x1F 0x80 0x1E 0x9C 0x05 0x98 0x0E 0x20 0x35 0x00 0xED 0xC0 0x90 0x4B 0x20 0x37 0x00 0xED 0xC0 0x90 0x44 0x20 0x80 0xF0 0xED 0xC0 0x91 0x41 0xF6 0x51 0x20 0x7F 
write to 0x0B ack data: 0x05 0x05 0x9D 0x1E 0x0F 0xE8 0x21 
write to 0x0B ack data: 0x05 0x1F 0xA0 0x1E 0x20 0x01 0x00 0xE8 0x51 0x8C 0x1D 0xE4 0x60 0x9E 0x80 0x35 0x24 0x5A 0x01 0x42 0x02 0xE6 0x12 0x10 0x52 0x02 0x20 0x82 0xF0 0xED 0xC0 0x84 0x19 
write to 0x0B ack data: 0x05 0x05 0xBD 0x1E 0xE6 0x12 0x20 
write to 0x0B ack data: 0x05 0x1F 0xC0 0x1E 0x52 0x02 0x98 0x12 0xF6 0x51 0x9F 0x46 0x18 0xD2 0x00 0x90 0x0D 0xE6 0x5C 0x00 0x84 0x04 0xBB 0x60 0x88 0x0B 0x1D 0x83 0x98 0xA7 0x20 0xFF 0x00 
write to 0x0B ack data: 0x05 0x05 0xDD 0x1E 0xE8 0x55 0x8C 
write to 0x0B ack data: 0x05 0x1F 0xE0 0x1E 0xFE 0xE6 0x5A 0x23 0x90 0xC5 0xE6 0x5A 0x23 0x8C 0x38 0xE6 0x5A 0x13 0x90 0x9E 0xE6 0x5A 0x13 0x8C 0x11 0xE6 0x5A 0x11 0x90 0x80 0xE6 0x5A 0x11 
write to 0x0B ack data: 0x05 0x05 0xFD 0x1E 0x8C 0x86 0xE6 
write to 0x0B ack data: 0x05 0x1F 0x00 0x1F 0x5A 0x10 0x84 0xDB 0x98 0x5A 0xE6 0x5A 0x20 0x90 0x91 0xE6 0x5A 0x20 0x8C 0x07 0xE6 0x5A 0x1F 0x84 0xCA 0x98 0x80 0xE6 0x5A 0x21 0x90 0x85 0xE6 
write to 0x0B ack data: 0x05 0x05 0x1D 0x1F 0x5A 0x22 0x84 
write to 0x0B ack data: 0x05 0x1F 0x20 0x1F 0xBE 0x98 0x83 0xE6 0x5A 0x2E 0x90 0x9C 0xE6 0x5A 0x2E 0x8C 0x1D 0xE6 0x5A 0x28 0x90 0x88 0xE6 0x5A 0x28 0x8C 0x07 0xE6 0x5A 0x24 0x84 0xA3 0x98 
write to 0x0B ack data: 0x05 0x05 0x3D 0x1F 0x72 0xE6 0x5A 
write to 0x0B ack data: 0x05 0x1F 0x40 0x1F 0x29 0x90 0x7C 0xE6 0x5A 0x2D 0x84 0x97 0x98 0x6B 0xE6 0x5A 0x30 0x90 0x82 0xE6 0x5A 0x30 0x80 0x75 0xE6 0x5A 0x41 0x90 0x2C 0xE6 0x5A 0x42 0x84 
write to 0x0B ack data: 0x05 0x05 0x5D 0x1F 0x81 0x98 0x28 
write to 0x0B ack data: 0x05 0x1F 0x60 0x1F 0x24 0x5A 0x01 0x40 0x02 0xC0 0x01 0x90 0x08 0x24 0x05 0x46 0x43 0x12 0xA3 0x33 0x30 0x24 0x5A 0x01 0x60 0x01 0xF1 0x02 0x98 0x07 0x24 0x5A 0x01 
write to 0x0B ack data: 0x05 0x05 0x7D 0x1F 0x60 0x80 0xF1 
write to 0x0B ack data: 0x05 0x1F 0x80 0x1F 0x02 0x62 0x01 0x98 0x5B 0x9F 0x00 0x77 0x72 0x9F 0x73 0x77 0x99 0xF3 0x24 0x5A 0x01 0x60 0x08 0xF1 0x02 0x99 0xEA 0x21 0x02 0x00 0x98 0x30 0x21 
write to 0x0B ack data: 0x05 0x05 0x9D 0x1F 0x04 0x00 0x98 
write to 0x0B ack data: 0x05 0x1F 0xA0 0x1F 0x2B 0x21 0x08 0x00 0x98 0x26 0x21 0x10 0x00 0x98 0x21 0x21 0x20 0x00 0x98 0x1C 0x21 0x40 0x00 0x98 0x17 0x21 0x00 0x80 0x98 0x12 0x9F 0xEC 0x28 
write to 0x0B ack data: 0x05 0x05 0xBD 0x1F 0x99 0xC2 0x9F 
write to 0x0B ack data: 0x05 0x1F 0xC0 0x1F 0xD8 0x0D 0x99 0xBD 0x9F 0x73 0x27 0x99 0xB8 0x21 0x00 0x40 0x9F 0x18 0x1E 0x99 0xB0 0x9F 0xA3 0x2C 0x9F 0x1D 0x73 0x9F 0xDC 0x18 0x31 0x19 0x83 
write to 0x0B ack data: 0x05 0x05 0xDD 0x1F 0x99 0xA2 0x72 
write to 0x0B ack data: 0x05 0x1F 0xE0 0x1F 0x2F 0xA0 0x0C 0x2D 0x9A 0x3D 0x3F 0xF6 0x15 0x9F 0xFD 0x6D 0x11 0x40 0x2F 0x2D 0x9A 0x3D 0x3F 0xF6 0x15 0x66 0x20 0x22 0x68 0x48 0x21 0x00 0x44 
write to 0x0B ack data: 0x05 0x05 0xFD 0x1F 0x9C 0x64 0x11 
write to 0x0B ack data: 0x05 0x1F 0x00 0x20 0x40 0x24 0x61 0x40 0x02 0x00 0xF6 0x51 0x9F 0xC6 0x18 0x2F 0x2D 0x9A 0x3D 0x3F 0xF6 0x15 0x66 0x20 0x22 0x65 0x40 0x21 0x19 0x40 0x9C 0x64 0x66 
write to 0x0B ack data: 0x05 0x05 0x1D 0x20 0xA0 0x22 0x68 
write to 0x0B ack data: 0x05 0x1F 0x20 0x20 0x48 0x21 0x67 0x40 0x9C 0x64 0x11 0x40 0x24 0x61 0x40 0x02 0x04 0xF6 0x51 0x9F 0xC6 0x18 0x2F 0x2D 0x9A 0x3D 0x3F 0xF6 0x15 0x9F 0x0C 0x48 0x11 
write to 0x0B ack data: 0x05 0x05 0x3D 0x20 0x40 0x24 0x61 
write to 0x0B ack data: 0x05 0x1F 0x40 0x20 0x40 0x02 0x02 0xF6 0x51 0x9F 0xC6 0x18 0x2F 0x2D 0x9A 0x3F 0x20 0xA7 0x23 0xE9 0xC0 0x84 0x09 0x24 0x5A 0x01 0x60 0xDF 0xF0 0x03 0x98 0x67 0xCB 
write to 0x0B ack data: 0x05 0x05 0x5D 0x20 0xFF 0x84 0x63 
write to 0x0B ack data: 0x05 0x1F 0x60 0x20 0xA6 0x23 0xD2 0x09 0x94 0x07 0xE6 0x22 0xB6 0xD2 0x2E 0x8C 0x49 0xD3 0x07 0x84 0x04 0x0A 0x83 0x1A 0x42 0xA6 0x32 0x73 0x19 0x83 0x20 0x04 0x00 
write to 0x0B ack data: 0x05 0x05 0x7D 0x20 0xE9 0xC0 0x84 
write to 0x0B ack data: 0x05 0x1F 0x80 0x20 0x08 0x21 0x42 0x00 0x9F 0xE5 0x1F 0x98 0x3D 0x20 0x05 0x00 0xE9 0xC0 0x84 0x08 0x21 0x42 0x00 0x9F 0xF1 0x1F 0x98 0x2E 0x20 0x08 0x00 0xE9 0xC0 
write to 0x0B ack data: 0x05 0x05 0x9D 0x20 0x84 0x08 0x21 
write to 0x0B ack data: 0x05 0x1F 0xA0 0x20 0x42 0x00 0x9F 0x35 0x20 0x98 0x1F 0x20 0x09 0x00 0xE9 0xC0 0x84 0x18 0x21 0x42 0x00 0x9F 0x0E 0x20 0x98 0x10 0xD3 0x43 0x84 0x05 0x9F 0xA6 0x34 
write to 0x0B ack data: 0x05 0x05 0xBD 0x20 0x98 0x07 0xD3 
write to 0x0B ack data: 0x05 0x1F 0xC0 0x20 0x10 0x90 0x03 0x9F 0xDD 0x2F 0x2F 0x9A 0x3D 0x3F 0x0D 0x40 0xF6 0x51 0x9F 0x9E 0x1D 0xD2 0x00 0x84 0x22 0xF6 0x51 0x9F 0x50 0x1D 0xD2 0x00 0x84 
write to 0x0B ack data: 0x05 0x05 0xDD 0x20 0x19 0x24 0x5A 
write to 0x0B ack data: 0x05 0x1F 0xE0 0x20 0x01 0x42 0x01 0xCA 0x03 0xD0 0x03 0x90 0x09 0xF6 0x51 0x9F 0x4F 0x1E 0xD2 0x00 0x84 0x05 0xF6 0x51 0x9F 0x4B 0x20 0x2F 0x2D 0x9A 0x9B 0x88 0x70 
write to 0x0B ack data: 0x05 0x05 0xFD 0x20 0x9A 0x9B 0x71 
write to 0x0B ack data: 0x05 0x1F 0x00 0x21 0x70 0x9A 0x3D 0x25 0x40 0x00 0x73 0xA1 0x04 0x82 0x75 0x20 0x41 0x00 0xE8 0x22 0x98 0x03 0xE0 0x23 0x41 0xED 0x95 0xF6 0x20 0xED 0xC0 0x87 0xF5 
write to 0x0B ack data: 0x05 0x05 0x1D 0x21 0xD2 0x00 0x90 
write to 0x0B ack data: 0x05 0x1F 0x20 0x21 0x08 0xA1 0x02 0x84 0xE4 0x22 0x83 0xB2 0x23 0xB3 0xA2 0x2D 0x9A 0xA2 0xA0 0x3F 0xA1 0x00 0xB1 0xE7 0x08 0x10 0xA6 0x12 0xC2 0x01 0x7A 0xE6 0x0A 
write to 0x0B ack data: 0x05 0x05 0x3D 0x21 0xFE 0xC2 0x01 
write to 0x0B ack data: 0x05 0x1F 0x40 0x21 0xB2 0x1A 0xA1 0x00 0xB1 0xE7 0x08 0x20 0xA6 0x12 0xC2 0x01 0xE6 0x0A 0xFD 0xB2 0x60 0xC0 0x02 0xB0 0x1A 0xA1 0x00 0xB1 0xE7 0x08 0x40 0xA6 0x12 
write to 0x0B ack data: 0x05 0x05 0x5D 0x21 0xC2 0x01 0xE6 
write to 0x0B ack data: 0x05 0x1F 0x60 0x21 0x0A 0xFB 0xE7 0x28 0x04 0xC0 0x04 0xB0 0x1A 0xA1 0x00 0xB2 0xE7 0x08 0x20 0xA6 0x12 0xC2 0x01 0xE6 0x0A 0xF7 0xE7 0x28 0x08 0xC0 0x08 0xB0 0x1A 
write to 0x0B ack data: 0x05 0x05 0x7D 0x21 0x9F 0x07 0x01 
write to 0x0B ack data: 0x05 0x1F 0x80 0x21 0x75 0xC5 0xFD 0xB2 0x60 0xC0 0x02 0xB0 0x15 0x24 0x5A 0x01 0x40 0x02 0xE7 0x08 0x10 0xA6 0x12 0xC2 0x01 0xC5 0xEF 0xE7 0x28 0x10 0xC0 0x10 0xB0 
write to 0x0B ack data: 0x05 0x05 0x9D 0x21 0x15 0xC5 0x9F 
write to 0x0B ack data: 0x05 0x1F 0xA0 0x21 0x42 0x01 0xC2 0x03 0xD2 0x03 0x84 0x05 0xE6 0x15 0x20 0x98 0x04 0xD2 0x02 0x84 0x03 0xE6 0x15 0x40 0xA6 0xA4 0x21 0xDD 0x02 0x9F 0xA1 0x72 0x2F 
write to 0x0B ack data: 0x05 0x05 0xBD 0x21 0xA0 0x0A 0x9A 
write to 0x0B ack data: 0x05 0x1F 0xC0 0x21 0x3D 0x3F 0xF6 0x12 0x31 0x19 0x8E 0xA1 0x02 0x19 0xD2 0x01 0x90 0x06 0xD2 0x3F 0x84 0x2E 0x98 0x0E 0xEA 0x81 0x20 0x01 0x00 0xE8 0x51 0x8C 0x05 
write to 0x0B ack data: 0x05 0x05 0xDD 0x21 0x21 0xA5 0xFF 
write to 0x0B ack data: 0x05 0x1F 0xE0 0x21 0x19 0x8E 0x1A 0x40 0x9F 0xC8 0x20 0xA4 0x91 0x00 0x72 0x9F 0xAC 0x1A 0xA1 0x04 0x82 0xA6 0x4A 0x7B 0xE6 0xF4 0x40 0xF6 0x51 0x20 0x42 0x00 0xE8 
write to 0x0B ack data: 0x05 0x05 0xFD 0x21 0x21 0x9C 0x68 
write to 0x0B ack data: 0x05 0x1F 0x00 0x22 0x2F 0x2D 0x9A 0x3D 0x3F 0x24 0x00 0x46 0x40 0x02 0xC0 0x01 0x90 0x4B 0x9C 0x22 0xD2 0x00 0x84 0x41 0xA1 0x02 0x8B 0xCA 0x04 0x90 0x1B 0x25 0x23 
write to 0x0B ack data: 0x05 0x05 0x1D 0x22 0x46 0x24 0x1D 
write to 0x0B ack data: 0x05 0x1F 0x20 0x22 0x03 0x01 0x00 0x44 0x44 0x75 0x9C 0x7B 0xF6 0x12 0x43 0x42 0x42 0x40 0x9C 0x06 0x60 0xFB 0xF2 0x8B 0x98 0x23 0xCA 0x08 0x90 0x1F 0x25 0x23 0x46 
write to 0x0B ack data: 0x05 0x05 0x3D 0x22 0x24 0x1D 0x03 
write to 0x0B ack data: 0x05 0x1F 0x40 0x22 0x01 0x02 0x44 0x43 0x75 0x9C 0x7B 0xF6 0x12 0x43 0x41 0x42 0x40 0x9C 0x06 0x60 0xF7 0xF2 0x8B 0x98 0x04 0x60 0xF3 0xF2 0x8B 0x9F 0x80 0x70 0x2F 
write to 0x0B ack data: 0x05 0x05 0x5D 0x22 0x2D 0x9A 0x3F 
write to 0x0B ack data: 0x05 0x1F 0x60 0x22 0x24 0x00 0x46 0x40 0x02 0xC0 0x40 0x90 0x08 0x21 0x98 0x04 0x9F 0xA6 0x70 0x98 0x07 0x24 0x17 0x80 0x60 0x20 0xF1 0x00 0x2F 0x9A 0x3D 0x3E 0x3F 
write to 0x0B ack data: 0x05 0x05 0x7D 0x22 0x21 0x07 0xAA 
write to 0x0B ack data: 0x05 0x1F 0x80 0x22 0x9F 0x5E 0x6F 0x24 0x00 0x46 0x40 0x02 0xE7 0x08 0x20 0xA6 0x1A 0xE6 0x0A 0x01 0xA6 0xA2 0x9F 0xC8 0x70 0x26 0x5A 0x01 0x42 0x82 0xC2 0xBF 0xE7 
write to 0x0B ack data: 0x05 0x05 0x9D 0x22 0xA8 0x40 0xC0 
write to 0x0B ack data: 0x05 0x1F 0xA0 0x22 0x40 0xB0 0x12 0x52 0x82 0x64 0x61 0x31 0x9F 0xE2 0x6F 0x9F 0xDC 0x18 0xA4 0x85 0x20 0xF6 0x65 0x9F 0x03 0x22 0xA1 0x02 0x00 0x24 0x00 0x46 0xE0 
write to 0x0B ack data: 0x05 0x05 0xBD 0x22 0x60 0x02 0x80 
write to 0x0B ack data: 0x05 0x1F 0xC0 0x22 0x05 0xE6 0x12 0x40 0x98 0x02 0xC2 0xBF 0xA3 0x00 0x20 0x9F 0x5F 0x22 0x62 0x01 0x9F 0x9E 0x71 0x23 0x4B 0x23 0x22 0x45 0x24 0x21 0xBA 0x25 0x9F 
write to 0x0B ack data: 0x05 0x05 0xDD 0x22 0xE2 0x6E 0x9F 
write to 0x0B ack data: 0x05 0x1F 0xE0 0x22 0x03 0x2D 0xA4 0x8A 0x00 0xFA 0x83 0x90 0x04 0x60 0xFB 0xF0 0x42 0xA1 0x02 0x8D 0xCA 0x04 0x90 0x37 0xC2 0xFB 0xA3 0x8D 0x20 0x60 0x04 0xF1 0x42 
write to 0x0B ack data: 0x05 0x05 0xFD 0x22 0x31 0x19 0x83 
write to 0x0B ack data: 0x05 0x1F 0x00 0x23 0x64 0x14 0x21 0x42 0x00 0x9C 0x65 0x22 0x42 0x00 0x09 0x86 0x9F 0x26 0x77 0x22 0x42 0x00 0x09 0x86 0x9F 0x26 0x77 0x64 0x14 0x21 0x42 0x00 0x9C 
write to 0x0B ack data: 0x05 0x05 0x1D 0x23 0x65 0x09 0x86 
write to 0x0B ack data: 0x05 0x1F 0x20 0x23 0x20 0x00 0x40 0xE9 0x50 0x94 0x04 0x64 0x10 0x9C 0x68 0xA1 0x00 0x91 0x93 0x83 0xA4 0x91 0x00 0x72 0x9F 0xAC 0x1A 0xA1 0x04 0x82 0xA6 0x4C 0x7D 
write to 0x0B ack data: 0x05 0x05 0x3D 0x23 0xE6 0xF4 0x40 
write to 0x0B ack data: 0x05 0x1F 0x40 0x23 0xF6 0x61 0x20 0x42 0x00 0xE8 0x21 0x9C 0x68 0x99 0x68 0xA2 0xA0 0x3F 0xA6 0x2A 0x9F 0x98 0x6E 0xA1 0x02 0x19 0xD2 0x53 0x8C 0x18 0xD2 0x40 0x88 
write to 0x0B ack data: 0x05 0x05 0x5D 0x23 0x6A 0xD2 0x03 
write to 0x0B ack data: 0x05 0x1F 0x60 0x23 0x8C 0x06 0xD2 0x02 0x88 0x42 0x98 0x3C 0xD2 0x3E 0x90 0x38 0xD2 0x3F 0x84 0x14 0x98 0x15 0xD2 0x5F 0x8C 0x06 0xD2 0x55 0x88 0x4E 0x98 0x3A 0xD2 
write to 0x0B ack data: 0x05 0x05 0x7D 0x23 0x60 0x90 0x54 
write to 0x0B ack data: 0x05 0x1F 0x80 0x23 0xD2 0x61 0x90 0x55 0x7A 0x98 0x96 0xE6 0x5A 0x00 0x84 0x18 0x62 0xBF 0x9F 0xF3 0x6F 0xD2 0x00 0x84 0x0F 0x31 0x19 0x40 0x9F 0xC8 0x20 0x72 0x9F 
write to 0x0B ack data: 0x05 0x05 0x9D 0x23 0xAC 0x1A 0xA4 
write to 0x0B ack data: 0x05 0x1F 0xA0 0x23 0x92 0x01 0x98 0x77 0x32 0x73 0x98 0x05 0x22 0xDF 0x02 0x63 0x02 0xA6 0xA2 0x9F 0x24 0x70 0xA6 0x2A 0x98 0x67 0xA1 0x00 0x92 0x90 0x0D 0x72 0x9F 
write to 0x0B ack data: 0x05 0x05 0xBD 0x23 0x02 0x21 0xBA 
write to 0x0B ack data: 0x05 0x1F 0xC0 0x23 0x52 0x84 0x05 0xA4 0x92 0x00 0x98 0x2D 0x22 0x42 0x00 0x63 0x40 0xA6 0xA2 0x9F 0x03 0x70 0x99 0xDE 0xA3 0x90 0xA0 0x98 0x42 0xE6 0x5A 0x04 0x94 
write to 0x0B ack data: 0x05 0x05 0xDD 0x23 0x20 0xA1 0x00 
write to 0x0B ack data: 0x05 0x1F 0xE0 0x23 0x1A 0xD0 0xE0 0x84 0x36 0xE6 0x2A 0xFC 0xA3 0x82 0xA0 0x62 0x01 0x9F 0x02 0x21 0xE4 0x52 0x90 0x84 0x26 0x09 0x83 0x19 0x40 0x9F 0x89 0x19 0x98 
write to 0x0B ack data: 0x05 0x05 0xFD 0x23 0x1D 0xE6 0x5A 
write to 0x0B ack data: 0x05 0x1F 0x00 0x24 0x01 0x84 0x18 0x62 0xE1 0x9F 0xF3 0x6F 0xD2 0x00 0x84 0x0F 0x31 0x19 0x40 0x9F 0xC8 0x20 0x72 0x9F 0xAC 0x1A 0xA4 0x92 0x01 0x98 0x02 0x6A 0x01 
write to 0x0B ack data: 0x05 0x05 0x1D 0x24 0xA1 0x03 0x19 
write to 0x0B ack data: 0x05 0x1F 0x20 0x24 0xA6 0x32 0xE6 0x22 0xC1 0xD2 0x22 0x94 0x03 0xA4 0x92 0x00 0xE6 0x5A 0x00 0x90 0x08 0xE6 0x13 0x80 0xA3 0x1A 0x30 0x98 0x03 0xA4 0x1A 0x01 0x9F 
write to 0x0B ack data: 0x05 0x05 0x3D 0x24 0x4C 0x6F 0xA6 
write to 0x0B ack data: 0x05 0x1F 0x40 0x24 0xA2 0x2F 0xA0 0x0A 0x9A 0x3D 0x3F 0xA1 0x00 0x91 0x90 0x19 0xA4 0x91 0x00 0x72 0x9F 0xAC 0x1A 0xA1 0x04 0x82 0xA6 0x4A 0x7B 0xE6 0xF4 0x40 0xF6 
write to 0x0B ack data: 0x05 0x05 0x5D 0x24 0x51 0x20 0x42 
write to 0x0B ack data: 0x05 0x1F 0x60 0x24 0x00 0xE8 0x21 0x9C 0x68 0xA1 0x02 0x19 0xD2 0x01 0x94 0x03 0x32 0x1A 0x8E 0xD2 0x23 0x8C 0x34 0xD2 0x22 0x88 0xD0 0xD2 0x0D 0x8C 0x18 0xD2 0x0C 
write to 0x0B ack data: 0x05 0x05 0x7D 0x24 0x88 0x96 0xD2 
write to 0x0B ack data: 0x05 0x1F 0x80 0x24 0x07 0x8C 0x0A 0xD2 0x06 0x88 0x78 0xD2 0x00 0x90 0x60 0x98 0x6C 0xD2 0x09 0x94 0x7A 0x98 0x7D 0xD2 0x13 0x8C 0x0A 0xD2 0x12 0x88 0x94 0xD2 0x0F 
write to 0x0B ack data: 0x05 0x05 0x9D 0x24 0x94 0x7D 0x98 
write to 0x0B ack data: 0x05 0x1F 0xA0 0x24 0x82 0xD2 0x15 0x94 0x91 0x98 0x96 0xD2 0x31 0x8C 0x18 0xD2 0x30 0x88 0xBE 0xD2 0x2B 0x8C 0x0A 0xD2 0x2A 0x88 0x9E 0xD2 0x28 0x80 0x2C 0x98 0x91 
write to 0x0B ack data: 0x05 0x05 0xBD 0x24 0xD2 0x2D 0x94 
write to 0x0B ack data: 0x05 0x1F 0xC0 0x24 0x99 0x98 0xA3 0xD2 0x3E 0x90 0xBA 0xD2 0x3E 0x8C 0x0A 0xD2 0x33 0x94 0xA5 0xD2 0x3C 0x80 0x14 0x98 0xA4 0xD2 0x5F 0x8C 0x06 0xD2 0x40 0x88 0xA8 
write to 0x0B ack data: 0x05 0x05 0xDD 0x24 0x98 0x9F 0xD2 
write to 0x0B ack data: 0x05 0x1F 0xE0 0x24 0x60 0x90 0xAC 0xD2 0x61 0x90 0xAF 0x6A 0xFF 0x98 0xC1 0x09 0x8E 0x90 0x0A 0x9F 0xA2 0x6E 0xA6 0x2A 0x31 0x19 0x8E 0x98 0xB3 0x22 0xDD 0x02 0x72 
write to 0x0B ack data: 0x05 0x05 0xFD 0x24 0x98 0x43 0x24 
write to 0x0B ack data: 0x05 0x1F 0x00 0x25 0x97 0x02 0x01 0x00 0x9F 0xA2 0x6E 0xA6 0x2A 0x98 0xA1 0x24 0x97 0x02 0x98 0x60 0x24 0xDD 0x02 0x98 0x24 0x24 0x97 0x02 0x01 0x04 0x99 0xE8 0x24 
write to 0x0B ack data: 0x05 0x05 0x1D 0x25 0xDD 0x02 0x01 
write to 0x0B ack data: 0x05 0x1F 0x20 0x25 0x18 0x99 0xE1 0xA1 0x00 0x89 0x84 0x83 0x24 0xDD 0x02 0x01 0x08 0x99 0xD5 0x24 0xDD 0x02 0x01 0x0A 0x99 0xCE 0x24 0x97 0x02 0x01 0x06 0x99 0xC7 
write to 0x0B ack data: 0x05 0x05 0x3D 0x25 0x22 0xE9 0x02 
write to 0x0B ack data: 0x05 0x1F 0x40 0x25 0x62 0x16 0x9F 0xB8 0x6F 0x99 0xC0 0x24 0x97 0x02 0x01 0x20 0x99 0xB6 0x24 0xBD 0x02 0x01 0x0E 0x99 0xAF 0x24 0x40 0x42 0x99 0xA8 0xA1 0x00 0x89 
write to 0x0B ack data: 0x05 0x05 0x5D 0x25 0x84 0x4C 0x24 
write to 0x0B ack data: 0x05 0x1F 0x60 0x25 0xDD 0x02 0x01 0x1A 0x99 0x9E 0x24 0xDD 0x02 0x01 0x1C 0x99 0x97 0x24 0x1D 0x03 0x01 0x02 0x99 0x90 0x24 0x1D 0x03 0x99 0x89 0x24 0x29 0x46 0x99 
write to 0x0B ack data: 0x05 0x05 0x7D 0x25 0x84 0xA4 0x91 
write to 0x0B ack data: 0x05 0x1F 0x80 0x25 0x01 0x09 0x83 0x99 0x7F 0x22 0x42 0x00 0x62 0x40 0x9F 0x9F 0x6F 0x99 0x78 0x62 0x01 0x9F 0x02 0x21 0x99 0x71 0xA1 0x0A 0x82 0xA1 0x00 0x1A 0xD0 
write to 0x0B ack data: 0x05 0x05 0x9D 0x25 0x60 0x84 0x03 
write to 0x0B ack data: 0x05 0x1F 0xA0 0x25 0x9F 0xAB 0x18 0xE6 0x2A 0x04 0xA4 0x91 0x01 0x98 0x01 0x7A 0xA1 0x03 0x19 0xA3 0x1A 0x30 0x9F 0x4C 0x6F 0xA6 0xA2 0x2F 0x2D 0x9A 0x3D 0x3F 0xA6 
write to 0x0B ack data: 0x05 0x05 0xBD 0x25 0x2A 0x9F 0xE8 
write to 0x0B ack data: 0x05 0x1F 0xC0 0x25 0x6F 0xA6 0x2B 0xD2 0x00 0x90 0x05 0xA3 0x19 0xA0 0x98 0x03 0xA4 0x1A 0x01 0x62 0x01 0x9F 0x95 0x71 0x24 0x5A 0x01 0x60 0x7F 0xF0 0x02 0xA6 0xB2 
write to 0x0B ack data: 0x05 0x05 0xDD 0x25 0x2F 0x2D 0x9A 
write to 0x0B ack data: 0x05 0x1F 0xE0 0x25 0x3F 0x72 0x9F 0x65 0x6C 0x72 0x9F 0xA6 0x67 0x31 0x9F 0x89 0x6B 0x24 0x95 0x80 0x62 0xFE 0x52 0x00 0x24 0x91 0x80 0x52 0x00 0x73 0xB2 0x92 0x9F 
write to 0x0B ack data: 0x05 0x05 0xFD 0x25 0xDC 0x70 0x2F 
write to 0x0B ack data: 0x05 0x1F 0x00 0x26 0x9A 0x3D 0x3F 0xF6 0x15 0xFC 0x60 0x21 0xFC 0x02 0x9F 0x97 0x72 0x9F 0xE0 0x25 0x62 0x02 0x9F 0x9E 0x71 0xF6 0x52 0x62 0x01 0x9F 0xD8 0x71 0x2F 
write to 0x0B ack data: 0x05 0x05 0x1D 0x26 0x2D 0x9A 0x3D 
write to 0x0B ack data: 0x05 0x1F 0x20 0x26 0xA2 0xD0 0x3F 0xA7 0x02 0xF6 0x15 0x12 0xC0 0xA6 0x6D 0xFC 0x60 0xA6 0x64 0x21 0xFC 0x02 0x9F 0x97 0x72 0xA6 0xD4 0x21 0xFB 0x02 0x9F 0x97 0x72 
write to 0x0B ack data: 0x05 0x05 0x3D 0x26 0x9F 0xE0 0x25 
write to 0x0B ack data: 0x05 0x1F 0x40 0x26 0xA4 0x12 0x00 0x62 0x0A 0x9F 0x9E 0x71 0xF6 0x52 0x62 0x01 0x9F 0xD8 0x71 0x02 0xC0 0x62 0x03 0x9F 0xD8 0x71 0xAA 0x2F 0xA0 0x0D 0x2D 0x9A 0x3F 
write to 0x0B ack data: 0x05 0x05 0x5D 0x26 0x24 0x5A 0x01 
write to 0x0B ack data: 0x05 0x1F 0x60 0x26 0x60 0x01 0xF1 0x03 0x24 0x00 0x0C 0x40 0x00 0xD0 0xAA 0x84 0x17 0x24 0x08 0x0C 0x40 0x00 0xD0 0x55 0x84 0x0E 0x9F 0x1C 0x71 0xD2 0x00 0x84 0x07 
write to 0x0B ack data: 0x05 0x05 0x7D 0x26 0x9F 0x37 0x6C 
write to 0x0B ack data: 0x05 0x1F 0x80 0x26 0xD2 0x00 0x90 0x03 0x9F 0x1D 0x72 0x24 0x00 0x0C 0x62 0xAA 0x52 0x00 0x24 0x08 0x0C 0x62 0x55 0x52 0x00 0x9F 0x48 0x72 0x9F 0x81 0x6E 0x9F 0xAB 
write to 0x0B ack data: 0x05 0x05 0x9D 0x26 0x71 0xA1 0x02 
write to 0x0B ack data: 0x05 0x1F 0xA0 0x26 0x9E 0xE6 0x12 0x80 0xA3 0x9E 0x20 0x33 0x32 0x31 0x9F 0x86 0x6D 0x9F 0xA3 0x2C 0x9F 0xFE 0x00 0x9F 0xE0 0x25 0x9F 0xE1 0x6C 0x21 0x06 0x00 0x9F 
write to 0x0B ack data: 0x05 0x05 0xBD 0x26 0xAC 0x6B 0x21 
write to 0x0B ack data: 0x05 0x1F 0xC0 0x26 0x08 0x07 0x9F 0xAC 0x6B 0x64 0x7F 0x21 0x09 0x00 0x9F 0xB5 0x6B 0x24 0xFC 0x02 0x40 0x00 0x90 0x07 0x64 0x02 0xF6 0x41 0x9F 0x97 0x72 0x24 0xFB 
write to 0x0B ack data: 0x05 0x05 0xDD 0x26 0x02 0x40 0x00 
write to 0x0B ack data: 0x05 0x1F 0xE0 0x26 0x90 0x07 0x64 0x02 0xF6 0x41 0x9F 0x97 0x72 0x9F 0xBA 0x71 0x21 0x01 0x00 0x2F 0x9A 0x3F 0x21 0x26 0x01 0x9F 0x5A 0x6E 0xD2 0x88 0x90 0x0A 0xD2 
write to 0x0B ack data: 0x05 0x05 0xFD 0x26 0x86 0x90 0x06 
write to 0x0B ack data: 0x05 0x1F 0x00 0x27 0xD2 0xFC 0x90 0x02 0x9C 0x05 0x2F 0x9A 0x3F 0x9F 0x4A 0x71 0x99 0xFB 0xA6 0x26 0xF6 0x21 0xD6 0x00 0x84 0x0B 0x23 0x0A 0x00 0x22 0xFD 0x02 0x9C 
write to 0x0B ack data: 0x05 0x05 0x1D 0x27 0x71 0x62 0x0A 
write to 0x0B ack data: 0x05 0x1F 0x20 0x27 0x9A 0xD6 0x01 0x90 0x02 0x72 0x9A 0x23 0x04 0x00 0x22 0x17 0x03 0x9C 0x71 0x62 0x04 0x9A 0x3F 0xF6 0x24 0xCE 0x20 0x90 0x07 0xF4 0xE1 0x00 0x94 
write to 0x0B ack data: 0x05 0x05 0x3D 0x27 0x0E 0x98 0x05 
write to 0x0B ack data: 0x05 0x1F 0x40 0x27 0xF4 0xE1 0x00 0x88 0x07 0xF6 0x12 0xF6 0x41 0x9F 0xA1 0x72 0x2F 0x9A 0x3D 0x3F 0xA6 0x2A 0x7B 0xED 0x65 0xED 0x65 0x20 0x07 0x03 0xE8 0x25 0xF4 
write to 0x0B ack data: 0x05 0x05 0x5D 0x27 0x92 0x40 0xF6 
write to 0x0B ack data: 0x05 0x1F 0x60 0x27 0x51 0x9F 0xA1 0x72 0x24 0x40 0x42 0x02 0x00 0xED 0x91 0xE9 0x91 0x9F 0xA1 0x72 0x2F 0x2D 0x9A 0x3D 0x3F 0xA1 0x00 0x9D 0xC0 0x20 0x90 0x2B 0x66 
write to 0x0B ack data: 0x05 0x05 0x7D 0x27 0x20 0x22 0x80 
write to 0x0B ack data: 0x05 0x1F 0x80 0x27 0x42 0x21 0xFD 0x02 0x9F 0x62 0x76 0xFB 0x90 0x1D 0xA4 0x95 0x00 0x31 0x19 0x93 0x25 0xFD 0x02 0xF4 0x92 0x5E 0x21 0x1B 0x03 0x9F 0xA1 0x72 0x23 
write to 0x0B ack data: 0x05 0x05 0x9D 0x27 0x20 0x00 0xF6 
write to 0x0B ack data: 0x05 0x1F 0xA0 0x27 0x52 0x21 0x80 0x42 0x9F 0x86 0x6D 0x2F 0x2D 0x9A 0x3F 0xA1 0x00 0x9D 0xC0 0x20 0x90 0x21 0x0A 0x93 0xEA 0x91 0x19 0x93 0x20 0x0F 0x0E 0xE8 0x52 
write to 0x0B ack data: 0x05 0x05 0xBD 0x27 0x94 0x14 0x31 
write to 0x0B ack data: 0x05 0x1F 0xC0 0x27 0x19 0x93 0xE4 0x92 0x95 0xA3 0x95 0x20 0x24 0x0B 0x47 0xE0 0x52 0x00 0x80 0x03 0x9F 0x73 0x27 0x2F 0x9A 0x3F 0xF6 0x14 0x44 0x00 0xD4 0xFF 0x90 
write to 0x0B ack data: 0x05 0x05 0xDD 0x27 0x05 0xB4 0x94 
write to 0x0B ack data: 0x05 0x1F 0xE0 0x27 0x9F 0x97 0x72 0x2F 0x9A 0x3F 0xA1 0x00 0x9D 0xC0 0x20 0x90 0x09 0x21 0x17 0x03 0x9F 0xD5 0x27 0x9F 0x73 0x27 0x2F 0x9A 0x3D 0x3F 0xF6 0x25 0xA6 
write to 0x0B ack data: 0x05 0x05 0xFD 0x27 0x68 0xE6 0x22 
write to 0x0B ack data: 0x05 0x1F 0x00 0x28 0x05 0xB3 0xD3 0x22 0x0A 0x00 0x9C 0x7B 0xF6 0x12 0xE6 0xA8 0x20 0x90 0x15 0x20 0x7E 0x00 0xE8 0xE1 0x94 0x04 0x64 0x7F 0x98 0x1D 0x42 0x40 0xE9 
write to 0x0B ack data: 0x05 0x05 0x1D 0x28 0x09 0xE9 0xE2 
write to 0x0B ack data: 0x05 0x1F 0x20 0x28 0x94 0x1A 0x98 0x13 0x20 0x81 0xFF 0xE8 0xE1 0x88 0x04 0x64 0x80 0x98 0x08 0x42 0x40 0xE9 0x09 0xE9 0xE2 0x88 0x05 0xF6 0x51 0x9F 0x97 0x72 0x2F 
write to 0x0B ack data: 0x05 0x05 0x3D 0x28 0x2D 0x9A 0x3D 
write to 0x0B ack data: 0x05 0x1F 0x40 0x28 0xA2 0xC0 0x3F 0xA1 0x00 0x9D 0xC0 0x20 0x90 0x9D 0x9F 0x6D 0x02 0xA6 0x2C 0x98 0x1A 0xBC 0x8C 0xA6 0xCA 0x7B 0xED 0x64 0x66 0x20 0xF6 0x42 0x20 
write to 0x0B ack data: 0x05 0x05 0x5D 0x28 0xFD 0x02 0xE8 
write to 0x0B ack data: 0x05 0x1F 0x60 0x28 0x22 0x20 0x97 0x02 0xE8 0x24 0x01 0x08 0x9F 0x32 0x27 0xE6 0x5C 0x00 0x87 0xE1 0x66 0x20 0x22 0x01 0x03 0x24 0x97 0x02 0x01 0x04 0x9F 0x32 0x27 
write to 0x0B ack data: 0x05 0x05 0x7D 0x28 0x76 0x22 0x03 
write to 0x0B ack data: 0x05 0x1F 0x80 0x28 0x03 0x24 0x97 0x02 0x01 0x04 0x9F 0x32 0x27 0x9F 0xC8 0x01 0x66 0x20 0x22 0x05 0x03 0x9F 0xF8 0x27 0x9F 0xC8 0x01 0x76 0x22 0x06 0x03 0x9F 0xF8 
write to 0x0B ack data: 0x05 0x05 0x9D 0x28 0x27 0xA1 0x03 
write to 0x0B ack data: 0x05 0x1F 0xA0 0x28 0x96 0x24 0x64 0x01 0x45 0x01 0xA3 0x96 0x50 0xA1 0x02 0x97 0x44 0x03 0xA3 0x97 0x40 0xB2 0xA2 0xE5 0x0B 0x42 0x42 0x05 0xA3 0x98 0x20 0xB3 0xA3 
write to 0x0B ack data: 0x05 0x05 0xBD 0x28 0xB5 0x03 0xA6 
write to 0x0B ack data: 0x05 0x1F 0xC0 0x28 0x3A 0x72 0xCB 0x02 0x90 0x03 0x9F 0x4E 0x27 0xE6 0xAA 0x01 0x90 0x05 0x62 0x01 0x9F 0x4E 0x27 0xE6 0xAA 0x04 0x90 0x05 0x62 0x02 0x9F 0x4E 0x27 
write to 0x0B ack data: 0x05 0x05 0xDD 0x28 0xE6 0xAB 0x01 
write to 0x0B ack data: 0x05 0x1F 0xE0 0x28 0x90 0x05 0x62 0x03 0x9F 0x4E 0x27 0x2F 0xA0 0x0C 0x2D 0x9A 0xA2 0xA0 0x3F 0x9F 0x2E 0x72 0xA6 0x2A 0x22 0x20 0x00 0x21 0xFD 0x02 0x9C 0x69 0x24 
write to 0x0B ack data: 0x05 0x05 0xFD 0x28 0xFD 0x02 0x62 
write to 0x0B ack data: 0x05 0x1F 0x00 0x29 0x80 0x52 0x08 0x62 0x7F 0x52 0x09 0xE6 0x5A 0x00 0x90 0x0C 0xFC 0x60 0x9F 0x06 0x72 0x24 0x2C 0x03 0x11 0x00 0xFC 0x50 0x9F 0x73 0x27 0xA1 0x00 
write to 0x0B ack data: 0x05 0x05 0x1D 0x29 0x9E 0xC0 0x40 
write to 0x0B ack data: 0x05 0x1F 0x20 0x29 0x90 0x06 0x21 0x00 0x40 0x9F 0xBA 0x2C 0x2F 0xA0 0x0A 0x9A 0xA2 0xA0 0x3F 0xA6 0x2A 0x24 0xFD 0x02 0xF8 0x1E 0x84 0x0A 0x66 0x20 0x22 0x80 0x42 
write to 0x0B ack data: 0x05 0x05 0x3D 0x29 0xF6 0x41 0x9F 
write to 0x0B ack data: 0x05 0x1F 0x40 0x29 0x79 0x72 0x64 0x03 0x21 0x96 0x00 0x9C 0x68 0xA1 0x00 0x9D 0xC0 0x20 0x90 0x26 0x9F 0x1C 0x71 0xD2 0x00 0x84 0x07 0x9F 0x37 0x6C 0xD2 0x00 0x90 
write to 0x0B ack data: 0x05 0x05 0x5D 0x29 0x05 0x21 0x1A 
write to 0x0B ack data: 0x05 0x1F 0x60 0x29 0x03 0x98 0x0D 0xE6 0x5A 0x00 0x90 0x05 0x21 0x18 0x03 0x98 0x03 0x21 0x19 0x03 0x9F 0xD5 0x27 0x9F 0x73 0x27 0x2F 0xA0 0x0A 0x9A 0xA1 0x02 0x99 
write to 0x0B ack data: 0x05 0x05 0x7D 0x29 0x73 0xE9 0x64 
write to 0x0B ack data: 0x05 0x1F 0x80 0x29 0xEC 0x64 0xEC 0x64 0x20 0x65 0x46 0xE8 0x24 0x01 0x00 0x9A 0x3D 0x3E 0x3F 0xA7 0x05 0x26 0x5E 0x01 0x40 0x83 0x84 0xA6 0xA1 0x02 0x9B 0xC2 0x7F 
write to 0x0B ack data: 0x05 0x05 0x9D 0x29 0xA3 0x9B 0x20 
write to 0x0B ack data: 0x05 0x1F 0xA0 0x29 0x24 0x3C 0x01 0x01 0x03 0x11 0xC3 0x02 0x84 0x12 0xC1 0x25 0x5D 0x46 0x45 0x7B 0x55 0xC0 0x9F 0x7A 0x29 0x02 0x79 0x24 0x97 0x02 0xF4 0x22 0x12 
write to 0x0B ack data: 0x05 0x05 0xBD 0x29 0xE9 0xE2 0x80 
write to 0x0B ack data: 0x05 0x1F 0xC0 0x29 0x73 0x07 0x75 0x24 0x1D 0x03 0x01 0x00 0x30 0xE8 0xE1 0x94 0x06 0xE9 0xE7 0x94 0x02 0xF6 0x17 0x06 0xC3 0xF4 0xCE 0xC1 0x21 0x10 0x0E 0x44 0xC0 
write to 0x0B ack data: 0x05 0x05 0xDD 0x29 0x75 0x9C 0x7B 
write to 0x0B ack data: 0x05 0x1F 0xE0 0x29 0xF6 0x12 0xF6 0x61 0x9C 0x76 0x66 0x08 0x9C 0x81 0x25 0x5E 0x01 0xE9 0xE7 0x94 0x37 0xF4 0x92 0x40 0x12 0x40 0x42 0xC0 0x73 0xE9 0x61 0xE9 0x61 
write to 0x0B ack data: 0x05 0x05 0xFD 0x29 0xE9 0xC2 0x84 
write to 0x0B ack data: 0x05 0x1F 0x00 0x2A 0x3D 0x24 0x5D 0x46 0xF4 0xE6 0x37 0x94 0x0F 0xE0 0x92 0x42 0x52 0x42 0xD2 0x02 0x84 0x09 0x62 0x01 0x52 0x43 0x98 0x04 0x73 0x53 0x42 0x72 0x24 
write to 0x0B ack data: 0x05 0x05 0x1D 0x2A 0x5E 0x01 0x32 
write to 0x0B ack data: 0x05 0x1F 0x20 0x2A 0x12 0x00 0x02 0xC3 0x12 0x04 0x98 0x17 0x75 0x55 0x42 0x31 0x11 0x40 0x02 0xC3 0x12 0x44 0x98 0x0A 0x75 0x55 0x82 0x31 0x11 0x80 0x02 0xC3 0x12 
write to 0x0B ack data: 0x05 0x05 0x3D 0x2A 0x84 0x72 0xAD 
write to 0x0B ack data: 0x05 0x1F 0x40 0x2A 0x2F 0x2E 0x2D 0x9A 0x3D 0x3F 0xF6 0x15 0x9F 0x6D 0x02 0xA6 0x24 0xF6 0x51 0x75 0x9C 0x75 0x2F 0x2D 0x9A 0x3D 0x3F 0xA1 0x02 0x9B 0x9F 0x68 0x73 
write to 0x0B ack data: 0x05 0x05 0x5D 0x2A 0xB2 0x82 0xA1 
write to 0x0B ack data: 0x05 0x1F 0x60 0x2A 0x0A 0x99 0x7B 0xED 0x65 0xED 0x65 0xB2 0x2A 0xBB 0xDB 0xED 0x64 0x20 0x5F 0x46 0xE8 0x24 0x01 0x08 0x2F 0x2D 0x9A 0x3D 0x3E 0x3F 0xA7 0x01 0xA1 
write to 0x0B ack data: 0x05 0x05 0x7D 0x2A 0x00 0x9A 0x84 
write to 0x0B ack data: 0x05 0x1F 0x80 0x2A 0x03 0xA4 0x9A 0x08 0xA1 0x02 0x9A 0x52 0xC0 0xA1 0x00 0x9B 0xC0 0x0F 0x84 0x09 0xA1 0x02 0x9B 0xE6 0x12 0x01 0xA3 0x9B 0x20 0xA1 0x0D 0x9B 0xE6 
write to 0x0B ack data: 0x05 0x05 0x9D 0x2A 0x0D 0x80 0x42 
write to 0x0B ack data: 0x05 0x1F 0xA0 0x2A 0xC0 0x9F 0x68 0x73 0xA6 0x2C 0x9F 0xC8 0x01 0x22 0x0A 0x00 0x9C 0x7B 0x20 0x7E 0x00 0xE8 0xE1 0x94 0x02 0x62 0x7F 0xE6 0x5C 0x00 0x84 0x09 0x24 
write to 0x0B ack data: 0x05 0x05 0xBD 0x2A 0x5D 0x46 0x45 
write to 0x0B ack data: 0x05 0x1F 0xC0 0x2A 0x01 0x64 0x80 0x98 0x1D 0xE6 0x5C 0x06 0x84 0x09 0x24 0x5D 0x46 0x44 0x06 0x65 0x7F 0x98 0x1C 0xA6 0xCA 0x7B 0x20 0x5D 0x46 0xE8 0x25 0x02 0x40 
write to 0x0B ack data: 0x05 0x05 0xDD 0x2A 0xE6 0x5C 0x02 
write to 0x0B ack data: 0x05 0x1F 0xE0 0x2A 0x8C 0x08 0x24 0x5D 0x46 0xE0 0x25 0x07 0x98 0x0B 0xE6 0x5C 0x03 0x90 0x06 0x24 0x5D 0x46 0xE0 0xC4 0x07 0xE5 0xE0 0x42 0x88 0x07 0xE0 0xB8 0xC0 
write to 0x0B ack data: 0x05 0x05 0xFD 0x2A 0x58 0xC0 0x98 
write to 0x0B ack data: 0x05 0x1F 0x00 0x2B 0x0A 0xE5 0xE0 0x52 0x94 0x05 0xE0 0x69 0xC0 0x59 0xC0 0xA1 0x0C 0x2E 0xE6 0x5C 0x01 0x84 0x07 0xA1 0x00 0x9B 0xC0 0x10 0x90 0x17 0x42 0xC0 0xCA 
write to 0x0B ack data: 0x05 0x05 0x1D 0x2B 0x61 0x90 0x05 
write to 0x0B ack data: 0x05 0x1F 0x20 0x2B 0xE6 0x1D 0x10 0x98 0x16 0xE6 0x5C 0x01 0x90 0x07 0xA1 0x00 0x9B 0xC0 0x20 0x90 0x0A 0x48 0xC0 0xE6 0xA8 0x41 0x90 0x03 0xE6 0x1D 0x20 0x42 0xC0 
write to 0x0B ack data: 0x05 0x05 0x3D 0x2B 0xCA 0x03 0x90 
write to 0x0B ack data: 0x05 0x1F 0x40 0x2B 0x05 0xA4 0x99 0x00 0x98 0x15 0xCA 0x14 0x90 0x05 0xA4 0x99 0x01 0x98 0x0C 0xCA 0x08 0x90 0x05 0xA4 0x99 0x03 0x98 0x03 0xA4 0x99 0x02 0x24 0x97 
write to 0x0B ack data: 0x05 0x05 0x5D 0x2B 0x02 0x07 0x14 
write to 0x0B ack data: 0x05 0x1F 0x60 0x2B 0xA1 0x02 0x9B 0xA6 0x2A 0xE6 0x0A 0x0F 0xCA 0x01 0x84 0x08 0x24 0x5D 0x46 0xF4 0xE7 0x2C 0x8C 0x0A 0x6A 0x01 0x24 0x5D 0x46 0x02 0x2E 0x31 0x98 
write to 0x0B ack data: 0x05 0x05 0x7D 0x2B 0x33 0x24 0x97 
write to 0x0B ack data: 0x05 0x1F 0x80 0x2B 0x02 0x07 0x12 0xCA 0x02 0x90 0x09 0x24 0x5D 0x46 0x03 0x2E 0x02 0x30 0x98 0x15 0xCA 0x04 0x90 0x09 0x24 0x5D 0x46 0x03 0x30 0x02 0x32 0x98 0x08 
write to 0x0B ack data: 0x05 0x05 0x9D 0x2B 0x24 0x5D 0x46 
write to 0x0B ack data: 0x05 0x1F 0xA0 0x2B 0x03 0x32 0x22 0xFF 0x7F 0x24 0x5D 0x46 0x42 0x34 0x73 0xF6 0x34 0xE9 0xC4 0xF6 0x41 0xEA 0xE7 0x94 0x04 0xBA 0x6A 0x98 0x0B 0xE6 0x5C 0x01 0x90 
write to 0x0B ack data: 0x05 0x05 0xBD 0x2B 0x06 0xE9 0xE7 
write to 0x0B ack data: 0x05 0x1F 0xC0 0x2B 0x88 0x02 0xBA 0xBA 0xBA 0x1D 0xE6 0xAD 0x31 0x84 0x0A 0xA1 0x00 0xB0 0xC0 0x08 0x90 0x03 0xE6 0x1D 0x40 0xFC 0x60 0xA3 0x9B 0xD0 0x49 0xC0 0xA3 
write to 0x0B ack data: 0x05 0x05 0xDD 0x2B 0x9A 0x90 0xFC 
write to 0x0B ack data: 0x05 0x1F 0xE0 0x2B 0x50 0xA9 0x2F 0x2E 0x2D 0x9A 0x3D 0x3E 0x3F 0xD2 0x00 0x90 0x57 0xA1 0x02 0x9B 0xCA 0x30 0x84 0x50 0xCA 0x01 0x90 0x07 0x24 0x5D 0x46 0x05 0x28 
write to 0x0B ack data: 0x05 0x05 0xFD 0x2B 0x98 0x33 0x26 
write to 0x0B ack data: 0x05 0x1F 0x00 0x2C 0x5D 0x46 0xCA 0x40 0x90 0x04 0x05 0xAA 0x98 0x28 0x9F 0x55 0x2A 0xF6 0x15 0x40 0x80 0xC0 0x01 0x90 0x1D 0x66 0x01 0x24 0x29 0x46 0x02 0x00 0x24 
write to 0x0B ack data: 0x05 0x05 0x1D 0x2C 0x21 0x03 0x01 
write to 0x0B ack data: 0x05 0x1F 0x20 0x2C 0x04 0x9F 0x93 0x73 0xF6 0x52 0x73 0x9F 0xB6 0x73 0x05 0xA8 0xED 0xE1 0x80 0x02 0xF6 0x15 0xF6 0x52 0x21 0x1D 0x03 0x9F 0xA1 0x72 0x9F 0x7A 0x29 
write to 0x0B ack data: 0x05 0x05 0x3D 0x2C 0x9F 0x44 0x2A 
write to 0x0B ack data: 0x05 0x1F 0x40 0x2C 0xF6 0x12 0x98 0x08 0x32 0x21 0x1D 0x03 0x9F 0xA1 0x72 0x32 0x21 0x1F 0x03 0x9F 0xA1 0x72 0x2F 0x2E 0x2D 0x9A 0x3D 0x3F 0x64 0x06 0x21 0x5E 0x01 
write to 0x0B ack data: 0x05 0x05 0x5D 0x2C 0x9C 0x68 0x25 
write to 0x0B ack data: 0x05 0x1F 0x60 0x2C 0x3C 0x01 0x24 0x5E 0x01 0x01 0x43 0x11 0x04 0x2F 0x2D 0x9A 0x3F 0xA1 0x00 0x30 0x90 0x03 0x9F 0xE6 0x2B 0xE4 0x80 0x2E 0x90 0x12 0x9F 0x56 0x2C 
write to 0x0B ack data: 0x05 0x05 0x7D 0x2C 0xE4 0xA0 0x2E 
write to 0x0B ack data: 0x05 0x1F 0x80 0x2C 0x84 0x1E 0xA1 0x02 0x9B 0xC2 0x7F 0xA3 0x9B 0x20 0x98 0x14 0x9F 0x8C 0x29 0xD2 0x00 0x90 0x0D 0xA1 0x02 0x9B 0xE6 0x12 0x80 0xA3 0x9B 0x20 0x62 
write to 0x0B ack data: 0x05 0x05 0x9D 0x2C 0x01 0x98 0x01 
write to 0x0B ack data: 0x05 0x1F 0xA0 0x2C 0x72 0x2F 0x9A 0x24 0xC0 0x43 0x01 0x00 0x73 0xC2 0xF8 0x19 0x9D 0xFB 0x84 0x09 0xA1 0x02 0x9E 0xE6 0x12 0x80 0xA3 0x9E 0x20 0x9A 0x3F 0xA7 0x02 
write to 0x0B ack data: 0x05 0x05 0xBD 0x2C 0xF6 0x13 0xF5 
write to 0x0B ack data: 0x05 0x1F 0xC0 0x2C 0x43 0x9D 0x21 0xFE 0xC0 0xEB 0x01 0x11 0xC0 0xCA 0x10 0x90 0x07 0x21 0xF8 0xC0 0xEB 0x01 0x11 0xC0 0x01 0xC0 0x19 0x9D 0x73 0xC2 0xF8 0x11 0xC0 
write to 0x0B ack data: 0x05 0x05 0xDD 0x2C 0x23 0x02 0x00 
write to 0x0B ack data: 0x05 0x1F 0xE0 0x2C 0xF6 0x82 0x21 0xC0 0x43 0x9F 0x86 0x6D 0xAA 0x2F 0x9A 0xA1 0x02 0x99 0x73 0xE9 0x61 0x20 0xB7 0x46 0xE8 0x21 0x9A 0xA1 0x02 0x99 0x73 0xE9 0x61 
write to 0x0B ack data: 0x05 0x05 0xFD 0x2C 0x20 0xC0 0x46 
write to 0x0B ack data: 0x05 0x1F 0x00 0x2D 0xE8 0x21 0x9A 0xA4 0xA9 0x00 0x9A 0x24 0x97 0x02 0x01 0x12 0xF4 0xC9 0x14 0x9A 0xA6 0x24 0xE4 0xA0 0x2E 0x90 0x06 0x31 0x19 0xA1 0x19 0xA3 0x9A 
write to 0x0B ack data: 0x05 0x05 0x1D 0x2D 0xFA 0xA7 0x90 
write to 0x0B ack data: 0x05 0x1F 0x20 0x2D 0x1E 0xE9 0x09 0x0B 0xA1 0xE9 0xC3 0x1B 0xA1 0x24 0xEB 0x46 0xF4 0xE3 0x06 0x80 0x0E 0x24 0x64 0x01 0x60 0xF3 0xF0 0x04 0x60 0xF3 0xF0 0x05 0x31 
write to 0x0B ack data: 0x05 0x05 0x3D 0x2D 0x19 0xA7 0xFA 
write to 0x0B ack data: 0x05 0x1F 0x40 0x2D 0xA5 0x90 0x1E 0xEA 0x09 0x0A 0xA3 0xE9 0xC2 0x1A 0xA3 0x24 0xEB 0x46 0xF4 0xE2 0x0E 0x80 0x0E 0x24 0x64 0x01 0x60 0xCF 0xF0 0x04 0x60 0xCF 0xF0 
write to 0x0B ack data: 0x05 0x05 0x5D 0x2D 0x05 0x33 0x1B 
write to 0x0B ack data: 0x05 0x1F 0x60 0x2D 0xA5 0x9A 0x3D 0x3E 0x3F 0xA6 0x2E 0xF6 0x25 0xF6 0x36 0x24 0xAE 0x46 0x40 0x02 0xB2 0x00 0x90 0x51 0x24 0x64 0x01 0x40 0x05 0xB2 0x00 0x84 0x48 
write to 0x0B ack data: 0x05 0x05 0x7D 0x2D 0x24 0x97 0x02 
write to 0x0B ack data: 0x05 0x1F 0x80 0x2D 0x01 0x04 0xF4 0xE1 0x82 0x88 0x12 0xF8 0x40 0x90 0x0E 0xA6 0xE2 0x73 0xE9 0x61 0x24 0x64 0x01 0xA6 0x20 0xF1 0x04 0x98 0x2C 0xF4 0xE1 0x80 0x8C 
write to 0x0B ack data: 0x05 0x05 0x9D 0x2D 0x04 0xF8 0x40 
write to 0x0B ack data: 0x05 0x1F 0xA0 0x2D 0x90 0x23 0xF4 0x91 0x40 0x11 0x40 0xF4 0x51 0x84 0x80 0x0A 0x24 0x64 0x01 0xA6 0xE2 0xE0 0x12 0x05 0x52 0x05 0x24 0x64 0x01 0xA6 0xE2 0x73 0xE9 
write to 0x0B ack data: 0x05 0x05 0xBD 0x2D 0x61 0xB2 0xA2 
write to 0x0B ack data: 0x05 0x1F 0xC0 0x2D 0xE0 0x02 0x04 0x52 0x04 0x2F 0x2E 0x2D 0x9A 0x3F 0xA1 0x00 0x9B 0xC0 0x01 0x90 0x0A 0x23 0xEB 0x46 0x22 0xA7 0x00 0x62 0x04 0x98 0x08 0x23 0xF3 
write to 0x0B ack data: 0x05 0x05 0xDD 0x2D 0x46 0x22 0xA5 
write to 0x0B ack data: 0x05 0x1F 0xE0 0x2D 0x00 0x62 0x10 0x9F 0x62 0x2D 0x2F 0x9A 0xA6 0x26 0x24 0x64 0x01 0x40 0x09 0x84 0x0D 0x40 0x0B 0x84 0x09 0x40 0x0D 0x84 0x05 0x32 0x40 0x0F 0x90 
write to 0x0B ack data: 0x05 0x05 0xFD 0x2D 0x03 0x22 0x01 
write to 0x0B ack data: 0x05 0x1F 0x00 0x2E 0x00 0xD3 0x00 0x90 0x06 0x63 0x24 0x65 0x11 0x98 0x04 0x63 0x04 0x65 0x01 0xD4 0x00 0x84 0x14 0x24 0x64 0x01 0x42 0x01 0xCA 0x51 0x84 0x0B 0xE0 
write to 0x0B ack data: 0x05 0x05 0x1D 0x2E 0x03 0x03 0x84 
write to 0x0B ack data: 0x05 0x1F 0x20 0x2E 0x06 0x40 0x07 0xC0 0x08 0x90 0x06 0xC6 0xFE 0xD4 0x00 0x84 0x1A 0x24 0x64 0x01 0x42 0x01 0xCA 0x06 0x84 0x11 0xE0 0x05 0x03 0x84 0x0C 0x42 0x05 
write to 0x0B ack data: 0x05 0x05 0x3D 0x2E 0xCA 0x14 0x84 
write to 0x0B ack data: 0x05 0x1F 0x40 0x2E 0x06 0x40 0x07 0xC0 0x04 0x90 0x02 0xC6 0xF5 0xA6 0x62 0x9A 0x3F 0x9F 0xE8 0x2D 0xA6 0x24 0xCA 0x0B 0x90 0x1E 0x24 0x97 0x02 0x03 0x04 0xEB 0xB1 
write to 0x0B ack data: 0x05 0x05 0x5D 0x2E 0x24 0x99 0x46 
write to 0x0B ack data: 0x05 0x1F 0x60 0x2E 0xF4 0xE1 0x0C 0x80 0x07 0xC4 0xF5 0xE6 0x14 0x02 0x98 0x08 0xF4 0xE3 0x0E 0x80 0x03 0xE6 0x14 0x01 0xA6 0x42 0x2F 0x9A 0x3F 0xA7 0x03 0x64 0x03 
write to 0x0B ack data: 0x05 0x05 0x7D 0x2E 0xF6 0x81 0x9C 
write to 0x0B ack data: 0x05 0x1F 0x80 0x2E 0x68 0x43 0xC0 0x44 0xC2 0xE4 0x80 0x2E 0x84 0x0C 0xE6 0x13 0x04 0x53 0xC0 0xE6 0x14 0x10 0x54 0xC2 0x98 0x1A 0xA6 0x32 0xE6 0x12 0x10 0x52 0xC0 
write to 0x0B ack data: 0x05 0x05 0x9D 0x2E 0xE6 0x14 0x04 
write to 0x0B ack data: 0x05 0x1F 0xA0 0x2E 0x54 0xC2 0x24 0xAD 0x46 0x40 0x00 0xC0 0x02 0x90 0x05 0xE6 0x13 0x12 0x53 0xC0 0xF6 0x82 0x21 0x48 0x47 0x9F 0xBE 0x77 0xA1 0x02 0xA9 0xD2 0xFF 
write to 0x0B ack data: 0x05 0x05 0xBD 0x2E 0x90 0x05 0xB2 
write to 0x0B ack data: 0x05 0x1F 0xC0 0x2E 0x92 0xA3 0xA9 0x20 0xAB 0x2F 0x9A 0x3D 0x3F 0x24 0x97 0x02 0x25 0x17 0x47 0x01 0x12 0xF4 0xE1 0x40 0x80 0x18 0x01 0x04 0x9C 0x6A 0xF4 0xE1 0x42 
write to 0x0B ack data: 0x05 0x05 0xDD 0x2E 0x88 0x0F 0x09 
write to 0x0B ack data: 0x05 0x1F 0xE0 0x2E 0x9F 0xF4 0x51 0x47 0x80 0x04 0x62 0x01 0x98 0x08 0xE9 0x91 0x98 0x01 0x31 0x19 0x9F 0x72 0x2F 0x2D 0x9A 0x3D 0xA2 0xC0 0x3F 0xA7 0x01 0x9F 0x0F 
write to 0x0B ack data: 0x05 0x05 0xFD 0x2E 0x69 0xA6 0x2C 
write to 0x0B ack data: 0x05 0x1F 0x00 0x2F 0xA1 0x00 0xCD 0xC0 0x01 0x90 0x07 0x24 0x64 0x01 0x60 0x04 0xF1 0x0F 0xA1 0x00 0x9D 0xC0 0x40 0x90 0x50 0x64 0x01 0xF6 0x81 0x9C 0x68 0x24 0x97 
write to 0x0B ack data: 0x05 0x05 0x1D 0x2F 0x02 0x25 0x17 
write to 0x0B ack data: 0x05 0x1F 0x20 0x2F 0x47 0x01 0x12 0xF4 0xE1 0x49 0x80 0x07 0x01 0x04 0xF4 0xE1 0x4B 0x88 0x07 0x42 0xC0 0xE6 0x12 0x04 0x52 0xC0 0x9F 0xC7 0x2E 0xD2 0x00 0x84 0x07 
write to 0x0B ack data: 0x05 0x05 0x3D 0x2F 0x42 0xC0 0xE6 
write to 0x0B ack data: 0x05 0x1F 0x40 0x2F 0x12 0x08 0x52 0xC0 0xA6 0xC3 0xE6 0xAC 0x01 0x90 0x07 0x42 0xC0 0xE6 0x12 0x10 0x52 0xC0 0xCB 0x02 0x90 0x07 0x42 0xC0 0xE6 0x12 0x20 0x52 0xC0 
write to 0x0B ack data: 0x05 0x05 0x5D 0x2F 0xF6 0x82 0x21 
write to 0x0B ack data: 0x05 0x1F 0x60 0x2F 0x40 0x47 0x9F 0xBE 0x77 0xA9 0x2F 0xA0 0x0C 0x2D 0x9A 0x23 0x08 0x00 0xF6 0x12 0x21 0x6C 0x01 0x9C 0x71 0x9A 0xA1 0x02 0xAB 0x90 0x0C 0xB2 0x82 
write to 0x0B ack data: 0x05 0x05 0x7D 0x2F 0xA3 0xAB 0x20 
write to 0x0B ack data: 0x05 0x1F 0x80 0x2F 0xD2 0x00 0x84 0x03 0xA4 0xAA 0x00 0x9A 0xF6 0x24 0xA1 0x04 0xAA 0xB6 0x54 0x84 0x0E 0xA4 0xAA 0x00 0xF4 0xC9 0x02 0x84 0x17 0xA4 0xAB 0x00 0x62 
write to 0x0B ack data: 0x05 0x05 0x9D 0x2F 0x01 0x9A 0xA1 
write to 0x0B ack data: 0x05 0x1F 0xA0 0x2F 0x00 0xAB 0x84 0x11 0xD4 0x00 0x84 0x0D 0xF4 0xC9 0x00 0x84 0x08 0xA3 0xAA 0x60 0xA4 0xAB 0x04 0x72 0x9A 0x72 0x9A 0x3F 0xA7 0x04 0x24 0x21 0x03 
write to 0x0B ack data: 0x05 0x05 0xBD 0x2F 0x02 0x00 0x24 
write to 0x0B ack data: 0x05 0x1F 0xC0 0x2F 0x40 0x42 0xF4 0x42 0x00 0x23 0xF2 0xA6 0xEA 0x43 0x13 0xC0 0x20 0xCE 0x35 0xE8 0x42 0x12 0xC2 0x66 0xFE 0xF6 0x82 0x9F 0x88 0x2F 0xAC 0x2F 0x9A 
write to 0x0B ack data: 0x05 0x05 0xDD 0x2F 0xA1 0x00 0xAA 
write to 0x0B ack data: 0x05 0x1F 0xE0 0x2F 0x84 0x06 0xA4 0xAA 0xFF 0xA4 0xAB 0x04 0x9A 0xFC 0x60 0x24 0x3C 0x01 0x21 0xFF 0x7F 0x11 0x04 0x21 0xFF 0xFF 0x22 0xFF 0x7F 0x11 0x00 0x12 0x02 
write to 0x0B ack data: 0x05 0x05 0xFD 0x2F 0x31 0x32 0x19 
write to 0x0B ack data: 0x05 0x1F 0x00 0x30 0xB5 0x1A 0xB7 0xFC 0x50 0x9A 0x24 0x4C 0x46 0x40 0x05 0x84 0x07 0xA1 0x02 0xB2 0xC2 0xF7 0x98 0x06 0xA1 0x02 0xB2 0xE6 0x12 0x08 0xA3 0xB2 0x20 
write to 0x0B ack data: 0x05 0x05 0x1D 0x30 0x9A 0x3F 0x9F 
write to 0x0B ack data: 0x05 0x1F 0x20 0x30 0xE5 0x4B 0x24 0xCA 0x01 0x31 0x11 0x28 0xA4 0xB9 0x03 0x9F 0x91 0x43 0x60 0x80 0xF3 0xB4 0x24 0x4C 0x46 0x40 0x00 0xC0 0x02 0x90 0x13 0x66 0x04 
write to 0x0B ack data: 0x05 0x05 0x3D 0x30 0x22 0xEC 0x01 
write to 0x0B ack data: 0x05 0x1F 0x40 0x30 0x21 0xE4 0x01 0x9F 0x79 0x72 0x22 0xEC 0x01 0xF6 0x21 0x9F 0x20 0x35 0x24 0x29 0x46 0x42 0x09 0xCA 0x04 0x90 0x04 0x60 0x02 0xF3 0xB0 0xCA 0x08 
write to 0x0B ack data: 0x05 0x05 0x5D 0x30 0x90 0x04 0x60 
write to 0x0B ack data: 0x05 0x1F 0x60 0x30 0x08 0xF3 0xB0 0x2F 0x9A 0x3D 0x3F 0x24 0xCA 0x01 0xF4 0x90 0x2C 0x10 0x2C 0x30 0xF4 0x38 0x2E 0x10 0x2E 0xE0 0x92 0x32 0x52 0x32 0xE4 0xA0 0xB3 
write to 0x0B ack data: 0x05 0x05 0x7D 0x30 0x90 0x06 0x21 
write to 0x0B ack data: 0x05 0x1F 0x80 0x30 0xFA 0x01 0x9F 0x60 0x74 0x25 0xCA 0x01 0x42 0x72 0xD2 0xE0 0x94 0x34 0xE6 0x22 0x1F 0x52 0x72 0x21 0xD7 0x01 0x9F 0x60 0x74 0x21 0xCE 0x01 0x9F 
write to 0x0B ack data: 0x05 0x05 0x9D 0x30 0x60 0x74 0x21 
write to 0x0B ack data: 0x05 0x1F 0xA0 0x30 0xE2 0x01 0x9F 0x60 0x74 0x01 0x44 0x9F 0x80 0x4C 0xF6 0x15 0x24 0x29 0x46 0x02 0x00 0x24 0x80 0x45 0x42 0x0A 0x73 0x9F 0xB6 0x73 0xE9 0x55 0x80 
write to 0x0B ack data: 0x05 0x05 0xBD 0x30 0x04 0x60 0x04 
write to 0x0B ack data: 0x05 0x1F 0xC0 0x30 0xF3 0xB1 0x2F 0x2D 0x9A 0x3D 0x3E 0x3F 0xA7 0x02 0xF6 0x16 0x09 0xB5 0x0A 0xB7 0x24 0x10 0x27 0x35 0x9C 0x7D 0x11 0xC0 0x9F 0x0E 0x36 0xF6 0x62 
write to 0x0B ack data: 0x05 0x05 0xDD 0x30 0x9C 0x76 0xF5 
write to 0x0B ack data: 0x05 0x1F 0xE0 0x30 0x21 0xB5 0xF5 0x32 0xB7 0x19 0xB5 0x1A 0xB7 0x24 0x10 0x27 0x35 0x9C 0x7D 0xF4 0xC9 0xC0 0xAA 0x2F 0x2E 0x2D 0x9A 0x3F 0xA7 0x01 0x24 0x06 0x42 
write to 0x0B ack data: 0x05 0x05 0xFD 0x30 0x44 0x08 0xA1 
write to 0x0B ack data: 0x05 0x1F 0x00 0x31 0x00 0x9D 0xE7 0x08 0x20 0xA6 0x13 0xC3 0x01 0xE7 0x48 0x40 0xA6 0x12 0xC2 0x01 0xB3 0x52 0x84 0x03 0x72 0x98 0x1A 0xA6 0x42 0xC2 0xFB 0xE7 0x38 
write to 0x0B ack data: 0x05 0x05 0x1D 0x31 0x04 0xC0 0x04 
write to 0x0B ack data: 0x05 0x1F 0x20 0x31 0xB0 0x12 0x52 0xC0 0x23 0x01 0x00 0xF6 0x82 0x21 0x0E 0x42 0x9F 0x86 0x6D 0x62 0x01 0xA9 0x2F 0x9A 0x3F 0x60 0x40 0xF3 0xB0 0x9F 0xF7 0x30 0x9F 
write to 0x0B ack data: 0x05 0x05 0x3D 0x31 0x06 0x30 0x2F 
write to 0x0B ack data: 0x05 0x1F 0x40 0x31 0x9A 0x3D 0x3E 0x3F 0xA7 0x02 0x24 0x4C 0x46 0x40 0x00 0xC0 0x01 0x90 0x07 0x24 0x21 0x03 0x02 0x04 0x98 0x05 0x24 0x29 0x46 0x02 0x00 0x25 0x29 
write to 0x0B ack data: 0x05 0x05 0x5D 0x31 0x46 0x42 0x46 
write to 0x0B ack data: 0x05 0x1F 0x60 0x31 0x73 0x9F 0xB6 0x73 0xF6 0x16 0x02 0x40 0x42 0x47 0x73 0x9F 0xB6 0x73 0xF6 0x12 0xEE 0xE1 0x88 0x02 0xF6 0x62 0x24 0xCA 0x01 0x01 0x26 0xEA 0xE1 
write to 0x0B ack data: 0x05 0x05 0x7D 0x31 0x80 0x1B 0xEA 
write to 0x0B ack data: 0x05 0x1F 0x80 0x31 0xC1 0x11 0x26 0x24 0x40 0x42 0x01 0x00 0xE9 0xA0 0x90 0x0E 0xE9 0x91 0x11 0xC0 0x23 0x02 0x00 0xF6 0x82 0xF6 0x41 0x9F 0x86 0x6D 0x72 0x9F 0xA6 
write to 0x0B ack data: 0x05 0x05 0x9D 0x31 0x43 0xAA 0x2F 
write to 0x0B ack data: 0x05 0x1F 0xA0 0x31 0x2E 0x2D 0x9A 0x3D 0x3F 0xF6 0x15 0x9F 0xC5 0x30 0xF6 0x12 0x24 0xCA 0x01 0x01 0x0B 0xED 0xC1 0x11 0x0B 0x01 0x00 0xED 0xC1 0x11 0x00 0x01 0x02 
write to 0x0B ack data: 0x05 0x05 0xBD 0x31 0xEA 0xC1 0x11 
write to 0x0B ack data: 0x05 0x1F 0xC0 0x31 0x02 0x01 0x28 0xED 0xC1 0x11 0x28 0xBB 0x60 0x80 0x06 0x01 0x26 0xED 0xC1 0x11 0x26 0x24 0xCA 0x01 0xF4 0x25 0x1A 0x15 0x1A 0xF4 0x22 0x1C 0x12 
write to 0x0B ack data: 0x05 0x05 0xDD 0x31 0x1C 0xA1 0x02 
write to 0x0B ack data: 0x05 0x1F 0xE0 0x31 0xBA 0xCA 0x01 0x90 0x0E 0xC2 0xFE 0xA3 0xBA 0x20 0x22 0xEC 0x01 0x21 0xE4 0x01 0x9F 0x20 0x35 0x9F 0xE5 0x34 0x9F 0x41 0x31 0x2F 0x2D 0x9A 0x3F 
write to 0x0B ack data: 0x05 0x05 0xFD 0x31 0xA6 0x23 0xA1 
write to 0x0B ack data: 0x05 0x1F 0x00 0x32 0x04 0xB3 0x84 0x15 0x24 0x87 0x01 0x42 0x2D 0xB3 0x52 0x90 0x0C 0xD3 0x00 0x90 0x03 0xA4 0x32 0x00 0x24 0x87 0x01 0x53 0x2D 0xE4 0x54 0x2E 0x90 
write to 0x0B ack data: 0x05 0x05 0x1D 0x32 0x5B 0xD4 0x01 
write to 0x0B ack data: 0x05 0x1F 0x20 0x32 0x90 0x06 0xD4 0xFF 0x84 0x1F 0x98 0x09 0x9F 0x05 0x4C 0x60 0x40 0xF3 0xB0 0x98 0x06 0x21 0x87 0x01 0x9F 0x99 0x5F 0x64 0x01 0x21 0x87 0x01 0x9F 
write to 0x0B ack data: 0x05 0x05 0x3D 0x32 0x37 0x51 0x21 
write to 0x0B ack data: 0x05 0x1F 0x40 0x32 0xB5 0x01 0x9F 0xB2 0x65 0xA1 0x02 0x2E 0xD2 0x01 0x90 0x04 0xD2 0xFF 0x84 0x23 0x9F 0x06 0x30 0x21 0x87 0x01 0x9F 0xB2 0x51 0xA4 0x32 0x00 0xE4 
write to 0x0B ack data: 0x05 0x05 0x5D 0x32 0x80 0x2E 0x84 
write to 0x0B ack data: 0x05 0x1F 0x60 0x32 0x09 0x60 0xBF 0xF2 0xB0 0x9F 0xD7 0x4B 0x98 0x06 0x21 0x87 0x01 0x9F 0x91 0x65 0xA4 0xB9 0x03 0xA1 0x02 0x2E 0xA3 0xB3 0x20 0x2F 0x9A 0x3D 0xA2 
write to 0x0B ack data: 0x05 0x05 0x7D 0x32 0xC0 0x3F 0xA6 
write to 0x0B ack data: 0x05 0x1F 0x80 0x32 0x2C 0x9F 0xF7 0x30 0xD2 0x00 0x90 0x1F 0x60 0x02 0xF3 0xB4 0x24 0xCA 0x01 0x21 0xFF 0xFF 0x11 0x30 0xA1 0x00 0x9D 0xE7 0x08 0x20 0xA6 0x14 0xC4 
write to 0x0B ack data: 0x05 0x05 0x9D 0x32 0x01 0x21 0x87 
write to 0x0B ack data: 0x05 0x1F 0xA0 0x32 0x01 0x9F 0x81 0x52 0xA4 0xB9 0x03 0xA6 0xC2 0x9F 0xFC 0x31 0xA1 0x02 0xB3 0x84 0x1E 0xA1 0x00 0x30 0x90 0x2C 0x25 0x87 0x01 0x44 0x6D 0xF6 0x51 
write to 0x0B ack data: 0x05 0x05 0xBD 0x32 0x9F 0x1C 0x53 
write to 0x0B ack data: 0x05 0x1F 0xC0 0x32 0xE6 0x5C 0x00 0x84 0x1D 0xF6 0x52 0x21 0xB5 0x01 0x9F 0x07 0x67 0x98 0x13 0xD2 0x01 0x84 0x05 0x9F 0x1B 0x4C 0x98 0x0A 0xD2 0xFF 0x84 0x06 0x21 
write to 0x0B ack data: 0x05 0x05 0xDD 0x32 0x87 0x01 0x9F 
write to 0x0B ack data: 0x05 0x1F 0xE0 0x32 0xDB 0x64 0x24 0x97 0x02 0x01 0x00 0x24 0xCA 0x01 0xF4 0xE1 0x2A 0x88 0x02 0x11 0x2A 0x24 0x5F 0x02 0x40 0x04 0xD0 0x02 0x84 0x0B 0xE4 0xA0 0xB3 
write to 0x0B ack data: 0x05 0x05 0xFD 0x32 0x84 0x06 0x60 
write to 0x0B ack data: 0x05 0x1F 0x00 0x33 0x80 0xF3 0xB1 0x98 0x04 0x60 0x7F 0xF2 0xB1 0x9F 0xA8 0x41 0xD2 0x00 0x90 0x03 0xA4 0xB9 0x03 0x24 0x4C 0x46 0x40 0x02 0xC0 0x40 0x90 0x11 0xE4 
write to 0x0B ack data: 0x05 0x05 0x1D 0x33 0x80 0xB3 0x84 
write to 0x0B ack data: 0x05 0x1F 0x20 0x33 0x0C 0x7A 0xA1 0x00 0xB9 0xD0 0x03 0x84 0x05 0x6A 0x01 0x98 0x01 0x7A 0x9F 0x91 0x43 0xE6 0x5A 0x00 0x90 0x1F 0x25 0xCA 0x01 0x04 0x5C 0x01 0x64 
write to 0x0B ack data: 0x05 0x05 0x3D 0x33 0xE9 0xE4 0x88 
write to 0x0B ack data: 0x05 0x1F 0x40 0x33 0x14 0x02 0x5A 0x03 0x62 0xEB 0xE2 0x88 0x0C 0xEA 0xC3 0x22 0x10 0x27 0xEC 0xC1 0x9F 0x2F 0x77 0x11 0x7A 0xA1 0x02 0xB4 0xCA 0x0C 0xD0 0x08 0x84 
write to 0x0B ack data: 0x05 0x05 0x5D 0x33 0x03 0x9F 0x7E 
write to 0x0B ack data: 0x05 0x1F 0x60 0x33 0x40 0xA1 0x00 0x30 0x90 0x07 0x60 0xFB 0xF2 0xB4 0x9F 0xAB 0x34 0x60 0xFD 0xF2 0xB4 0x2F 0xA0 0x0C 0x2D 0x9A 0x3F 0xA4 0xB9 0x03 0x24 0xCA 0x01 
write to 0x0B ack data: 0x05 0x05 0x7D 0x33 0x21 0xFF 0xFF 
write to 0x0B ack data: 0x05 0x1F 0x80 0x33 0x11 0x30 0x9F 0x34 0x31 0x74 0x21 0x87 0x01 0x9F 0x81 0x52 0x72 0x9F 0xA6 0x43 0x9F 0x41 0x58 0x9F 0x91 0x43 0x9F 0x5D 0x39 0xA1 0x02 0xB4 0xC2 
write to 0x0B ack data: 0x05 0x05 0x9D 0x33 0xF2 0xE6 0x12 
write to 0x0B ack data: 0x05 0x1F 0xA0 0x33 0x09 0xA3 0xB4 0x20 0x2F 0x9A 0xF6 0x14 0x12 0x0A 0xEB 0xE2 0x94 0x02 0xF6 0x32 0x13 0x0C 0xB5 0x60 0x80 0x01 0x32 0x12 0x04 0x21 0xFF 0xFF 0x22 
write to 0x0B ack data: 0x05 0x05 0xBD 0x33 0xFF 0x7F 0x11 
write to 0x0B ack data: 0x05 0x1F 0xC0 0x33 0x00 0x12 0x02 0x31 0x22 0x80 0x3F 0x11 0x06 0x12 0x08 0x9A 0x3D 0x3E 0x3F 0xA7 0x02 0xF6 0x15 0x12 0xC0 0xA6 0x30 0xA6 0x14 0xA6 0x15 0x9C 0x85 
write to 0x0B ack data: 0x05 0x05 0xDD 0x33 0xF6 0x16 0xF6 
write to 0x0B ack data: 0x05 0x1F 0xE0 0x33 0x27 0xF7 0x00 0x00 0xF7 0x00 0x00 0x9C 0x89 0xAC 0xDA 0x00 0x94 0x18 0xBB 0x60 0x88 0x14 0xF4 0xCD 0xC0 0xF6 0x51 0xA6 0x30 0xA6 0x14 0xA6 0x15 
write to 0x0B ack data: 0x05 0x05 0xFD 0x33 0x9C 0x85 0x3F 
write to 0x0B ack data: 0x05 0x1F 0x00 0x34 0x3E 0x9C 0x7F 0xAC 0x98 0x02 0x31 0x32 0x3A 0x39 0x31 0x22 0x80 0x3F 0x9C 0x73 0xAC 0xAA 0x2F 0x2E 0x2D 0x9A 0x3D 0x3F 0xF6 0x15 0xF6 0x21 0x02 
write to 0x0B ack data: 0x05 0x05 0x1D 0x34 0x4C 0xF4 0xCA 
write to 0x0B ack data: 0x05 0x1F 0x20 0x34 0x4A 0x9F 0xCC 0x33 0x11 0x46 0x12 0x48 0x2F 0x2D 0x9A 0x3D 0x3F 0xF6 0x15 0xF6 0x21 0x02 0x4A 0x9F 0xCC 0x33 0x11 0x46 0x12 0x48 0x2F 0x2D 0x9A 
write to 0x0B ack data: 0x05 0x05 0x3D 0x34 0x3F 0xE4 0x80 
write to 0x0B ack data: 0x05 0x1F 0x40 0x34 0xAC 0x84 0x0B 0xF6 0x34 0xEA 0xC4 0xF6 0x42 0x9F 0x16 0x34 0x98 0x03 0x9F 0x2B 0x34 0x2F 0x9A 0x3F 0xA6 0x24 0xFC 0x60 0xA1 0x02 0x31 0x73 0xE9 
write to 0x0B ack data: 0x05 0x05 0x5D 0x34 0x64 0x20 0xCF 
write to 0x0B ack data: 0x05 0x1F 0x60 0x34 0x02 0xE8 0x24 0x01 0x00 0x30 0xE8 0xE1 0x8C 0x04 0x62 0xFF 0x98 0x02 0x62 0x01 0xD4 0x00 0x84 0x05 0xE4 0x52 0xAC 0x90 0x10 0xA3 0xAC 0x20 0x24 
write to 0x0B ack data: 0x05 0x05 0x7D 0x34 0xCA 0x01 0x03 
write to 0x0B ack data: 0x05 0x1F 0x80 0x34 0x22 0x02 0x1A 0x21 0xBC 0x01 0x9F 0x3D 0x34 0xFC 0x50 0x2F 0x9A 0x3F 0xF6 0x14 0x30 0xE8 0xE2 0x94 0x04 0xEB 0xE2 0x80 0x07 0xF6 0x41 0x9F 0xA6 
write to 0x0B ack data: 0x05 0x05 0x9D 0x34 0x33 0x98 0x04 
write to 0x0B ack data: 0x05 0x1F 0xA0 0x34 0x01 0x04 0x11 0x0A 0x2F 0x9A 0x60 0x01 0xF3 0xBA 0x9A 0x9A 0x3D 0x3E 0x3F 0xF6 0x15 0xFC 0x60 0x26 0xBC 0x01 0x02 0x8A 0x9F 0xA1 0x72 0x02 0x8C 
write to 0x0B ack data: 0x05 0x05 0xBD 0x34 0xF6 0x51 0xE6 
write to 0x0B ack data: 0x05 0x1F 0xC0 0x34 0x22 0x04 0xB3 0xD3 0x9F 0xA1 0x72 0x26 0xCA 0x01 0x02 0x9C 0xED 0x91 0xE9 0x91 0x9F 0xA1 0x72 0x02 0xA4 0xF6 0x51 0xE6 0x22 0x06 0xB3 0xD3 0x9F 
write to 0x0B ack data: 0x05 0x05 0xDD 0x34 0xA1 0x72 0xFC 
write to 0x0B ack data: 0x05 0x1F 0xE0 0x34 0x50 0x2F 0x2E 0x2D 0x9A 0x3F 0xFC 0x60 0x24 0xCA 0x01 0x03 0x22 0x02 0x1A 0x21 0xBC 0x01 0x9F 0x8D 0x34 0xFC 0x50 0x24 0x4C 0x46 0x40 0x01 0xC0 
write to 0x0B ack data: 0x05 0x05 0xFD 0x34 0x10 0x90 0x08 
write to 0x0B ack data: 0x05 0x1F 0x00 0x35 0x21 0x21 0x03 0x9F 0xAC 0x34 0x98 0x16 0x66 0x04 0x22 0xE4 0x01 0x21 0x21 0x03 0x9F 0x79 0x72 0x66 0x04 0x22 0xEC 0x01 0x21 0x25 0x03 0x9F 0x79 
write to 0x0B ack data: 0x05 0x05 0x1D 0x35 0x72 0x2F 0x9A 
write to 0x0B ack data: 0x05 0x1F 0x20 0x35 0x3D 0x3F 0xF6 0x15 0xF6 0x24 0xFC 0x60 0x03 0x00 0x02 0x40 0x21 0xBC 0x01 0x9F 0xA6 0x33 0xA4 0xAC 0xFF 0x62 0x02 0x9F 0x53 0x34 0xFC 0x50 0x9F 
write to 0x0B ack data: 0x05 0x05 0x3D 0x35 0xE5 0x34 0x2F 
write to 0x0B ack data: 0x05 0x1F 0x40 0x35 0x2D 0x9A 0x3D 0x3F 0xF6 0x15 0x00 0x48 0x38 0x00 0x46 0x38 0x01 0xC8 0x02 0xCA 0x9C 0x79 0xAC 0x3A 0x39 0xF6 0x51 0x9F 0x5B 0x7E 0x02 0x4C 0xAC 
write to 0x0B ack data: 0x05 0x05 0x5D 0x35 0x01 0x44 0xEA 
write to 0x0B ack data: 0x05 0x1F 0x60 0x35 0x51 0x94 0x02 0x12 0x44 0x2F 0x2D 0x9A 0xA2 0xA0 0x3F 0xA7 0x04 0x11 0xC0 0x12 0xC2 0xA6 0x6A 0x72 0x9F 0x53 0x34 0xFC 0x60 0x01 0xC0 0x02 0xC2 
write to 0x0B ack data: 0x05 0x05 0x7D 0x35 0x3A 0x39 0xA6 
write to 0x0B ack data: 0x05 0x1F 0x80 0x35 0xA4 0x21 0xBC 0x01 0x9F 0x42 0x35 0xFC 0x50 0xAC 0xAC 0x2F 0xA0 0x0A 0x9A 0x24 0x4C 0x46 0x42 0x04 0xD2 0x03 0x8C 0x01 0x72 0x9A 0x24 0xCA 0x01 
write to 0x0B ack data: 0x05 0x05 0x9D 0x35 0x11 0x34 0x9A 
write to 0x0B ack data: 0x05 0x1F 0xA0 0x35 0x21 0x16 0x02 0x9A 0x24 0xDE 0x45 0x02 0x00 0xEA 0xE1 0x88 0x02 0xF6 0x21 0x24 0xE0 0x45 0x02 0x00 0xEA 0xE1 0x94 0x02 0xF6 0x21 0x9A 0x3F 0x24 
write to 0x0B ack data: 0x05 0x05 0xBD 0x35 0xCA 0x01 0x01 
write to 0x0B ack data: 0x05 0x1F 0xC0 0x35 0x1A 0x30 0xE8 0xE1 0x8C 0x03 0x31 0x98 0x05 0x02 0x22 0x9F 0x7E 0x73 0x2F 0x9A 0x3F 0xEA 0xB3 0x22 0x10 0x0E 0x9F 0x2F 0x77 0x2F 0x9A 0x3D 0x3F 
write to 0x0B ack data: 0x05 0x05 0xDD 0x35 0x77 0xEB 0x64 
write to 0x0B ack data: 0x05 0x1F 0xE0 0x35 0xE9 0x24 0x05 0x04 0x23 0x00 0x04 0x01 0x08 0x9F 0x2F 0x77 0xED 0x21 0xB3 0x60 0x80 0x01 0x31 0x2F 0x2D 0x9A 0x3D 0x3F 0xF6 0x14 0x05 0x00 0x23 
write to 0x0B ack data: 0x05 0x05 0xFD 0x35 0x00 0x04 0x01 
write to 0x0B ack data: 0x05 0x1F 0x00 0x36 0x02 0x9F 0x2F 0x77 0xED 0x21 0xB3 0x60 0x80 0x01 0x31 0x2F 0x2D 0x9A 0x3D 0x3F 0x25 0xCA 0x01 0xE0 0x60 0x5D 0x80 0x07 0x24 0xBE 0x45 0x01 0x00 
write to 0x0B ack data: 0x05 0x05 0x1D 0x36 0x98 0x27 0xE4 
write to 0x0B ack data: 0x05 0x1F 0x20 0x36 0x80 0x2E 0x84 0x1D 0x24 0x4C 0x46 0x40 0x02 0xC0 0x40 0x90 0x07 0x01 0x7A 0x30 0xE8 0xE1 0x8C 0x12 0x24 0x06 0x42 0x02 0x0F 0x21 0x26 0x02 0x9F 
write to 0x0B ack data: 0x05 0x05 0x3D 0x36 0xF6 0x35 0x98 
write to 0x0B ack data: 0x05 0x1F 0x40 0x36 0x05 0x24 0xBD 0x02 0x01 0x08 0x2F 0x2D 0x9A 0x3D 0x3F 0xF6 0x25 0x23 0x00 0x04 0x9F 0x2F 0x77 0x23 0x10 0x27 0xF6 0x52 0x9F 0x2F 0x77 0x2F 0x2D 
write to 0x0B ack data: 0x05 0x05 0x5D 0x36 0x9A 0x3D 0x3E 
write to 0x0B ack data: 0x05 0x1F 0x60 0x36 0x3F 0xA7 0x01 0xF6 0x16 0x31 0x11 0x82 0x9F 0x6D 0x02 0x52 0xC0 0x98 0x2A 0xE0 0x83 0xC0 0x53 0xC0 0xA6 0x3E 0x7F 0xEF 0x65 0xEE 0x25 0x01 0x48 
write to 0x0B ack data: 0x05 0x05 0x7D 0x36 0xA6 0x30 0xA6 
write to 0x0B ack data: 0x05 0x1F 0x80 0x36 0x14 0xA6 0x15 0x9C 0x85 0x03 0xC7 0x04 0xC9 0x3C 0x3B 0x9C 0x79 0xAC 0x9D 0xFF 0x7E 0x11 0x48 0x02 0x82 0xE9 0x22 0x12 0x82 0x47 0xC0 0xD7 0x00 
write to 0x0B ack data: 0x05 0x05 0x9D 0x36 0x87 0xD0 0xA9 
write to 0x0B ack data: 0x05 0x1F 0xA0 0x36 0x2F 0x2E 0x2D 0x9A 0x3D 0x3F 0xF6 0x15 0x9F 0x6D 0x02 0xA6 0x24 0x24 0xBE 0x45 0x01 0x00 0x75 0x9C 0x7B 0x24 0xC1 0x45 0xF4 0x21 0x00 0xE9 0xE5 
write to 0x0B ack data: 0x05 0x05 0xBD 0x36 0x80 0x0C 0x9F 
write to 0x0B ack data: 0x05 0x1F 0xC0 0x36 0xBB 0x35 0x73 0x24 0xDD 0x45 0xE0 0x52 0x00 0x8C 0x02 0x63 0x01 0xA6 0x32 0x2F 0x2D 0x9A 0x3D 0xA2 0xC0 0x3F 0xA7 0x06 0x11 0xC2 0x12 0xC4 0x24 
write to 0x0B ack data: 0x05 0x05 0xDD 0x36 0x06 0x42 0x42 
write to 0x0B ack data: 0x05 0x1F 0xE0 0x36 0x08 0xCA 0x03 0xD0 0x02 0x84 0xAB 0x62 0x03 0xE7 0x65 0x20 0x20 0x0C 0x02 0xE8 0x25 0x42 0x42 0xB2 0x93 0x53 0x42 0xD2 0x00 0x84 0x07 0x21 0x10 
write to 0x0B ack data: 0x05 0x05 0xFD 0x36 0x27 0x11 0x40 
write to 0x0B ack data: 0x05 0x1F 0x00 0x37 0x98 0x0B 0x24 0x80 0x45 0xE0 0x53 0x0D 0x80 0x03 0x73 0x53 0x42 0x04 0x40 0x14 0xC0 0x03 0xC4 0x04 0xC2 0x02 0x00 0x01 0xC0 0x9F 0x2F 0x77 0x11 
write to 0x0B ack data: 0x05 0x05 0x1D 0x37 0x40 0x04 0xC2 
write to 0x0B ack data: 0x05 0x1F 0x20 0x37 0xE0 0x60 0x01 0x80 0x0A 0x64 0x06 0x21 0x0C 0x02 0x9C 0x68 0x7A 0x98 0x65 0x22 0xE8 0x03 0x9C 0x7B 0xF6 0x12 0x24 0x80 0x45 0x46 0x0B 0xA6 0x62 
write to 0x0B ack data: 0x05 0x05 0x3D 0x37 0x73 0xE9 0x52 
write to 0x0B ack data: 0x05 0x1F 0x40 0x37 0x8C 0x08 0x42 0x0C 0xF6 0x10 0xEA 0x50 0x94 0x48 0x24 0x4C 0x46 0x40 0x00 0xC0 0x04 0x84 0x03 0x7A 0x98 0x33 0x24 0x80 0x45 0x4C 0x0C 0xA6 0xC2 
write to 0x0B ack data: 0x05 0x05 0x5D 0x37 0x73 0xE9 0x52 
write to 0x0B ack data: 0x05 0x1F 0x60 0x37 0x80 0x02 0xA6 0x6C 0x01 0xC0 0x22 0xE8 0x03 0x9C 0x7B 0xF6 0x13 0x02 0xC4 0xA6 0xC2 0x73 0x9F 0x2F 0x77 0x04 0xC2 0x11 0x00 0xA6 0xC2 0x73 0x22 
write to 0x0B ack data: 0x05 0x05 0x7D 0x37 0xE8 0x03 0x9C 
write to 0x0B ack data: 0x05 0x1F 0x80 0x37 0x75 0x11 0x40 0x60 0x04 0xF3 0xB1 0x6A 0x01 0x64 0x06 0x21 0x0C 0x02 0x9C 0x68 0x98 0x02 0x6A 0x01 0xA6 0xA2 0xAE 0x2F 0xA0 0x0C 0x2D 0x9A 0x3D 
write to 0x0B ack data: 0x05 0x05 0x9D 0x37 0x3E 0x3F 0xA7 
write to 0x0B ack data: 0x05 0x1F 0xA0 0x37 0x04 0x11 0xC2 0xF6 0x36 0x40 0xCA 0x90 0x09 0x24 0x27 0x47 0x01 0x00 0x03 0x02 0x98 0x07 0x24 0x2A 0x02 0x01 0x1A 0x03 0x1C 0x13 0xC0 0x9C 0x76 
write to 0x0B ack data: 0x05 0x05 0xBD 0x37 0x66 0x08 0x9C 
write to 0x0B ack data: 0x05 0x1F 0xC0 0x37 0x81 0x24 0x2A 0x02 0xF6 0x15 0xF4 0x25 0x1E 0xF6 0x61 0x32 0x9C 0x86 0xF6 0x16 0xF6 0x27 0xE6 0x4F 0x80 0x01 0xC0 0xA6 0x30 0xA6 0x14 0xA6 0x15 
write to 0x0B ack data: 0x05 0x05 0xDD 0x37 0x9C 0x85 0x3A 
write to 0x0B ack data: 0x05 0x1F 0xE0 0x37 0x39 0xF6 0x61 0xF6 0x72 0x9C 0x7F 0xAC 0x9C 0x6F 0xF6 0x16 0xF6 0x27 0x01 0xC2 0xED 0xC1 0x11 0xC2 0xA6 0x30 0xA6 0x14 0xA6 0x15 0x9C 0x85 0x3F 
write to 0x0B ack data: 0x05 0x05 0xFD 0x37 0x3E 0x9C 0x79 
write to 0x0B ack data: 0x05 0x1F 0x00 0x38 0xAC 0x9D 0xFF 0x7E 0xED 0x21 0xAC 0x2F 0x2E 0x2D 0x9A 0x3D 0xA2 0xC0 0x3F 0xA7 0x06 0x11 0xC2 0x12 0xC4 0x9F 0x6D 0x02 0xA6 0x2C 0x21 0x00 0x80 
write to 0x0B ack data: 0x05 0x05 0x1D 0x38 0x11 0xC0 0x98 
write to 0x0B ack data: 0x05 0x1F 0x20 0x38 0x2A 0xBC 0x8C 0xA6 0xC6 0x24 0xCA 0x01 0x02 0x00 0x21 0x16 0x02 0x9F 0xE7 0x47 0xF6 0x15 0xA6 0xC6 0x02 0xC4 0x01 0xC2 0x9F 0xE7 0x47 0xF6 0x52 
write to 0x0B ack data: 0x05 0x05 0x3D 0x38 0xE9 0xC2 0xF4 
write to 0x0B ack data: 0x05 0x1F 0x40 0x38 0xE2 0xC0 0x94 0x07 0x19 0xAD 0xA3 0xAF 0xC0 0x12 0xC0 0xE6 0x5C 0x00 0x87 0xD1 0xAE 0x2F 0xA0 0x0C 0x2D 0x9A 0x3D 0x3E 0x3F 0xA7 0x0B 0x11 0xC3 
write to 0x0B ack data: 0x05 0x05 0x5D 0x38 0x12 0xC5 0x13 
write to 0x0B ack data: 0x05 0x1F 0x60 0x38 0xC7 0x64 0x04 0x01 0xD1 0x9C 0x68 0x9F 0x6D 0x02 0x52 0xC0 0x98 0x6F 0xE0 0x82 0xC0 0x52 0xC0 0xA6 0x26 0x02 0xC5 0x01 0xC3 0x9F 0xE7 0x47 0xF6 
write to 0x0B ack data: 0x05 0x05 0x7D 0x38 0x15 0x43 0xC0 
write to 0x0B ack data: 0x05 0x1F 0x80 0x38 0x53 0xC1 0x74 0x54 0xC2 0x02 0xC7 0xF6 0x51 0x9F 0x1C 0x47 0xF4 0x66 0xC1 0x04 0xD1 0xEE 0x24 0x14 0xC9 0x11 0x04 0x04 0xD1 0x02 0x00 0xE9 0x22 
write to 0x0B ack data: 0x05 0x05 0x9D 0x38 0x12 0x00 0x77 
write to 0x0B ack data: 0x05 0x1F 0xA0 0x38 0x46 0xC0 0x02 0xC7 0xF6 0x51 0x9F 0x08 0x4A 0xF6 0x15 0x04 0xC9 0x11 0x08 0x49 0xD3 0xE6 0x59 0x00 0x90 0x18 0x20 0x5F 0x02 0xE8 0x26 0x01 0x80 
write to 0x0B ack data: 0x05 0x05 0xBD 0x38 0x9F 0xA4 0x35 
write to 0x0B ack data: 0x05 0x1F 0xC0 0x38 0x23 0xE8 0x03 0xF6 0x12 0xF6 0x51 0x9F 0x2F 0x77 0x05 0xC9 0x11 0x48 0xF4 0x64 0xC1 0xF4 0x24 0xD1 0x05 0xD1 0x00 0x42 0xF4 0x20 0x08 0x10 0x42 
write to 0x0B ack data: 0x05 0x05 0xDD 0x38 0x4B 0xC0 0xE6 
write to 0x0B ack data: 0x05 0x1F 0xE0 0x38 0x5B 0x00 0x87 0x8A 0xA5 0x0B 0x2F 0x2E 0x2D 0x9A 0xA2 0xB0 0x3E 0x3F 0xA7 0x0E 0x11 0xC6 0x12 0xC8 0x13 0xCA 0x9F 0x6D 0x02 0xA6 0x2B 0x31 0x11 
write to 0x0B ack data: 0x05 0x05 0xFD 0x38 0xC2 0x36 0x98 
write to 0x0B ack data: 0x05 0x1F 0x00 0x39 0x3F 0xBB 0x8B 0xA6 0xB6 0x02 0xC8 0x01 0xC6 0x9F 0xE7 0x47 0x11 0xC0 0x02 0xCA 0x9F 0x1C 0x47 0xF4 0x21 0xC2 0x11 0xC2 0x5B 0xCC 0x73 0x53 0xCD 
write to 0x0B ack data: 0x05 0x05 0x1D 0x39 0xF4 0x64 0xCC 
write to 0x0B ack data: 0x05 0x1F 0x20 0x39 0x20 0x5F 0x02 0xE8 0x24 0x01 0x00 0x9F 0xA4 0x35 0x11 0xC4 0x77 0xA6 0xB6 0x02 0xCA 0x01 0xC0 0x9F 0x08 0x4A 0x23 0xE8 0x03 0x02 0xC4 0x9F 0x2F 
write to 0x0B ack data: 0x05 0x05 0x3D 0x39 0x77 0xE9 0x26 
write to 0x0B ack data: 0x05 0x1F 0x40 0x39 0xE6 0x5B 0x00 0x87 0xBC 0x24 0x00 0x42 0xF4 0x26 0x04 0xF4 0x26 0x02 0x01 0xC2 0x04 0xD3 0x11 0x00 0x16 0x02 0xA5 0x0E 0x2F 0x2E 0xA0 0x0B 0x9A 
write to 0x0B ack data: 0x05 0x05 0x5D 0x39 0x3F 0xF7 0x26 
write to 0x0B ack data: 0x05 0x1F 0x60 0x39 0x02 0x24 0x97 0x02 0x03 0x00 0x24 0xCA 0x01 0x02 0x00 0x21 0x16 0x02 0x9F 0xEA 0x38 0xAA 0x2F 0x9A 0x3D 0xA2 0xC0 0x3F 0xA7 0x04 0xA6 0x3C 0xD2 
write to 0x0B ack data: 0x05 0x05 0x7D 0x39 0x00 0x84 0x09 
write to 0x0B ack data: 0x05 0x1F 0x80 0x39 0x24 0x06 0x42 0x01 0x0F 0x02 0x11 0x98 0x6C 0xD2 0x01 0x84 0x08 0x74 0xF6 0x81 0x9F 0xC4 0x58 0x98 0x6C 0xD2 0x02 0x84 0x12 0x25 0x97 0x02 0x02 
write to 0x0B ack data: 0x05 0x05 0x9D 0x39 0x42 0x01 0x44 
write to 0x0B ack data: 0x05 0x1F 0xA0 0x39 0x9F 0xD2 0x73 0x11 0xC2 0x02 0x44 0x12 0xC0 0x98 0x56 0xD2 0x03 0x84 0x10 0x25 0x97 0x02 0x02 0x42 0x01 0x46 0x9F 0xD2 0x73 0x11 0xC2 0x01 0x46 
write to 0x0B ack data: 0x05 0x05 0xBD 0x39 0x98 0x27 0xD2 
write to 0x0B ack data: 0x05 0x1F 0xC0 0x39 0x04 0x84 0x17 0x24 0x29 0x46 0x01 0x00 0x22 0xFB 0xFF 0x9C 0x7B 0x11 0xC0 0x01 0x02 0x22 0xFB 0xFF 0x9C 0x7B 0x11 0xC2 0x98 0x27 0xD2 0x05 0x84 
write to 0x0B ack data: 0x05 0x05 0xDD 0x39 0x0C 0x32 0x12 
write to 0x0B ack data: 0x05 0x1F 0xE0 0x39 0xC2 0x24 0xCA 0x01 0x01 0x34 0x11 0xC0 0x98 0x17 0xD2 0x06 0x84 0x0D 0x24 0x4C 0x46 0x01 0x06 0x02 0x08 0x11 0xC0 0x12 0xC2 0x98 0x06 0x74 0xF6 
write to 0x0B ack data: 0x05 0x05 0xFD 0x39 0x81 0x9F 0x95 
write to 0x0B ack data: 0x05 0x1F 0x00 0x3A 0x58 0xE6 0x5C 0x00 0x90 0x04 0x01 0xC2 0x98 0x02 0x01 0xC0 0xAC 0x2F 0xA0 0x0C 0x2D 0x9A 0x3D 0x3F 0xF6 0x15 0x24 0xBE 0x45 0x01 0x00 0x11 0x46 
write to 0x0B ack data: 0x05 0x05 0x1D 0x3A 0x24 0xC3 0x45 
write to 0x0B ack data: 0x05 0x1F 0x20 0x3A 0x03 0x00 0x13 0x48 0xD5 0x00 0x90 0x08 0x24 0xE6 0x45 0xF4 0x21 0x00 0x98 0x0A 0xD4 0x00 0x90 0x0F 0x24 0x4A 0x02 0xF4 0x21 0x0C 0x11 0x46 0x24 
write to 0x0B ack data: 0x05 0x05 0x3D 0x3A 0x4C 0x46 0x42 
write to 0x0B ack data: 0x05 0x1F 0x40 0x3A 0x04 0x98 0x0B 0x24 0x06 0x42 0xF4 0x21 0x13 0x11 0x46 0x9F 0x8F 0x35 0xA1 0x00 0xB2 0xE7 0x08 0x20 0xA6 0x13 0xC3 0x01 0x9F 0x74 0x39 0x11 0x44 
write to 0x0B ack data: 0x05 0x05 0x5D 0x3A 0x25 0xCA 0x01 
write to 0x0B ack data: 0x05 0x1F 0x60 0x3A 0x24 0x2A 0x02 0x01 0x6A 0x11 0x1E 0x2F 0x2D 0x9A 0x3D 0x3E 0x3F 0xA7 0x0A 0xF6 0x15 0xF6 0x24 0x02 0x04 0xB5 0x60 0x88 0x03 0x31 0x98 0xD2 0xA1 
write to 0x0B ack data: 0x05 0x05 0x7D 0x3A 0x00 0xB2 0xC0 
write to 0x0B ack data: 0x05 0x1F 0x80 0x3A 0x08 0x90 0xC4 0x01 0x42 0x11 0xC8 0x30 0xE8 0xE1 0x94 0xB1 0x03 0x40 0xA6 0x70 0xA6 0x18 0xA6 0x19 0x13 0xC4 0x14 0xC6 0x9C 0x76 0x9C 0x85 0xF6 
write to 0x0B ack data: 0x05 0x05 0x9D 0x3A 0x15 0xF6 0x26 
write to 0x0B ack data: 0x05 0x1F 0xA0 0x3A 0x01 0xC4 0x02 0xC6 0x3A 0x39 0x01 0xC8 0x02 0xCA 0x9C 0x78 0xAC 0x9C 0x85 0x3A 0x39 0xF6 0x51 0xF6 0x62 0x9C 0x7F 0xAC 0xF7 0x1C 0x42 0xF7 0x00 
write to 0x0B ack data: 0x05 0x05 0xBD 0x3A 0x40 0x9C 0x79 
write to 0x0B ack data: 0x05 0x1F 0xC0 0x3A 0xAC 0xF6 0x15 0xF6 0x26 0xF7 0x80 0xBF 0xF7 0x00 0x00 0x9C 0x89 0xAC 0xDA 0x00 0x94 0x79 0xF7 0x80 0x3F 0xF7 0x00 0x00 0xF6 0x51 0xF6 0x62 0x9C 
write to 0x0B ack data: 0x05 0x05 0xDD 0x3A 0x72 0xAC 0x9C 
write to 0x0B ack data: 0x05 0x1F 0xE0 0x3A 0x6E 0x11 0xC0 0x12 0xC2 0x66 0x09 0x01 0xC4 0x02 0xC6 0x9C 0x80 0x9C 0x85 0xF6 0x15 0xF6 0x26 0x01 0xC8 0xA6 0x30 0xA6 0x14 0xA6 0x15 0x9C 0x85 
write to 0x0B ack data: 0x05 0x05 0xFD 0x3A 0x3A 0x39 0xF6 
write to 0x0B ack data: 0x05 0x1F 0x00 0x3B 0x51 0xF6 0x62 0x9C 0x7F 0xAC 0xF6 0x15 0xF6 0x26 0x02 0xC0 0x03 0xC2 0x3B 0x3A 0x31 0x22 0x80 0x3F 0x9C 0x73 0xAC 0x3A 0x39 0xF6 0x51 0xF6 0x62 
write to 0x0B ack data: 0x05 0x05 0x1D 0x3B 0x9C 0x79 0xAC 
write to 0x0B ack data: 0x05 0x1F 0x20 0x3B 0xF6 0x15 0xF6 0x26 0xF7 0xFF 0x46 0xF7 0x00 0xFE 0x9C 0x89 0xAC 0xDA 0x00 0x88 0x1A 0xF6 0x51 0xF6 0x62 0xE6 0x45 0x80 0x9D 0xFF 0x7E 0x98 0x11 
write to 0x0B ack data: 0x05 0x05 0x3D 0x3B 0x03 0x40 0x21 
write to 0x0B ack data: 0x05 0x1F 0x40 0x3B 0x10 0x27 0x9F 0x2F 0x77 0x98 0x07 0xF6 0x21 0x98 0x03 0x21 0x01 0x80 0xA5 0x0A 0x2F 0x2E 0x2D 0x9A 0x3D 0x3E 0x3F 0xA7 0x3B 0x11 0xF3 0x12 0xF5 
write to 0x0B ack data: 0x05 0x05 0x5D 0x3B 0x13 0xF7 0x64 
write to 0x0B ack data: 0x05 0x1F 0x60 0x3B 0x09 0xF6 0x81 0x9C 0x68 0x24 0x06 0x42 0x02 0x04 0x24 0xC5 0x45 0x42 0x00 0x73 0x9F 0xC9 0x73 0x11 0xE1 0x04 0xF3 0x04 0x00 0x14 0xE3 0x49 0xF8 
write to 0x0B ack data: 0x05 0x05 0x7D 0x3B 0xA2 0x90 0xF6 
write to 0x0B ack data: 0x05 0x1F 0x80 0x3B 0x81 0xE6 0x22 0x0A 0xB3 0xD3 0x39 0x03 0xF8 0x02 0xE6 0x06 0xF6 0x01 0x8A 0x9F 0x56 0x38 0x25 0xCA 0x01 0x44 0xFA 0x01 0x70 0x9F 0x59 0x49 0xF6 
write to 0x0B ack data: 0x05 0x05 0x9D 0x3B 0x17 0xAB 0x4D 
write to 0x0B ack data: 0x05 0x1F 0xA0 0x3B 0xF7 0xE6 0x5D 0x00 0x84 0x34 0xE4 0xA0 0xB3 0x84 0x2F 0xE9 0x61 0x11 0xC5 0x49 0x6C 0x47 0x6D 0x48 0x6E 0x46 0x6F 0x32 0xB6 0x55 0x8C 0x18 0xB6 
write to 0x0B ack data: 0x05 0x05 0xBD 0x3B 0x55 0x84 0x1A 
write to 0x0B ack data: 0x05 0x1F 0xC0 0x3B 0xB8 0x54 0x8C 0x10 0xB8 0x54 0x84 0x12 0xB7 0x53 0x8C 0x08 0xB7 0x53 0x84 0x0A 0xB9 0x52 0x94 0x06 0xA6 0x92 0xA6 0x73 0x11 0xC5 0x02 0xC5 0xEF 
write to 0x0B ack data: 0x05 0x05 0xDD 0x3B 0x61 0xF6 0x10 
write to 0x0B ack data: 0x05 0x1F 0xE0 0x3B 0xEA 0x50 0x94 0x32 0xF6 0x21 0x32 0x9C 0x86 0xF6 0x15 0xF6 0x26 0xE6 0x4D 0x80 0xF6 0x71 0x32 0x9C 0x86 0x3A 0x39 0xF6 0x51 0xF6 0x62 0x9C 0x7F 
write to 0x0B ack data: 0x05 0x05 0xFD 0x3B 0xAC 0x9C 0x6F 
write to 0x0B ack data: 0x05 0x1F 0x00 0x3C 0x3A 0x39 0x31 0x22 0x80 0x3F 0x9C 0x73 0xAC 0x3A 0x39 0xF6 0x81 0xE6 0x22 0x0D 0xB3 0xD3 0x9F 0x5E 0x36 0xAC 0x24 0x00 0x42 0x01 0x02 0xF4 0x21 
write to 0x0B ack data: 0x05 0x05 0x1D 0x3C 0xCB 0xF4 0x21 
write to 0x0B ack data: 0x05 0x1F 0x20 0x3C 0x04 0x11 0xDD 0x11 0xCB 0x02 0xF3 0xF6 0x81 0xE6 0x22 0x09 0xB3 0xD3 0x9F 0x6A 0x3A 0x11 0xED 0x20 0x01 0x80 0xE9 0xC0 0x84 0x03 0x9B 0x3C 0x3F 
write to 0x0B ack data: 0x05 0x05 0x3D 0x3C 0x04 0xF3 0x01 
write to 0x0B ack data: 0x05 0x1F 0x40 0x3C 0x00 0xF4 0xE1 0x02 0x80 0x03 0x9B 0x3C 0x3F 0x9F 0x6D 0x02 0xA6 0x2A 0x36 0x16 0xE9 0x21 0xFF 0x7F 0x11 0xE7 0xF6 0x86 0x20 0x09 0x00 0xE8 0x26 
write to 0x0B ack data: 0x05 0x05 0x5D 0x3C 0x98 0x19 0xBA 
write to 0x0B ack data: 0x05 0x1F 0x60 0x3C 0x8A 0xA6 0xA6 0x02 0xED 0xF6 0x61 0x9F 0xDB 0x35 0x02 0xE7 0xE9 0xE2 0x94 0x02 0x11 0xE7 0x04 0xE9 0xE9 0x24 0x14 0xE9 0xE6 0x5A 0x00 0x87 0xE2 
write to 0x0B ack data: 0x05 0x05 0x7D 0x3C 0x01 0xE9 0x06 
write to 0x0B ack data: 0x05 0x1F 0x80 0x3C 0xF3 0xF4 0xE1 0x86 0x8C 0x03 0x9B 0x3C 0x3F 0x24 0x4C 0x46 0x43 0x01 0xC3 0x02 0x53 0xF2 0xD3 0x00 0x90 0x0A 0x02 0xE7 0xF4 0xE2 0x88 0x8C 0x03 
write to 0x0B ack data: 0x05 0x05 0x9D 0x3C 0x9B 0x3C 0x3F 
write to 0x0B ack data: 0x05 0x1F 0xA0 0x3C 0x04 0xF5 0x14 0xDB 0x79 0x59 0xEF 0x4C 0xEF 0xE6 0x5C 0x00 0x84 0x6B 0x24 0xC1 0x45 0x04 0x00 0x14 0xD7 0x9F 0x6D 0x02 0x26 0xBE 0x45 0x07 0x80 
write to 0x0B ack data: 0x05 0x05 0xBD 0x3C 0x24 0xCC 0x45 
write to 0x0B ack data: 0x05 0x1F 0xC0 0x3C 0x44 0x00 0x43 0xC0 0xB3 0x54 0x8C 0x04 0x68 0x01 0x98 0x03 0xE5 0xC8 0x34 0x06 0xF3 0x05 0x82 0xF4 0xCD 0xE3 0x73 0x02 0xD7 0x9C 0x75 0xF6 0x72 
write to 0x0B ack data: 0x05 0x05 0xDD 0x3C 0xE9 0x22 0x01 
write to 0x0B ack data: 0x05 0x1F 0xE0 0x3C 0xE9 0xEA 0xE1 0x80 0x10 0xF6 0x51 0x02 0xE1 0x9C 0x7B 0x58 0xF9 0x74 0x54 0xFA 0xF4 0x51 0xF9 0x80 0x24 0x58 0xF0 0x75 0x55 0xF1 0xED 0x81 0xF4 
write to 0x0B ack data: 0x05 0x05 0xFD 0x3C 0x21 0xF0 0x02 
write to 0x0B ack data: 0x05 0x1F 0x00 0x3D 0xF0 0x9C 0x7B 0x11 0xE1 0x30 0xE8 0xE1 0x8C 0x0B 0x68 0x01 0x58 0xEF 0x26 0x01 0x00 0x16 0xE1 0x98 0x04 0x6D 0x01 0x5D 0xEF 0x01 0xE1 0xF4 0x21 
write to 0x0B ack data: 0x05 0x05 0x1D 0x3D 0xE3 0x11 0xDF 
write to 0x0B ack data: 0x05 0x1F 0x20 0x3D 0x04 0xF3 0x01 0x02 0x06 0xDF 0xE9 0xE6 0x94 0x02 0x11 0xDF 0x01 0xDF 0xF4 0xC9 0xE3 0x11 0xE1 0xE0 0x92 0xC0 0x52 0xC0 0x02 0xED 0x01 0xE1 0x9F 
write to 0x0B ack data: 0x05 0x05 0x3D 0x3D 0xD0 0x35 0x11 
write to 0x0B ack data: 0x05 0x1F 0x40 0x3D 0xD9 0x02 0xED 0x01 0xDD 0x9F 0x49 0x36 0x24 0x41 0x00 0xF6 0x80 0xE8 0x24 0x49 0x00 0xA2 0x90 0x03 0xDA 0xF6 0x12 0x01 0xDC 0x9F 0x9C 0x37 0x11 
write to 0x0B ack data: 0x05 0x05 0x5D 0x3D 0xD6 0x4C 0xF9 
write to 0x0B ack data: 0x05 0x1F 0x60 0x3D 0xA2 0xC0 0x21 0x0B 0x00 0xF6 0x80 0xE8 0x21 0x39 0x03 0xD9 0x02 0xE3 0x04 0xF7 0x01 0x0A 0x9F 0x56 0x38 0x44 0xFB 0x26 0xCA 0x01 0x01 0xB0 0x9F 
write to 0x0B ack data: 0x05 0x05 0x7D 0x3D 0x59 0x49 0xF6 
write to 0x0B ack data: 0x05 0x1F 0x80 0x3D 0x17 0x02 0xC9 0xE9 0x61 0xAC 0xF6 0x10 0xEA 0x50 0x94 0x35 0xF4 0x22 0xD9 0xF6 0x21 0x32 0x9C 0x86 0xF6 0x15 0xF6 0x26 0xE6 0x4D 0x80 0xF6 0x71 
write to 0x0B ack data: 0x05 0x05 0x9D 0x3D 0x32 0x9C 0x86 
write to 0x0B ack data: 0x05 0x1F 0xA0 0x3D 0x3A 0x39 0xF6 0x51 0xF6 0x62 0x9C 0x7F 0xAC 0x9C 0x6F 0x3A 0x39 0x31 0x22 0x80 0x3F 0x9C 0x73 0xAC 0x3A 0x39 0xF6 0x81 0xE6 0x22 0x0D 0xB3 0xD3 
write to 0x0B ack data: 0x05 0x05 0xBD 0x3D 0x9F 0x5E 0x36 
write to 0x0B ack data: 0x05 0x1F 0xC0 0x3D 0xAC 0x24 0x00 0x42 0x01 0x02 0xF4 0x21 0xCB 0xF4 0x21 0x04 0x11 0xCB 0x02 0xF3 0xF6 0x81 0xE6 0x22 0x09 0xB3 0xD3 0x9F 0x6A 0x3A 0x11 0xEB 0x9F 
write to 0x0B ack data: 0x05 0x05 0xDD 0x3D 0x6D 0x02 0xA6 
write to 0x0B ack data: 0x05 0x1F 0xE0 0x3D 0x2C 0x35 0x21 0xFF 0x7F 0x11 0xE5 0x98 0x1A 0xBC 0x8C 0xA6 0xC6 0x02 0xEB 0xF6 0x81 0xE6 0x22 0x09 0xB3 0xD3 0x9F 0xDB 0x35 0x02 0xE5 0xE9 0xE2 
write to 0x0B ack data: 0x05 0x05 0xFD 0x3D 0x94 0x02 0x11 
write to 0x0B ack data: 0x05 0x1F 0x00 0x3E 0xE5 0xE9 0x25 0xE6 0x5C 0x00 0x87 0xE1 0xF6 0x53 0xF4 0xCB 0xE9 0x13 0xC7 0x20 0x01 0x80 0xF4 0xC8 0xEB 0x90 0x1E 0x01 0xE9 0xED 0xC1 0xB3 0x60 
write to 0x0B ack data: 0x05 0x05 0x1D 0x3E 0x80 0x02 0xE9 
write to 0x0B ack data: 0x05 0x1F 0x20 0x3E 0xB1 0x20 0xFF 0x07 0xE8 0xE1 0x8C 0x0D 0xE9 0x61 0xE9 0x61 0xE9 0x61 0xE9 0x61 0xF4 0xE1 0xE9 0x94 0x19 0x45 0xEF 0xD5 0x00 0x84 0x13 0x04 0xE1 
write to 0x0B ack data: 0x05 0x05 0x3D 0x3E 0x20 0x01 0x00 
write to 0x0B ack data: 0x05 0x1F 0x40 0x3E 0xE8 0xE4 0x94 0x0A 0xE5 0x79 0x90 0xB8 0xE8 0x14 0xE1 0x9B 0xAE 0x3C 0x02 0xC5 0xF4 0xA1 0xD9 0xE9 0x52 0x94 0x07 0x26 0xFF 0xFF 0x16 0xC5 0x98 
write to 0x0B ack data: 0x05 0x05 0x5D 0x3E 0x05 0xF4 0x22 
write to 0x0B ack data: 0x05 0x1F 0x60 0x3E 0xD9 0x12 0xC5 0x20 0x01 0x80 0xF4 0xC8 0xEB 0x84 0x0B 0x06 0xE3 0x04 0xF3 0xF4 0xCE 0x00 0x16 0x02 0x98 0x69 0x04 0xF3 0x01 0x06 0xE9 0xE5 0x8C 
write to 0x0B ack data: 0x05 0x05 0x7D 0x3E 0x1C 0x02 0xE1 
write to 0x0B ack data: 0x05 0x1F 0x80 0x3E 0xF4 0xC9 0xE9 0x9F 0x2F 0x77 0xF6 0x12 0x06 0xE3 0xE9 0x26 0x04 0xF3 0xF4 0xCE 0x00 0x16 0x02 0x06 0xE9 0xF4 0x26 0x06 0x98 0x30 0x4D 0xF2 0xE6 
write to 0x0B ack data: 0x05 0x05 0x9D 0x3E 0x5D 0x00 0x90 
write to 0x0B ack data: 0x05 0x1F 0xA0 0x3E 0x41 0x04 0xF3 0x01 0x08 0x06 0xE5 0xE9 0xE6 0x8C 0x37 0xF6 0x63 0xF4 0xCB 0xE7 0x02 0xE1 0xF4 0xC9 0xE7 0x9F 0x2F 0x77 0xF6 0x12 0x01 0xE3 0xEA 
write to 0x0B ack data: 0x05 0x05 0xBD 0x3E 0x21 0x04 0xF3 
write to 0x0B ack data: 0x05 0x1F 0xC0 0x3E 0xF4 0xC9 0x00 0x11 0x02 0x06 0xE7 0xF4 0x26 0x08 0xF6 0x61 0xE5 0x73 0x30 0xB2 0xE2 0x9C 0x76 0x03 0xC1 0x04 0xC3 0xE9 0x23 0xEA 0x34 0x13 0xC1 
write to 0x0B ack data: 0x05 0x05 0xDD 0x3E 0x14 0xC3 0x7C 
write to 0x0B ack data: 0x05 0x1F 0xE0 0x3E 0x98 0x4A 0xE5 0x73 0xB0 0xBA 0xE2 0x02 0xE9 0xE5 0x75 0x50 0xB4 0xE4 0xEA 0x21 0x02 0xE1 0x9C 0x76 0x03 0xC1 0x04 0xC3 0xE9 0x23 0xEA 0x34 0x13 
write to 0x0B ack data: 0x05 0x05 0xFD 0x3E 0xC1 0x14 0xC3 
write to 0x0B ack data: 0x05 0x1F 0x00 0x3F 0x04 0xF3 0x01 0x02 0x06 0xDF 0xE9 0xE6 0x80 0x09 0xF4 0xC9 0x00 0x11 0x02 0x6C 0x01 0x98 0x19 0x01 0xCB 0x11 0xDD 0x02 0xEB 0x12 0xED 0x15 0xE9 
write to 0x0B ack data: 0x05 0x05 0x1D 0x3F 0x04 0xE5 0x14 
write to 0x0B ack data: 0x05 0x1F 0x20 0x3F 0xE7 0x06 0xDF 0x16 0xE3 0x01 0xD5 0x11 0xDB 0x9B 0xA7 0x3C 0x01 0xC1 0x02 0xC3 0x24 0x10 0x27 0x35 0x9C 0x7D 0x04 0xF3 0x11 0x04 0x98 0x09 0x31 
write to 0x0B ack data: 0x05 0x05 0x3D 0x3F 0x06 0xF3 0x11 
write to 0x0B ack data: 0x05 0x1F 0x40 0x3F 0x84 0x11 0x82 0x6C 0x01 0xA6 0xC2 0xA5 0x3B 0x2F 0x2E 0x2D 0x9A 0x3F 0xEB 0xC2 0x9F 0x38 0x48 0x2F 0x9A 0x3D 0x3E 0x3F 0xA7 0x03 0x11 0xC1 0xF6 
write to 0x0B ack data: 0x05 0x05 0x5D 0x3F 0x26 0x9F 0x6D 
write to 0x0B ack data: 0x05 0x1F 0x60 0x3F 0x02 0x25 0xFF 0x7F 0x98 0x1E 0x03 0x80 0xEE 0x96 0xEE 0x96 0x04 0xC1 0x01 0x00 0xEC 0x92 0xEA 0x92 0x12 0xC1 0x22 0x00 0x40 0x9F 0x4D 0x3F 0xE9 
write to 0x0B ack data: 0x05 0x05 0x7D 0x3F 0xE5 0x94 0x02 
write to 0x0B ack data: 0x05 0x1F 0x80 0x3F 0xF6 0x15 0x42 0xC0 0xB2 0x85 0x55 0xC0 0xD2 0x00 0x87 0xDA 0xF6 0x51 0xAB 0x2F 0x2E 0x2D 0x9A 0x3D 0x3E 0x3F 0xA7 0x05 0x11 0xC3 0x12 0xC1 0x9F 
write to 0x0B ack data: 0x05 0x05 0x9D 0x3F 0x6D 0x02 0x26 
write to 0x0B ack data: 0x05 0x1F 0xA0 0x3F 0x06 0x02 0x25 0xFF 0x7F 0x98 0x22 0x04 0xC3 0x01 0x00 0xEC 0x92 0xEA 0x92 0x12 0xC3 0x04 0xC1 0x03 0x00 0x02 0x8E 0x9F 0x4D 0x3F 0xE9 0xE5 0x94 
write to 0x0B ack data: 0x05 0x05 0xBD 0x3F 0x02 0xF6 0x15 
write to 0x0B ack data: 0x05 0x1F 0xC0 0x3F 0xF4 0x91 0xC1 0xE9 0x91 0x11 0xC1 0x42 0xC0 0xB2 0x83 0x53 0xC0 0xEE 0x96 0xEE 0x96 0xD2 0x00 0x87 0xD2 0xF6 0x51 0xAD 0x2F 0x2E 0x2D 0x9A 0x3D 
write to 0x0B ack data: 0x05 0x05 0xDD 0x3F 0x3E 0x3F 0xA7 
write to 0x0B ack data: 0x05 0x1F 0xE0 0x3F 0x07 0x31 0x11 0xC4 0x24 0x97 0x02 0x01 0x00 0x11 0xC2 0x31 0x11 0xC0 0x9F 0x6D 0x02 0x52 0xC6 0x26 0x22 0x02 0x98 0x0F 0x01 0x80 0xEE 0x96 0xEE 
write to 0x0B ack data: 0x05 0x05 0xFD 0x3F 0x96 0x02 0xC2 
write to 0x0B ack data: 0x05 0x1F 0x00 0x40 0x9F 0x1C 0x47 0xE9 0x25 0x15 0xC0 0x43 0xC6 0xB3 0x82 0x52 0xC6 0x05 0xC0 0xD3 0x00 0x87 0xE5 0x9F 0x6D 0x02 0xA6 0x24 0xF6 0x51 0x75 0x9C 0x7B 
write to 0x0B ack data: 0x05 0x05 0x1D 0x40 0x11 0xC0 0x73 
write to 0x0B ack data: 0x05 0x1F 0x20 0x40 0x53 0xC6 0xF6 0x81 0x9F 0xAD 0x47 0xAF 0x2F 0x2E 0x2D 0x9A 0x3D 0x3E 0x3F 0xA7 0x0A 0x11 0xC7 0x56 0xC9 0x12 0xC2 0x24 0x06 0x42 0x01 0x0D 0x11 
write to 0x0B ack data: 0x05 0x05 0x3D 0x40 0xC4 0x9F 0x6D 
write to 0x0B ack data: 0x05 0x1F 0x40 0x40 0x02 0x52 0xC6 0x26 0xE8 0x45 0x98 0x2C 0xB2 0x82 0xA6 0x2A 0x7B 0xED 0x64 0x20 0x06 0x42 0xE8 0x24 0x02 0x09 0x12 0xC0 0x45 0xC9 0xD5 0x00 0x90 
write to 0x0B ack data: 0x05 0x05 0x5D 0x40 0x08 0x02 0x81 
write to 0x0B ack data: 0x05 0x1F 0x60 0x40 0x12 0xC4 0x02 0x83 0x12 0xC0 0x52 0xC6 0xF6 0x81 0x9F 0xAD 0x47 0xED 0x64 0xF4 0x24 0xC7 0x11 0x00 0x42 0xC6 0x87 0xD0 0xA5 0x0A 0x2F 0x2E 0x2D 
write to 0x0B ack data: 0x05 0x05 0x7D 0x40 0x9A 0x3D 0x3F 
write to 0x0B ack data: 0x05 0x1F 0x80 0x40 0xA7 0x14 0x66 0x01 0x22 0xA6 0x0B 0xF6 0x81 0x9F 0x2C 0x40 0xF6 0x80 0x10 0xD2 0x31 0x11 0xC8 0xF6 0x82 0x21 0x06 0x42 0x9F 0x55 0x3F 0x11 0xCA 
write to 0x0B ack data: 0x05 0x05 0x9D 0x40 0x22 0x00 0x01 
write to 0x0B ack data: 0x05 0x1F 0xA0 0x40 0xF6 0x81 0xE6 0x22 0x08 0xB3 0xD3 0x9F 0x12 0x3A 0x24 0xE8 0x45 0x25 0x29 0x46 0xA1 0x00 0xB2 0xC0 0x08 0x90 0x0A 0x46 0x00 0x77 0x22 0x0A 0x00 
write to 0x0B ack data: 0x05 0x05 0xBD 0x40 0x01 0x42 0x98 
write to 0x0B ack data: 0x05 0x1F 0xC0 0x40 0x08 0x46 0x00 0x77 0x22 0x0A 0x00 0x01 0x40 0x9F 0x2F 0x77 0xE9 0xB1 0x11 0xCC 0x24 0x2A 0x02 0x21 0xA6 0x0B 0x11 0x1E 0x62 0x01 0xA2 0x20 0x23 
write to 0x0B ack data: 0x05 0x05 0xDD 0x40 0x01 0x00 0x22 
write to 0x0B ack data: 0x05 0x1F 0xE0 0x40 0xA6 0x0B 0xF6 0x81 0xE6 0x22 0x09 0xB3 0xD3 0x9F 0x54 0x3B 0x01 0xCB 0x11 0xC5 0x01 0xCD 0x11 0xC7 0x66 0x04 0xF6 0x82 0xE6 0x24 0x05 0xB5 0xD5 
write to 0x0B ack data: 0x05 0x05 0xFD 0x40 0x21 0x00 0x02 
write to 0x0B ack data: 0x05 0x1F 0x00 0x41 0x9F 0x79 0x72 0x60 0xF7 0xF2 0xB4 0xA9 0xA5 0x14 0x2F 0x2D 0x9A 0xA2 0xA0 0x3F 0xA7 0x0C 0xE4 0x80 0x2E 0x84 0x05 0xE4 0x60 0xB4 0x80 0x07 0xA1 
write to 0x0B ack data: 0x05 0x05 0x1D 0x41 0x00 0xB4 0xC0 
write to 0x0B ack data: 0x05 0x1F 0x20 0x41 0x01 0x84 0x0C 0x76 0x24 0x97 0x02 0x02 0x00 0x21 0x22 0x02 0x9F 0x2C 0x40 0x32 0xF6 0x81 0x9F 0x12 0x3A 0x21 0x22 0x02 0x11 0xCA 0x32 0x12 0xC0 
write to 0x0B ack data: 0x05 0x05 0x3D 0x41 0xF6 0x12 0x21 
write to 0x0B ack data: 0x05 0x1F 0x40 0x41 0x06 0x42 0x9F 0x93 0x3F 0x11 0xC2 0xB3 0x60 0x88 0x03 0x7A 0x98 0x0B 0x24 0x16 0x02 0x14 0xCA 0xE9 0xB1 0x11 0xC2 0x6A 0x01 0x72 0xA2 0x20 0x23 
write to 0x0B ack data: 0x05 0x05 0x5D 0x41 0x01 0x01 0x24 
write to 0x0B ack data: 0x05 0x1F 0x60 0x41 0x97 0x02 0x02 0x00 0xF6 0x84 0xEC 0x91 0x9F 0x54 0x3B 0xA9 0xD2 0x00 0x84 0x09 0x24 0x4C 0x46 0x40 0x02 0xC0 0x02 0x84 0x06 0x60 0xBF 0xF2 0xB4 
write to 0x0B ack data: 0x05 0x05 0x7D 0x41 0x98 0x0B 0x60 
write to 0x0B ack data: 0x05 0x1F 0x80 0x41 0x40 0xF3 0xB4 0x02 0xC2 0x01 0xCA 0x9F 0x0B 0x38 0x01 0xC4 0x24 0xCA 0x01 0x11 0x20 0x02 0xC2 0x12 0x1E 0xE6 0x5A 0x00 0x90 0x08 0xE9 0xB1 0x11 
write to 0x0B ack data: 0x05 0x05 0x9D 0x41 0x20 0xEA 0xB1 
write to 0x0B ack data: 0x05 0x1F 0xA0 0x41 0x11 0x1E 0xA5 0x0C 0x2F 0xA0 0x0A 0x9A 0x3F 0x24 0x97 0x02 0x01 0x00 0xF5 0xC1 0xBB 0x9C 0x6A 0x74 0x24 0xE4 0x45 0xF4 0xE1 0x00 0x94 0x02 0x64 
write to 0x0B ack data: 0x05 0x05 0xBD 0x41 0x01 0xA6 0x42 
write to 0x0B ack data: 0x05 0x1F 0xC0 0x41 0x2F 0x9A 0x3D 0x3E 0x3F 0xA7 0x04 0xF6 0x13 0xFB 0x84 0x0F 0x24 0x4C 0x46 0x01 0x0A 0x24 0xCA 0x01 0xF4 0x21 0x1A 0xB3 0x60 0x88 0x80 0x26 0x4C 
write to 0x0B ack data: 0x05 0x05 0xDD 0x41 0x46 0xF4 0xCB 
write to 0x0B ack data: 0x05 0x1F 0xE0 0x41 0x8A 0x13 0xC0 0xF4 0xCA 0x8C 0x12 0xC2 0x66 0x04 0xF6 0x82 0x21 0xE4 0x01 0x9F 0x79 0x72 0x25 0xCA 0x01 0xA1 0x00 0xB4 0xC0 0x40 0x84 0x14 0x01 
write to 0x0B ack data: 0x05 0x05 0xFD 0x41 0x5E 0xF4 0x21 
write to 0x0B ack data: 0x05 0x1F 0x00 0x42 0xC0 0xF4 0x21 0x40 0x11 0xC0 0x01 0x60 0xF4 0x21 0xC2 0xF4 0x21 0x42 0x98 0x2A 0x9F 0x6D 0x02 0xA6 0x24 0x21 0x22 0x02 0x9F 0x3A 0x76 0xF6 0x13 
write to 0x0B ack data: 0x05 0x05 0x1D 0x42 0x0A 0xAD 0x24 
write to 0x0B ack data: 0x05 0x1F 0x20 0x42 0x06 0x42 0x01 0x04 0x9F 0x4D 0x3F 0x11 0xC0 0x03 0x5E 0x02 0x60 0x9F 0x2F 0x77 0x02 0xC0 0xF4 0xCA 0x8A 0x12 0xC0 0xF4 0xC9 0x8C 0x11 0xC2 0xE0 
write to 0x0B ack data: 0x05 0x05 0x3D 0x42 0x60 0xC1 0x80 
write to 0x0B ack data: 0x05 0x1F 0x40 0x42 0x03 0x31 0x11 0xC0 0xE0 0x60 0xC3 0x80 0x03 0x31 0x11 0xC2 0x66 0x04 0xF6 0x82 0x21 0xEC 0x01 0x9F 0x79 0x72 0x62 0x01 0x9F 0x53 0x34 0xA1 0x02 
write to 0x0B ack data: 0x05 0x05 0x5D 0x42 0xB4 0xCA 0x02 
write to 0x0B ack data: 0x05 0x1F 0x60 0x42 0x84 0x12 0xA1 0x00 0x2E 0x84 0x09 0x24 0x4C 0x46 0x40 0x01 0xC0 0x08 0x84 0x04 0xCA 0x01 0x84 0x09 0x22 0xEC 0x01 0x21 0xE4 0x01 0x9F 0x20 0x35 
write to 0x0B ack data: 0x05 0x05 0x7D 0x42 0xAC 0x2F 0x2E 
write to 0x0B ack data: 0x05 0x1F 0x80 0x42 0x2D 0x9A 0x3D 0x3F 0xA7 0x04 0x25 0x97 0x02 0x01 0x42 0x24 0xBE 0x45 0xF4 0xE1 0x00 0x94 0x13 0x24 0x4C 0x46 0x40 0x01 0xC0 0x02 0x90 0x2F 0x01 
write to 0x0B ack data: 0x05 0x05 0x9D 0x42 0x54 0x24 0xC3 
write to 0x0B ack data: 0x05 0x1F 0xA0 0x42 0x45 0xF4 0xE1 0x00 0x8C 0x25 0x25 0x4A 0x02 0x42 0x54 0x24 0xC0 0x45 0xE0 0x52 0x00 0x88 0x07 0xB2 0x92 0x52 0x54 0x72 0x98 0x17 0x64 0x04 0xF6 
write to 0x0B ack data: 0x05 0x05 0xBD 0x42 0x81 0x9C 0x68 
write to 0x0B ack data: 0x05 0x1F 0xC0 0x42 0x01 0xC0 0x02 0xC2 0x9F 0xC2 0x41 0x62 0x01 0x98 0x06 0x24 0x4A 0x02 0x72 0x52 0x14 0xAC 0x2F 0x2D 0x9A 0x3D 0x3F 0xA7 0x0C 0x60 0x04 0xF3 0xB4 
write to 0x0B ack data: 0x05 0x05 0xDD 0x42 0x24 0x97 0x02 
write to 0x0B ack data: 0x05 0x1F 0xE0 0x42 0x01 0x00 0x19 0xBB 0xE4 0xA0 0xB3 0x90 0x03 0x31 0x98 0x1A 0x73 0x24 0xCA 0x01 0x42 0x2C 0xE0 0x12 0x2D 0xE0 0x12 0x2E 0xE0 0x12 0x2F 0xD2 0x00 
write to 0x0B ack data: 0x05 0x05 0xFD 0x42 0x84 0x02 0x63 
write to 0x0B ack data: 0x05 0x1F 0x00 0x43 0x01 0xE6 0x43 0x01 0xA6 0x32 0x75 0xA6 0x24 0xF6 0x81 0x9F 0x12 0x3A 0x24 0x16 0x02 0x14 0xCA 0xF6 0x42 0x21 0x06 0x42 0x9F 0x55 0x3F 0x11 0xC2 
write to 0x0B ack data: 0x05 0x05 0x1D 0x43 0x25 0xCA 0x01 
write to 0x0B ack data: 0x05 0x1F 0x20 0x43 0x01 0x40 0x11 0xC0 0x72 0xA2 0x20 0x23 0x00 0x01 0x0A 0xBB 0xF6 0x84 0xEC 0x91 0x9F 0x54 0x3B 0x02 0xC3 0xA9 0x30 0xE8 0xE2 0x94 0x08 0xF4 0x22 
write to 0x0B ack data: 0x05 0x05 0x3D 0x43 0x40 0x01 0xCA 
write to 0x0B ack data: 0x05 0x1F 0x40 0x43 0x9F 0x0B 0x38 0xA1 0x06 0xAF 0x24 0xCA 0x01 0x02 0x00 0x21 0x16 0x02 0x9F 0xE7 0x47 0x0A 0xAD 0x90 0x0D 0xEA 0xE1 0x94 0x09 0x24 0x4C 0x46 0x40 
write to 0x0B ack data: 0x05 0x05 0x5D 0x43 0x02 0xC0 0x02 
write to 0x0B ack data: 0x05 0x1F 0x60 0x43 0x84 0x06 0x05 0xC2 0x03 0xC4 0x98 0x16 0xF6 0x13 0x24 0x06 0x42 0x01 0x04 0x9F 0x4D 0x3F 0xF6 0x15 0x24 0xBE 0x45 0x02 0x00 0x9F 0xD2 0x73 0xF6 
write to 0x0B ack data: 0x05 0x05 0x7D 0x43 0x13 0xF6 0x32 
write to 0x0B ack data: 0x05 0x1F 0x80 0x43 0xF6 0x51 0x9F 0xC2 0x41 0x24 0xCA 0x01 0x62 0x01 0x52 0x0A 0xA5 0x0C 0x2F 0x2D 0x9A 0x3F 0xA1 0x02 0xB9 0x90 0x0D 0xD2 0x03 0x84 0x03 0x9F 0x0D 
write to 0x0B ack data: 0x05 0x05 0x9D 0x43 0x41 0x9F 0xD5 
write to 0x0B ack data: 0x05 0x1F 0xA0 0x43 0x42 0xA4 0xB9 0x00 0x2F 0x9A 0x3D 0x3E 0x3F 0xA7 0x02 0xA6 0x23 0x72 0x52 0xC0 0x24 0x06 0x42 0x42 0x08 0xCA 0x03 0xD0 0x02 0x90 0x04 0x62 0x01 
write to 0x0B ack data: 0x05 0x05 0xBD 0x43 0x52 0xC0 0xD3 
write to 0x0B ack data: 0x05 0x1F 0xC0 0x43 0x00 0x90 0x15 0x9F 0x2D 0x49 0x25 0x27 0x47 0xD2 0x00 0x90 0x07 0x44 0x45 0x72 0x52 0xC0 0x98 0x9D 0x44 0x46 0x98 0x99 0x25 0x27 0x47 0x42 0x48 
write to 0x0B ack data: 0x05 0x05 0xDD 0x43 0x52 0xC1 0x24 
write to 0x0B ack data: 0x05 0x1F 0xE0 0x43 0xCA 0x01 0x01 0x18 0x32 0x3A 0x39 0x42 0xC5 0x73 0x9C 0x78 0xAC 0xF6 0x16 0xF6 0x27 0xF7 0x00 0x00 0xF7 0x80 0x0C 0x42 0x47 0x73 0x32 0x9C 0x78 
write to 0x0B ack data: 0x05 0x05 0xFD 0x43 0xAC 0xF6 0x13 
write to 0x0B ack data: 0x05 0x1F 0x00 0x44 0xF6 0x24 0xF6 0x61 0xF6 0x72 0xF6 0x45 0xF6 0x34 0x9C 0x7E 0xD5 0x00 0x84 0x0C 0xD4 0x00 0x84 0x08 0xD3 0x00 0x84 0x04 0xD2 0x64 0x94 0x04 0x6C 
write to 0x0B ack data: 0x05 0x05 0x1D 0x44 0x64 0x98 0x02 
write to 0x0B ack data: 0x05 0x1F 0x20 0x44 0xA6 0x2C 0x23 0x64 0x00 0x44 0xC1 0x75 0x25 0x06 0x42 0x24 0x40 0x42 0x01 0x00 0xF4 0xC9 0x46 0x9F 0x92 0x77 0xA6 0xCA 0x7B 0xED 0x51 0x94 0x0D 
write to 0x0B ack data: 0x05 0x05 0x3D 0x44 0x20 0x64 0x00 
write to 0x0B ack data: 0x05 0x1F 0x40 0x44 0xE8 0x51 0x94 0x04 0x6C 0x64 0x98 0x02 0xA6 0x2C 0x42 0xC0 0xD2 0x00 0x84 0x0A 0x24 0x27 0x47 0xA6 0xC4 0xE0 0x24 0x05 0x98 0x17 0x25 0x27 0x47 
write to 0x0B ack data: 0x05 0x05 0x5D 0x44 0x24 0x06 0x42 
write to 0x0B ack data: 0x05 0x1F 0x60 0x44 0x42 0x08 0xCA 0x03 0xD0 0x01 0x84 0x07 0xA6 0xC4 0xE0 0x24 0x46 0x98 0x02 0x44 0x44 0xA1 0x02 0xB0 0x24 0x4C 0x46 0xE0 0x54 0x10 0x80 0x05 0xE6 
write to 0x0B ack data: 0x05 0x05 0x7D 0x44 0x12 0x80 0x98 
write to 0x0B ack data: 0x05 0x1F 0x80 0x44 0x02 0xC2 0x7F 0xA3 0xB0 0x20 0x21 0x29 0x03 0x9F 0x97 0x72 0x42 0xC0 0xAA 0x2F 0x2E 0x2D 0x9A 0xA2 0xA0 0x3F 0xA6 0x2A 0xA6 0x24 0x21 0x2A 0x03 
write to 0x0B ack data: 0x05 0x05 0x9D 0x44 0x9F 0x97 0x72 
write to 0x0B ack data: 0x05 0x1F 0xA0 0x44 0x24 0x97 0x02 0x01 0x12 0x24 0x29 0x46 0x45 0x08 0xDD 0x00 0x88 0x05 0xE0 0x5A 0x22 0x94 0x0C 0xCD 0x20 0x90 0x0E 0x24 0x29 0x46 0xF4 0xE1 0x1F 
write to 0x0B ack data: 0x05 0x05 0xBD 0x44 0x8C 0x06 0x60 
write to 0x0B ack data: 0x05 0x1F 0xC0 0x44 0xF7 0xF2 0xB0 0x98 0x1C 0xCD 0x40 0x90 0x08 0x24 0x29 0x46 0xE0 0x5A 0x21 0x88 0x0C 0xCD 0x10 0x90 0x0C 0x24 0x29 0x46 0xF4 0xE1 0x1D 0x80 0x04 
write to 0x0B ack data: 0x05 0x05 0xDD 0x44 0x60 0x08 0xF3 
write to 0x0B ack data: 0x05 0x1F 0xE0 0x44 0xB0 0x24 0x29 0x46 0x44 0x0A 0xDC 0x00 0x88 0x05 0xE0 0x5A 0x16 0x94 0x0C 0xCC 0x20 0x90 0x0E 0x24 0x29 0x46 0xF4 0xE1 0x13 0x8C 0x06 0x60 0xFD 
write to 0x0B ack data: 0x05 0x05 0xFD 0x44 0xF2 0xB0 0x98 
write to 0x0B ack data: 0x05 0x1F 0x00 0x45 0x1C 0xCC 0x40 0x90 0x08 0x24 0x29 0x46 0xE0 0x5A 0x15 0x88 0x0C 0xCC 0x10 0x90 0x0C 0x24 0x29 0x46 0xF4 0xE1 0x11 0x80 0x04 0x60 0x02 0xF3 0xB0 
write to 0x0B ack data: 0x05 0x05 0x1D 0x45 0x24 0x97 0x02 
write to 0x0B ack data: 0x05 0x1F 0x20 0x45 0x01 0x14 0xCD 0x08 0x90 0x08 0x24 0x29 0x46 0xE0 0x5A 0x1C 0x88 0x0C 0xCD 0x02 0x90 0x0E 0x24 0x29 0x46 0xF4 0xE1 0x19 0x80 0x06 0x60 0xFB 0xF2 
write to 0x0B ack data: 0x05 0x05 0x3D 0x45 0xB0 0x98 0x1C 
write to 0x0B ack data: 0x05 0x1F 0x40 0x45 0xCD 0x04 0x90 0x08 0x24 0x29 0x46 0xE0 0x5A 0x1B 0x94 0x0C 0xCD 0x01 0x90 0x0C 0x24 0x29 0x46 0xF4 0xE1 0x17 0x8C 0x04 0x60 0x04 0xF3 0xB0 0xCC 
write to 0x0B ack data: 0x05 0x05 0x5D 0x45 0x08 0x90 0x08 
write to 0x0B ack data: 0x05 0x1F 0x60 0x45 0x24 0x29 0x46 0xE0 0x5A 0x10 0x88 0x0C 0xCC 0x02 0x90 0x0E 0x24 0x29 0x46 0xF4 0xE1 0x0D 0x80 0x06 0x60 0xFE 0xF2 0xB0 0x98 0x1C 0xCC 0x04 0x90 
write to 0x0B ack data: 0x05 0x05 0x7D 0x45 0x08 0x24 0x29 
write to 0x0B ack data: 0x05 0x1F 0x80 0x45 0x46 0xE0 0x5A 0x0F 0x94 0x0C 0xCC 0x01 0x90 0x0C 0x24 0x29 0x46 0xF4 0xE1 0x0B 0x8C 0x04 0x60 0x01 0xF3 0xB0 0x2F 0xA0 0x0A 0x9A 0x3D 0x3F 0x24 
write to 0x0B ack data: 0x05 0x05 0x9D 0x45 0xCA 0x01 0x25 
write to 0x0B ack data: 0x05 0x1F 0xA0 0x45 0x29 0x46 0xD2 0x00 0x90 0x06 0x01 0x38 0x02 0x42 0x98 0x04 0x01 0x36 0x02 0x40 0xFB 0x90 0x0B 0x9F 0x7E 0x73 0xA6 0x24 0x21 0x2B 0x03 0x9F 0x97 
write to 0x0B ack data: 0x05 0x05 0xBD 0x45 0x72 0x2F 0x2D 
write to 0x0B ack data: 0x05 0x1F 0xC0 0x45 0x9A 0x3D 0x3E 0x3F 0xF6 0x26 0xD2 0x00 0x84 0x2C 0x23 0x0C 0x00 0x22 0xE4 0x01 0xF6 0x61 0x9C 0x71 0x09 0xBB 0x11 0x8C 0x24 0xCA 0x01 0x01 0x2A 
write to 0x0B ack data: 0x05 0x05 0xDD 0x45 0x11 0x8E 0x23 
write to 0x0B ack data: 0x05 0x1F 0xE0 0x45 0x04 0x00 0x22 0x5F 0x02 0xF6 0x61 0xE6 0x22 0x10 0xB3 0xD3 0x9C 0x71 0x23 0x04 0x00 0x22 0x1E 0x02 0x98 0x4C 0xD2 0x01 0x84 0x55 0x25 0xCA 0x01 
write to 0x0B ack data: 0x05 0x05 0xFD 0x45 0x43 0x73 0x53 
write to 0x0B ack data: 0x05 0x1F 0x00 0x46 0x80 0x24 0x06 0x42 0x42 0x08 0x52 0x81 0x24 0x06 0x02 0x43 0x00 0x53 0x82 0x42 0x03 0x52 0x83 0x01 0x6C 0x02 0x6E 0x11 0x86 0x66 0x10 0x9C 0x82 
write to 0x0B ack data: 0x05 0x05 0x1D 0x46 0x11 0x88 0x23 
write to 0x0B ack data: 0x05 0x1F 0x20 0x46 0x04 0x00 0x22 0x16 0x02 0xF6 0x61 0xE6 0x22 0x0A 0xB3 0xD3 0x9C 0x71 0x23 0x06 0x00 0xF6 0x52 0xF6 0x61 0xE6 0x22 0x0E 0xB3 0xD3 0x9C 0x71 0x23 
write to 0x0B ack data: 0x05 0x05 0x3D 0x46 0x04 0x00 0x22 
write to 0x0B ack data: 0x05 0x1F 0x40 0x46 0x22 0x02 0xF6 0x61 0xE6 0x22 0x14 0xB3 0xD3 0x9C 0x71 0x62 0x18 0x98 0x79 0xD2 0x02 0x84 0x4A 0x23 0x04 0x00 0x22 0x06 0x42 0xF6 0x61 0x9C 0x71 
write to 0x0B ack data: 0x05 0x05 0x5D 0x46 0x23 0x04 0x00 
write to 0x0B ack data: 0x05 0x1F 0x60 0x46 0x22 0x1A 0x02 0xF6 0x61 0xE6 0x22 0x04 0xB3 0xD3 0x9C 0x71 0x23 0x04 0x00 0x22 0xD5 0x01 0xF6 0x61 0xE6 0x22 0x08 0xB3 0xD3 0x9C 0x71 0x23 0x04 
write to 0x0B ack data: 0x05 0x05 0x7D 0x46 0x00 0x22 0x44 
write to 0x0B ack data: 0x05 0x1F 0x80 0x46 0x02 0xF6 0x61 0xE6 0x22 0x0C 0xB3 0xD3 0x9C 0x71 0x23 0x04 0x00 0x22 0x12 0x02 0xF6 0x61 0xE6 0x22 0x10 0xB3 0xD3 0x9C 0x71 0x62 0x14 0x98 0x2B 
write to 0x0B ack data: 0x05 0x05 0x9D 0x46 0xD2 0x03 0x84 
write to 0x0B ack data: 0x05 0x1F 0xA0 0x46 0x07 0xF6 0x21 0x9F 0xC2 0x65 0x98 0x20 0xD2 0x04 0x84 0x0E 0x23 0x04 0x00 0x22 0x00 0x02 0xF6 0x61 0x9C 0x71 0x62 0x04 0x98 0x0E 0xD2 0x05 0x90 
write to 0x0B ack data: 0x05 0x05 0xBD 0x46 0x03 0x72 0x98 
write to 0x0B ack data: 0x05 0x1F 0xC0 0x46 0x07 0xF6 0x21 0x9F 0xAC 0x34 0x62 0x08 0x2F 0x2E 0x2D 0x9A 0x3D 0x3E 0xA7 0x02 0x11 0xC0 0xF6 0x14 0x01 0x00 0x84 0x03 0x74 0x98 0x09 0x20 0xFF 
write to 0x0B ack data: 0x05 0x05 0xDD 0x46 0x3F 0xE8 0xE1 
write to 0x0B ack data: 0x05 0x1F 0xE0 0x46 0x94 0x05 0x64 0x27 0x35 0x98 0x0D 0x22 0x27 0x00 0x9C 0x76 0xF6 0x15 0x66 0x0E 0x9C 0x81 0xA6 0x24 0x21 0xFF 0x3F 0xED 0x01 0x04 0xC0 0x11 0x00 
write to 0x0B ack data: 0x05 0x05 0xFD 0x46 0xA6 0x42 0xAA 
write to 0x0B ack data: 0x05 0x1F 0x00 0x47 0x2E 0x2D 0x9A 0x74 0x24 0x80 0x45 0x01 0x23 0x24 0xD2 0x44 0xF4 0x21 0x00 0x24 0x97 0x02 0xF4 0xE1 0x14 0x8C 0x02 0x64 0x01 0xA6 0x42 0x9A 0x3D 
write to 0x0B ack data: 0x05 0x05 0x1D 0x47 0x3E 0x3F 0xA7 
write to 0x0B ack data: 0x05 0x1F 0x20 0x47 0x04 0xF6 0x25 0x11 0xC0 0xF6 0x81 0x9F 0xCC 0x46 0xA6 0x2E 0x7F 0xEF 0x66 0x02 0xC0 0xF6 0x61 0x20 0x82 0x44 0xE8 0x21 0x9F 0x47 0x48 0x11 0xC2 
write to 0x0B ack data: 0x05 0x05 0x3D 0x47 0x02 0xC0 0xF6 
write to 0x0B ack data: 0x05 0x1F 0x40 0x47 0x61 0x20 0xD6 0x44 0xE8 0x21 0x9F 0x47 0x48 0xF6 0x52 0x20 0x54 0xF5 0xE8 0x22 0x9C 0x76 0x66 0x0F 0x20 0x00 0x40 0xE8 0x21 0x30 0xE8 0x32 0x9C 
write to 0x0B ack data: 0x05 0x05 0x5D 0x47 0x81 0xF4 0x21 
write to 0x0B ack data: 0x05 0x1F 0x60 0x47 0xC2 0xAC 0x2F 0x2E 0x2D 0x9A 0x3D 0x3E 0x3F 0xA7 0x04 0xF6 0x16 0xF6 0x25 0x02 0x42 0x9F 0x1C 0x47 0x11 0xC0 0x67 0x01 0x46 0x46 0x02 0x42 0xF6 
write to 0x0B ack data: 0x05 0x05 0x7D 0x47 0x61 0x9F 0x08 
write to 0x0B ack data: 0x05 0x1F 0x80 0x47 0x4A 0x11 0xC2 0x02 0x44 0xF6 0x81 0x9F 0xF6 0x35 0xF6 0x12 0x01 0x44 0x30 0xE8 0xE1 0x94 0x13 0x03 0xC0 0x24 0xDB 0x45 0x04 0x00 0xF6 0x21 0xEB 
write to 0x0B ack data: 0x05 0x05 0x9D 0x47 0xC1 0xEC 0xE1 
write to 0x0B ack data: 0x05 0x1F 0xA0 0x47 0x94 0x04 0xF6 0x42 0xEB 0x22 0xF6 0x21 0xAC 0x2F 0x2E 0x2D 0x9A 0x3D 0x3E 0x3F 0xF6 0x16 0x05 0x80 0xF6 0x12 0x31 0x9F 0x66 0x47 0xE9 0xE5 0x80 
write to 0x0B ack data: 0x05 0x05 0xBD 0x47 0x03 0x31 0x98 
write to 0x0B ack data: 0x05 0x1F 0xC0 0x47 0x22 0x05 0x80 0xF6 0x62 0x21 0x00 0x40 0x9F 0x66 0x47 0xE9 0xE5 0x8C 0x05 0x21 0x00 0x40 0x98 0x0F 0x3E 0x00 0x80 0x38 0x23 0x00 0x40 0x32 0x21 
write to 0x0B ack data: 0x05 0x05 0xDD 0x47 0x66 0x47 0x9F 
write to 0x0B ack data: 0x05 0x1F 0xE0 0x47 0x6D 0x74 0xAC 0x2F 0x2E 0x2D 0x9A 0x3D 0x3F 0xF6 0x27 0xA6 0x64 0x75 0xEA 0x64 0xF6 0x15 0xEC 0x25 0x05 0x40 0x20 0x06 0x42 0xE8 0x24 0x02 0x00 
write to 0x0B ack data: 0x05 0x05 0xFD 0x47 0xF6 0x71 0x9F 
write to 0x0B ack data: 0x05 0x1F 0x00 0x48 0x1F 0x48 0xED 0x21 0xB3 0x60 0x80 0x01 0x31 0x2F 0x2D 0x9A 0x3F 0x66 0x20 0x22 0x62 0x45 0x21 0x80 0x44 0x9C 0x64 0x2F 0x9A 0x24 0x80 0x44 0x01 
write to 0x0B ack data: 0x05 0x05 0x1D 0x48 0x00 0x9A 0x3D 
write to 0x0B ack data: 0x05 0x1F 0x20 0x48 0xF6 0x25 0x66 0x0E 0xA6 0x30 0xA6 0x14 0xA6 0x15 0x9C 0x80 0xF6 0x54 0xA6 0x90 0xA6 0x1A 0xA6 0x1B 0x9C 0x7D 0x2D 0x9A 0x9C 0x76 0x66 0x0E 0x20 
write to 0x0B ack data: 0x05 0x05 0x3D 0x48 0x00 0x20 0xE8 
write to 0x0B ack data: 0x05 0x1F 0x40 0x48 0x21 0x30 0xE8 0x32 0x9C 0x81 0x9A 0x3D 0x3F 0xF6 0x14 0x05 0x00 0x01 0x02 0xED 0xC1 0x9F 0x38 0x48 0xED 0x21 0x2F 0x2D 0x9A 0x73 0xE9 0x61 0xE9 
write to 0x0B ack data: 0x05 0x05 0x5D 0x48 0x61 0xE9 0x61 
write to 0x0B ack data: 0x05 0x1F 0x60 0x48 0xE9 0x61 0xE9 0x61 0xE9 0x61 0x20 0x00 0x41 0xE8 0x21 0x9A 0x3F 0x9F 0x59 0x48 0xF6 0x14 0x40 0x00 0xD0 0x55 0x90 0x05 0x20 0x80 0x00 0xE8 0x24 
write to 0x0B ack data: 0x05 0x05 0x7D 0x48 0xF6 0x41 0x2F 
write to 0x0B ack data: 0x05 0x1F 0x80 0x48 0x9A 0x3D 0x3E 0x3F 0xA7 0x02 0x11 0xC0 0xF6 0x14 0x01 0x00 0x84 0x03 0x74 0x98 0x09 0x20 0xFF 0x3F 0xE8 0xE1 0x94 0x05 0x64 0x0E 0x35 0x98 0x37 
write to 0x0B ack data: 0x05 0x05 0x9D 0x48 0x20 0xC6 0x31 
write to 0x0B ack data: 0x05 0x1F 0xA0 0x48 0xE8 0xE1 0x8C 0x0C 0x22 0x09 0x00 0x9C 0x76 0xF6 0x15 0xF6 0x26 0x7E 0x98 0x19 0x22 0x3F 0x00 0x9C 0x76 0x66 0x01 0x20 0x07 0xC0 0xE8 0x21 0x20 
write to 0x0B ack data: 0x05 0x05 0xBD 0x48 0xF3 0xFF 0xE8 
write to 0x0B ack data: 0x05 0x1F 0xC0 0x48 0x32 0x9C 0x81 0xF6 0x15 0xF6 0x26 0x6E 0x07 0x66 0x0E 0xF6 0x51 0xF6 0x62 0x9C 0x81 0xE5 0x24 0x2E 0x21 0xFF 0x3F 0xED 0x01 0x04 0xC0 0x11 0x00 
write to 0x0B ack data: 0x05 0x05 0xDD 0x48 0xA6 0x42 0xAA 
write to 0x0B ack data: 0x05 0x1F 0xE0 0x48 0x2F 0x2E 0x2D 0x9A 0x75 0x20 0xA6 0x0B 0xE8 0xE1 0x94 0x08 0xEA 0x61 0x20 0x26 0x45 0xE8 0x21 0x9A 0xEA 0x61 0x20 0x44 0x45 0xE8 0x21 0x9A 0x3D 
write to 0x0B ack data: 0x05 0x05 0xFD 0x48 0x3F 0xD2 0x07 
write to 0x0B ack data: 0x05 0x1F 0x00 0x49 0x8C 0x09 0x22 0x09 0x00 0x73 0x9F 0x1F 0x48 0x98 0x1F 0x73 0xE6 0x22 0xF9 0xB3 0xC3 0x66 0x0E 0xA6 0x30 0xA6 0x14 0xA6 0x15 0x9C 0x80 0x66 0x01 
write to 0x0B ack data: 0x05 0x05 0x1D 0x49 0x9C 0x80 0x24 
write to 0x0B ack data: 0x05 0x1F 0x20 0x49 0x3F 0x00 0x35 0x9C 0x7D 0x20 0xC7 0x31 0xE8 0x21 0x2F 0x2D 0x9A 0xA2 0xA0 0x3F 0x9F 0x6D 0x02 0xA6 0x2A 0x98 0x17 0xBA 0x8A 0xA6 0xA2 0x9F 0x59 
write to 0x0B ack data: 0x05 0x05 0x3D 0x49 0x48 0xF6 0x14 
write to 0x0B ack data: 0x05 0x1F 0x40 0x49 0x40 0x00 0xD0 0x55 0x84 0x08 0xE0 0xA0 0x01 0x84 0x03 0x72 0x98 0x07 0xE6 0x5A 0x00 0x87 0xE4 0x62 0x01 0x2F 0xA0 0x0A 0x9A 0x3D 0x3E 0x3F 0xA7 
write to 0x0B ack data: 0x05 0x05 0x5D 0x49 0x0A 0x11 0xC4 
write to 0x0B ack data: 0x05 0x1F 0x60 0x49 0xA6 0x4D 0x24 0xC6 0x45 0x05 0x00 0x24 0x4C 0x46 0x42 0x02 0xCA 0x20 0x84 0x03 0x35 0x98 0x6A 0xDA 0x00 0x88 0x66 0x9F 0x6D 0x02 0xA6 0x2C 0x31 
write to 0x0B ack data: 0x05 0x05 0x7D 0x49 0x32 0x11 0xC0 
write to 0x0B ack data: 0x05 0x1F 0x80 0x49 0x12 0xC2 0x98 0x2B 0xBC 0x8C 0xA6 0xCE 0x7F 0xEF 0x64 0xEC 0x64 0x20 0x64 0x02 0xE8 0x24 0x02 0x00 0x03 0x02 0x12 0xC6 0x13 0xC8 0x3B 0x3A 0x01 
write to 0x0B ack data: 0x05 0x05 0x9D 0x49 0xC4 0x02 0xC6 
write to 0x0B ack data: 0x05 0x1F 0xA0 0x49 0x9C 0x89 0xAC 0xDA 0x00 0x88 0x08 0x03 0xC6 0x04 0xC8 0x13 0xC0 0x14 0xC2 0xE6 0x5C 0x00 0x87 0xD0 0xF6 0x51 0x32 0x9C 0x86 0x03 0xC0 0x04 0xC2 
write to 0x0B ack data: 0x05 0x05 0xBD 0x49 0x3C 0x3B 0x9C 
write to 0x0B ack data: 0x05 0x1F 0xC0 0x49 0x79 0xAC 0x9D 0x02 0x7F 0x24 0xCA 0x45 0x05 0x00 0xED 0x51 0x8C 0x0F 0x24 0xC8 0x45 0x02 0x00 0xF6 0x15 0xF6 0x20 0xE9 0x50 0x94 0x02 0xF6 0x25 
write to 0x0B ack data: 0x05 0x05 0xDD 0x49 0xE6 0x5D 0x00 
write to 0x0B ack data: 0x05 0x1F 0xE0 0x49 0x84 0x07 0xF4 0x55 0xC4 0x94 0x02 0x05 0xC4 0xF6 0x51 0xA5 0x0A 0x2F 0x2E 0x2D 0x9A 0x3F 0x20 0x5A 0xF4 0xE8 0x21 0x9C 0x76 0x9C 0x85 0xF7 0x80 
write to 0x0B ack data: 0x05 0x05 0xFD 0x49 0x37 0xF7 0x00 
write to 0x0B ack data: 0x05 0x1F 0x00 0x4A 0x00 0x9C 0x79 0xAC 0x9C 0x6F 0x2F 0x9A 0x3D 0x3E 0x3F 0xA7 0x07 0x11 0xC0 0x12 0xC4 0x56 0xC6 0xA6 0x7A 0xF6 0x81 0x9F 0x81 0x48 0xA6 0x2C 0xD2 
write to 0x0B ack data: 0x05 0x05 0x1D 0x4A 0x00 0x84 0x0A 
write to 0x0B ack data: 0x05 0x1F 0x20 0x4A 0xE6 0x5A 0x00 0x84 0x05 0x31 0x11 0xC0 0x6C 0x01 0x42 0xC6 0x9F 0x6C 0x48 0xA6 0xCA 0x7B 0xED 0x95 0xED 0x65 0x02 0xC0 0xED 0x21 0x9F 0x47 0x48 
write to 0x0B ack data: 0x05 0x05 0x3D 0x4A 0x11 0xC2 0xA6 
write to 0x0B ack data: 0x05 0x1F 0x40 0x4A 0xC4 0x01 0xC4 0x9F 0xE4 0x48 0x02 0xC0 0x9F 0x47 0x48 0xF6 0x12 0x01 0xC4 0x9F 0xF1 0x49 0xF6 0x16 0xF6 0x27 0x4A 0xC6 0x7B 0xED 0x64 0xEC 0x64 
write to 0x0B ack data: 0x05 0x05 0x5D 0x4A 0x20 0x64 0x02 
write to 0x0B ack data: 0x05 0x1F 0x60 0x4A 0xE8 0x24 0x11 0x00 0x12 0x02 0x01 0xC2 0xA6 0x30 0xA6 0x14 0xA6 0x15 0x9C 0x85 0x3F 0x3E 0x9C 0x79 0xAC 0x9D 0xFF 0x7E 0xAF 0x2F 0x2E 0x2D 0x9A 
write to 0x0B ack data: 0x05 0x05 0x7D 0x4A 0x3F 0xF6 0x23 
write to 0x0B ack data: 0x05 0x1F 0x80 0x4A 0x22 0x00 0x04 0x9F 0x2F 0x77 0x2F 0x9A 0x3D 0x3E 0x3F 0xA7 0x07 0x11 0xC0 0x12 0xC2 0x13 0xC4 0xF9 0x30 0x84 0x05 0x21 0x01 0x00 0x11 0xC4 0xE0 
write to 0x0B ack data: 0x05 0x05 0x9D 0x4A 0x98 0xCD 0x98 
write to 0x0B ack data: 0x05 0x1F 0xA0 0x4A 0x19 0xA6 0x8C 0x7D 0xEE 0x65 0xF4 0x25 0xC0 0x03 0xC4 0x02 0xC2 0x01 0x40 0x58 0xC6 0x9F 0x2F 0x77 0x11 0x40 0x48 0xC6 0xB8 0x98 0xE6 0x58 0x0E 
write to 0x0B ack data: 0x05 0x05 0xBD 0x4A 0x97 0xE2 0xAF 
write to 0x0B ack data: 0x05 0x1F 0xC0 0x4A 0x2F 0x2E 0x2D 0x9A 0x3D 0x3E 0x3F 0xA7 0x07 0x11 0xC0 0x12 0xC2 0x49 0xCD 0x13 0xC4 0xF9 0x30 0x84 0x05 0x21 0x01 0x00 0x11 0xC4 0x25 0x80 0x45 
write to 0x0B ack data: 0x05 0x05 0xDD 0x4A 0xE0 0x59 0x52 
write to 0x0B ack data: 0x05 0x1F 0xE0 0x4A 0x94 0x1B 0x98 0x1E 0xB9 0x89 0xA6 0x9C 0x7D 0xEE 0x65 0xF4 0x25 0xC0 0x03 0xC4 0x02 0xC2 0x01 0x40 0x59 0xC6 0x9F 0x2F 0x77 0x11 0x40 0x49 0xC6 
write to 0x0B ack data: 0x05 0x05 0xFD 0x4A 0xE6 0x59 0x00 
write to 0x0B ack data: 0x05 0x1F 0x00 0x4B 0x87 0xE2 0xAF 0x2F 0x2E 0x2D 0x9A 0x3D 0x3E 0x3F 0xA7 0x03 0xF6 0x16 0x54 0xC2 0xA6 0x42 0x9F 0x59 0x48 0xF6 0x15 0x40 0x40 0xD0 0x55 0x84 0x22 
write to 0x0B ack data: 0x05 0x05 0x1D 0x4B 0x40 0x41 0x90 
write to 0x0B ack data: 0x05 0x1F 0x20 0x4B 0x15 0x62 0x55 0x52 0x81 0x52 0x80 0x42 0xC2 0x9F 0x59 0x48 0x23 0x20 0x00 0xF6 0x62 0x9F 0x86 0x6D 0x98 0x3E 0x11 0xC0 0x20 0x80 0x00 0xE8 0x25 
write to 0x0B ack data: 0x05 0x05 0x3D 0x4B 0x98 0x07 0xE6 
write to 0x0B ack data: 0x05 0x1F 0x40 0x4B 0x22 0x80 0xB3 0xD3 0x11 0xC0 0xF6 0x51 0x9F 0x29 0x6D 0x66 0x1E 0xEE 0x92 0xEA 0x92 0xED 0x91 0xE9 0x91 0x9F 0x45 0x6D 0x73 0x53 0x81 0x62 0x55 
write to 0x0B ack data: 0x05 0x05 0x5D 0x4B 0x52 0x80 0x66 
write to 0x0B ack data: 0x05 0x1F 0x60 0x4B 0x02 0xF6 0x62 0xF6 0x51 0x9F 0x45 0x6D 0x73 0x53 0x80 0x66 0x02 0xF6 0x62 0x01 0xC0 0x9F 0x45 0x6D 0xA1 0x00 0xB2 0xE7 0x08 0x40 0xA6 0x13 0xC3 
write to 0x0B ack data: 0x05 0x05 0x7D 0x4B 0x01 0xE6 0x43 
write to 0x0B ack data: 0x05 0x1F 0x80 0x4B 0x01 0xA1 0x02 0xB2 0xC2 0xFB 0xE7 0x38 0x04 0xC0 0x04 0xB0 0x12 0xA3 0xB2 0x20 0xAB 0x2F 0x2E 0x2D 0x9A 0x3D 0x3F 0xA7 0x02 0xA6 0x2B 0x62 0x55 
write to 0x0B ack data: 0x05 0x05 0x9D 0x4B 0x52 0xC0 0x5B 
write to 0x0B ack data: 0x05 0x1F 0xA0 0x4B 0xC1 0x9F 0x6D 0x02 0xA6 0x2A 0x98 0x26 0xBA 0x8A 0xA6 0xA2 0x9F 0x59 0x48 0xF6 0x14 0x42 0x01 0xBB 0x52 0x90 0x17 0x40 0x00 0xD0 0x55 0x84 0x11 
write to 0x0B ack data: 0x05 0x05 0xBD 0x4B 0xD2 0x55 0x90 
write to 0x0B ack data: 0x05 0x1F 0xC0 0x4B 0x04 0xD2 0x05 0x84 0x09 0x66 0x02 0xF6 0x82 0xF6 0x41 0x9F 0x45 0x6D 0xE6 0x5A 0x00 0x87 0xD5 0xAA 0x2F 0x2D 0x9A 0x24 0xCA 0x01 0x31 0x32 0x11 
write to 0x0B ack data: 0x05 0x05 0xDD 0x4B 0x2C 0x12 0x2E 
write to 0x0B ack data: 0x05 0x1F 0xE0 0x4B 0x60 0x10 0xF3 0xB0 0x9A 0x3F 0xA7 0x06 0x24 0x97 0x02 0x01 0x08 0x02 0x0A 0x11 0xC0 0x12 0xC2 0x02 0x04 0x12 0xC4 0x23 0x06 0x00 0xF6 0x82 0x21 
write to 0x0B ack data: 0x05 0x05 0xFD 0x4B 0x0F 0x42 0x9F 
write to 0x0B ack data: 0x05 0x1F 0x00 0x4C 0x86 0x6D 0xAE 0x2F 0x9A 0x3F 0xA4 0x32 0x00 0x9F 0x03 0x47 0xD2 0x00 0x84 0x09 0xA1 0x02 0xB2 0xE6 0x12 0x10 0xA3 0xB2 0x20 0x2F 0x9A 0x3D 0x3F 
write to 0x0B ack data: 0x05 0x05 0x1D 0x4C 0xA1 0x00 0x30 
write to 0x0B ack data: 0x05 0x1F 0x20 0x4C 0x90 0x06 0x9F 0xAF 0x66 0x9F 0x5D 0x39 0x24 0x97 0x02 0x05 0x10 0x9F 0x6D 0x02 0x73 0x24 0xC1 0x45 0x02 0x00 0x9C 0x75 0x24 0xBE 0x45 0xF4 0x21 
write to 0x0B ack data: 0x05 0x05 0x3D 0x4C 0x00 0xE9 0xE5 
write to 0x0B ack data: 0x05 0x1F 0x40 0x4C 0x94 0x0E 0x9F 0xBB 0x35 0x24 0xDD 0x45 0xE0 0x52 0x00 0x94 0x03 0x9F 0xD0 0x56 0x2F 0x2D 0x9A 0x3D 0xA2 0xC0 0xF6 0x15 0x7C 0x24 0x29 0x46 0x01 
write to 0x0B ack data: 0x05 0x05 0x5D 0x4C 0x00 0xA6 0x30 
write to 0x0B ack data: 0x05 0x1F 0x60 0x4C 0xA6 0x14 0xA6 0x15 0x3A 0x39 0x24 0x80 0x45 0x42 0x3B 0x73 0x32 0x9C 0x78 0xAC 0x66 0x08 0x9C 0x81 0xE9 0xE5 0x80 0x02 0x6C 0x01 0xA6 0xC2 0xA0 
write to 0x0B ack data: 0x05 0x05 0x7D 0x4C 0x0C 0x2D 0x9A 
write to 0x0B ack data: 0x05 0x1F 0x80 0x4C 0x3D 0x3E 0x24 0x46 0x44 0x44 0x01 0x75 0x33 0x3B 0x3A 0x32 0x9C 0x78 0xAC 0x9C 0x85 0x24 0x00 0x40 0x00 0x0C 0x38 0x00 0x0A 0x38 0x9C 0x79 0xAC 
write to 0x0B ack data: 0x05 0x05 0x9D 0x4C 0xF7 0xE0 0x31 
write to 0x0B ack data: 0x05 0x1F 0xA0 0x4C 0xF7 0x6B 0xF8 0x9C 0x79 0xAC 0xF6 0x15 0xF6 0x26 0xF7 0xFF 0x46 0xF7 0x00 0xFE 0x9C 0x89 0xAC 0xDA 0x00 0x80 0x05 0x21 0xFF 0x7F 0x98 0x07 0xF6 
write to 0x0B ack data: 0x05 0x05 0xBD 0x4C 0x51 0xF6 0x62 
write to 0x0B ack data: 0x05 0x1F 0xC0 0x4C 0x9D 0xFF 0x7E 0x2E 0x2D 0x9A 0x3D 0xA2 0xD0 0x3F 0xA7 0x04 0x11 0xC2 0xA6 0x42 0xA6 0x5A 0xA6 0x6D 0x22 0x00 0x40 0x73 0x9F 0xB6 0x73 0x11 0xC0 
write to 0x0B ack data: 0x05 0x05 0xDD 0x4C 0x7B 0xED 0x64 
write to 0x0B ack data: 0x05 0x1F 0xE0 0x4C 0x20 0x06 0x02 0xE8 0x24 0x01 0xC2 0xF4 0xC9 0x14 0xE6 0x5D 0x00 0x84 0x02 0x9C 0x6A 0x74 0xF4 0xE1 0xC0 0x94 0x02 0x64 0x01 0xA6 0x42 0xAC 0x2F 
write to 0x0B ack data: 0x05 0x05 0xFD 0x4C 0xA0 0x0D 0x2D 
write to 0x0B ack data: 0x05 0x1F 0x00 0x4D 0x9A 0x3D 0x3E 0x3F 0xA7 0x02 0x11 0xC0 0xA6 0x4D 0x9F 0x6D 0x02 0xA6 0x2C 0x98 0x18 0xBC 0x8C 0xA6 0xCA 0x7B 0xED 0x64 0xF4 0x24 0xC0 0x76 0xA6 
write to 0x0B ack data: 0x05 0x05 0x1D 0x4D 0xC5 0xA6 0xD4 
write to 0x0B ack data: 0x05 0x1F 0x20 0x4D 0x01 0x00 0x9F 0xC6 0x4C 0xD2 0x00 0x90 0x07 0xE6 0x5C 0x00 0x87 0xE3 0x62 0x01 0xAA 0x2F 0x2E 0x2D 0x9A 0x3D 0x3E 0x3F 0xA7 0x11 0x11 0xCD 0x9F 
write to 0x0B ack data: 0x05 0x05 0x3D 0x4D 0x6D 0x02 0x52 
write to 0x0B ack data: 0x05 0x1F 0x40 0x4D 0xCA 0x21 0xFF 0x7F 0x98 0x90 0xE0 0x83 0xCA 0x53 0xCA 0x24 0x06 0x42 0x40 0x08 0xC0 0x03 0x90 0x68 0x53 0xCB 0x79 0x59 0xCC 0xF4 0x64 0xCB 0xF6 
write to 0x0B ack data: 0x05 0x05 0x5D 0x4D 0x45 0x20 0x06 
write to 0x0B ack data: 0x05 0x1F 0x60 0x4D 0x42 0xE8 0x25 0x01 0x40 0x11 0xC6 0xF4 0x24 0xCD 0x05 0x00 0x24 0x29 0x46 0x02 0x00 0x24 0x80 0x45 0x42 0x3C 0x73 0x9F 0xB6 0x73 0xF6 0x16 0x24 
write to 0x0B ack data: 0x05 0x05 0x7D 0x4D 0x29 0x46 0x02 
write to 0x0B ack data: 0x05 0x1F 0x80 0x4D 0x00 0x24 0x80 0x45 0x42 0x3D 0x73 0x9F 0xB6 0x73 0x30 0xE8 0xE5 0x94 0x22 0x02 0xC6 0xEE 0x22 0xEA 0xE5 0x8C 0x0A 0x02 0xC6 0xEE 0xC2 0xED 0xE2 
write to 0x0B ack data: 0x05 0x05 0x9D 0x4D 0x88 0x02 0xF6 
write to 0x0B ack data: 0x05 0x1F 0xA0 0x4D 0x52 0xF6 0x25 0xE9 0xE2 0x94 0x02 0xF6 0x15 0xF4 0x64 0xCB 0xF4 0x24 0xCD 0x15 0x00 0xF6 0x51 0xF4 0xC9 0xC6 0x9C 0x6A 0xEE 0xE1 0x8C 0xDC 0x49 
write to 0x0B ack data: 0x05 0x05 0xBD 0x4D 0xCA 0x59 0xCF 
write to 0x0B ack data: 0x05 0x1F 0xC0 0x4D 0x7A 0x5A 0xD0 0xF4 0x64 0xCF 0xF4 0x24 0xCD 0x01 0x00 0x30 0xE8 0xE1 0x94 0xC8 0x02 0xC8 0xE9 0xE2 0x94 0x02 0x11 0xC8 0x45 0xCA 0xD5 0x00 0x87 
write to 0x0B ack data: 0x05 0x05 0xDD 0x4D 0x68 0x98 0xBF 
write to 0x0B ack data: 0x05 0x1F 0xE0 0x4D 0x04 0xCD 0x42 0x08 0xC2 0xFC 0xE6 0x12 0x01 0x52 0x08 0x98 0x78 0x05 0xCD 0x43 0x48 0xC3 0xFC 0xE6 0x13 0x02 0x53 0x48 0x24 0x06 0x42 0x42 0x08 
write to 0x0B ack data: 0x05 0x05 0xFD 0x4D 0xCA 0x03 0xD0 
write to 0x0B ack data: 0x05 0x1F 0x00 0x4E 0x02 0x84 0x07 0xA6 0x32 0xE6 0x12 0x08 0x52 0x48 0x24 0x06 0x42 0x40 0x08 0xC0 0x08 0x84 0x52 0x9F 0x6D 0x02 0xA6 0x2D 0xA6 0x2C 0x31 0x32 0x11 
write to 0x0B ack data: 0x05 0x05 0x1D 0x4E 0xC2 0x12 0xC4 
write to 0x0B ack data: 0x05 0x1F 0x20 0x4E 0x98 0x27 0xBC 0x8C 0xA6 0xC2 0x9F 0x6C 0x48 0x24 0x80 0x45 0x4A 0x13 0x7B 0xED 0x92 0xEA 0x64 0xE9 0x24 0x01 0x00 0xA6 0x30 0xA6 0x14 0xA6 0x15 
write to 0x0B ack data: 0x05 0x05 0x3D 0x4E 0x03 0xC2 0x04 
write to 0x0B ack data: 0x05 0x1F 0x40 0x4E 0xC4 0xE9 0x23 0xEA 0x34 0x13 0xC2 0x14 0xC4 0xE6 0x5C 0x00 0x87 0xD4 0x01 0xC2 0x02 0xC4 0xA6 0xD8 0x79 0x35 0x9C 0x7D 0x11 0xC0 0x23 0x02 0x00 
write to 0x0B ack data: 0x05 0x05 0x5D 0x4E 0xF6 0x82 0x21 
write to 0x0B ack data: 0x05 0x1F 0x60 0x4E 0x00 0x42 0x9F 0x86 0x6D 0x24 0xCA 0x01 0x35 0x15 0x18 0x60 0xFB 0xF2 0xB1 0x23 0x09 0x00 0x02 0xCD 0x21 0x06 0x42 0x9F 0x86 0x6D 0xE4 0xB3 0xB2 
write to 0x0B ack data: 0x05 0x05 0x7D 0x4E 0xC3 0x01 0xE6 
write to 0x0B ack data: 0x05 0x1F 0x80 0x4E 0x43 0x01 0xA1 0x02 0xB2 0xC2 0xFD 0xB3 0x60 0xC0 0x02 0xB0 0x12 0xA3 0xB2 0x20 0x60 0x08 0xF3 0xB4 0x62 0x01 0x98 0x01 0x72 0xA5 0x11 0x2F 0x2E 
write to 0x0B ack data: 0x05 0x05 0x9D 0x4E 0x2D 0x9A 0x72 
write to 0x0B ack data: 0x05 0x1F 0xA0 0x4E 0x9F 0x95 0x4B 0x24 0x40 0x42 0x01 0x00 0x05 0xCD 0x11 0x46 0x02 0xC8 0x12 0x44 0x62 0x01 0x9F 0xA6 0x43 0xD2 0x00 0x87 0x27 0x99 0x32 0x3D 0x3E 
write to 0x0B ack data: 0x05 0x05 0xBD 0x4E 0x3F 0xA7 0x06 
write to 0x0B ack data: 0x05 0x1F 0xC0 0x4E 0xF6 0x16 0xA6 0x4A 0xD5 0x00 0x90 0x61 0x24 0xCA 0x01 0x01 0x0B 0x9C 0x6A 0x11 0xC4 0x31 0x32 0x11 0xC0 0x12 0xC2 0x7B 0xED 0x64 0x20 0x06 0x42 
write to 0x0B ack data: 0x05 0x05 0xDD 0x4E 0xE8 0x24 0x01 
write to 0x0B ack data: 0x05 0x1F 0xE0 0x4E 0x00 0x11 0xC1 0xF6 0x62 0xE9 0xC2 0xF6 0x21 0x9C 0x6A 0xF6 0x15 0x02 0xC1 0x24 0x80 0x45 0x42 0x3A 0x73 0x9F 0xB6 0x73 0xE9 0x55 0x8C 0x2C 0x01 
write to 0x0B ack data: 0x05 0x05 0xFD 0x4E 0xC4 0x9F 0x53 
write to 0x0B ack data: 0x05 0x1F 0x00 0x4F 0x4C 0xD2 0x00 0x90 0x23 0x03 0xC4 0x24 0x29 0x46 0x02 0x00 0x24 0x80 0x45 0x42 0x3B 0x73 0x9F 0x2F 0x77 0x20 0xFF 0x00 0xE8 0x51 0x8C 0x0C 0xF6 
write to 0x0B ack data: 0x05 0x05 0x1D 0x4F 0x13 0xF6 0x62 
write to 0x0B ack data: 0x05 0x1F 0x20 0x4F 0xF6 0x81 0x9C 0x6B 0x06 0xC1 0x98 0x01 0x36 0xF6 0x61 0xAE 0x2F 0x2E 0x2D 0x9A 0x3D 0x3F 0xF6 0x15 0x40 0x5D 0x90 0x16 0x64 0x0D 0x21 0xD5 0x01 
write to 0x0B ack data: 0x05 0x05 0x3D 0x4F 0x9C 0x68 0x23 
write to 0x0B ack data: 0x05 0x1F 0x40 0x4F 0x04 0x00 0xF6 0x52 0xE6 0x24 0x24 0xB5 0xD5 0x21 0x1A 0x02 0x9C 0x71 0x2F 0x2D 0x9A 0x3D 0x3E 0x3F 0xA7 0x13 0x11 0xCD 0xF6 0x14 0x40 0x1D 0x90 
write to 0x0B ack data: 0x05 0x05 0x5D 0x4F 0xF1 0xA1 0x00 
write to 0x0B ack data: 0x05 0x1F 0x60 0x4F 0xB1 0xC0 0x08 0x90 0xEA 0x26 0xCA 0x01 0x01 0x8D 0x9F 0x80 0x4C 0xF6 0x15 0x24 0x29 0x46 0x02 0x00 0x24 0x80 0x45 0x42 0x39 0x73 0x9F 0xC9 0x73 
write to 0x0B ack data: 0x05 0x05 0x7D 0x4F 0xE9 0xC5 0x88 
write to 0x0B ack data: 0x05 0x1F 0x80 0x4F 0xCE 0x01 0x8B 0x9C 0x6A 0x11 0xC9 0x24 0x06 0x42 0x40 0x08 0xC0 0x03 0x90 0x1C 0x24 0x80 0x45 0x44 0x37 0x01 0xCD 0xE6 0x22 0x24 0xB3 0xD3 0x9F 
write to 0x0B ack data: 0x05 0x05 0x9D 0x4F 0x01 0x4D 0xD2 
write to 0x0B ack data: 0x05 0x1F 0xA0 0x4F 0x00 0x90 0xA5 0x01 0xC9 0x9F 0x53 0x4C 0xD2 0x00 0x90 0x9C 0x60 0xF7 0xF2 0xB1 0x24 0x06 0x42 0x40 0x08 0xC0 0x03 0x84 0x13 0x24 0x80 0x45 0x44 
write to 0x0B ack data: 0x05 0x05 0xBD 0x4F 0x38 0x01 0xCD 
write to 0x0B ack data: 0x05 0x1F 0xC0 0x4F 0xE6 0x22 0x24 0xB3 0xD3 0x9F 0x01 0x4D 0xD2 0x00 0x90 0x83 0x24 0xCA 0x01 0x01 0x0D 0x9F 0x80 0x4C 0xF6 0x15 0x02 0xC9 0x24 0x80 0x45 0x42 0x39 
write to 0x0B ack data: 0x05 0x05 0xDD 0x4F 0x73 0x9F 0xC9 
write to 0x0B ack data: 0x05 0x1F 0xE0 0x4F 0x73 0xE9 0xC5 0x88 0x6A 0x23 0x09 0x00 0x22 0x06 0x42 0xF6 0x81 0x9C 0x71 0x9F 0x6D 0x02 0xA6 0x2C 0x98 0x40 0xBC 0x8C 0x24 0x06 0x42 0x4D 0x08 
write to 0x0B ack data: 0x05 0x05 0xFD 0x4F 0xE6 0x0D 0x03 
write to 0x0B ack data: 0x05 0x1F 0x00 0x50 0x5C 0xCB 0x79 0x59 0xCC 0xF4 0x65 0xCB 0x01 0xCD 0xED 0x21 0x11 0xCF 0xF6 0x54 0x20 0x06 0x02 0xE8 0x24 0x14 0xD1 0xF6 0x14 0x01 0x24 0x04 0xD1 
write to 0x0B ack data: 0x05 0x05 0x1D 0x50 0xF4 0xC9 0x14 
write to 0x0B ack data: 0x05 0x1F 0x20 0x50 0x9C 0x6A 0xF6 0x12 0x01 0xC9 0x9F 0x1F 0x48 0xA6 0xD5 0xA6 0xC4 0x9F 0xBB 0x4E 0xF6 0x80 0xE8 0x25 0x11 0x40 0xE6 0x5C 0x00 0x87 0xBB 0xF6 0x81 
write to 0x0B ack data: 0x05 0x05 0x3D 0x50 0x9F 0x35 0x4D 
write to 0x0B ack data: 0x05 0x1F 0x40 0x50 0xD2 0x00 0x90 0x04 0x62 0x01 0x98 0x08 0x72 0x04 0xCD 0x52 0x1D 0x98 0x01 0x72 0xA5 0x13 0x2F 0x2E 0x2D 0x9A 0x3D 0x3E 0x3F 0xA7 0x02 0x11 0xC0 
write to 0x0B ack data: 0x05 0x05 0x5D 0x50 0xF6 0x26 0x05 
write to 0x0B ack data: 0x05 0x1F 0x60 0x50 0x82 0xF6 0x14 0x15 0x29 0x4A 0x86 0x7B 0xF6 0x21 0x9F 0xAD 0x47 0xED 0x64 0xF4 0x24 0xC0 0x11 0x24 0x4A 0x86 0xED 0x64 0x01 0xC0 0xEC 0x21 0x11 
write to 0x0B ack data: 0x05 0x05 0x7D 0x50 0xC0 0x20 0x06 
write to 0x0B ack data: 0x05 0x1F 0x80 0x50 0x02 0xE8 0x24 0xF6 0x15 0x05 0x64 0x15 0x0C 0xAA 0x2F 0x2E 0x2D 0x9A 0x3D 0x3E 0x3F 0xA7 0x0F 0xF6 0x16 0x23 0x04 0x00 0x22 0x9F 0x02 0xF6 0x81 
write to 0x0B ack data: 0x05 0x05 0x9D 0x50 0x9C 0x71 0x23 
write to 0x0B ack data: 0x05 0x1F 0xA0 0x50 0x04 0x00 0x22 0xAD 0x02 0xF6 0x81 0xE6 0x22 0x04 0xB3 0xD3 0x9C 0x71 0x24 0x97 0x02 0x01 0x00 0x11 0xCA 0x9F 0x6D 0x02 0x52 0xCE 0x98 0x21 0xB2 
write to 0x0B ack data: 0x05 0x05 0xBD 0x50 0x82 0xA6 0x2A 
write to 0x0B ack data: 0x05 0x1F 0xC0 0x50 0x7B 0xED 0x64 0xF6 0x80 0xE8 0x24 0x02 0x00 0x12 0xC8 0x02 0x04 0x12 0xCC 0x52 0xCE 0xF6 0x82 0xE6 0x24 0x08 0xB5 0xD5 0xF6 0x61 0x9F 0x56 0x50 
write to 0x0B ack data: 0x05 0x05 0xDD 0x50 0x42 0xCE 0x87 
write to 0x0B ack data: 0x05 0x1F 0xE0 0x50 0xDB 0xA5 0x0F 0x2F 0x2E 0x2D 0x9A 0x3D 0x3F 0xA1 0x00 0xB1 0xC0 0x10 0x90 0x41 0x9F 0x6D 0x02 0x24 0xD4 0x44 0x07 0x00 0x24 0xD2 0x44 0x05 0x00 
write to 0x0B ack data: 0x05 0x05 0xFD 0x50 0x98 0x16 0xB2 
write to 0x0B ack data: 0x05 0x1F 0x00 0x51 0x82 0xA6 0x24 0x75 0xEA 0x64 0x20 0x97 0x02 0xE8 0x24 0x03 0x08 0xEF 0xE3 0x94 0x04 0xED 0xE3 0x80 0x1C 0xD2 0x00 0x87 0xE6 0x9F 0xC8 0x01 0x25 
write to 0x0B ack data: 0x05 0x05 0x1D 0x51 0x80 0x45 0xF4 
write to 0x0B ack data: 0x05 0x1F 0x20 0x51 0xE1 0x5F 0x8C 0x0D 0x9F 0xC8 0x01 0x74 0xF4 0xE1 0x61 0x80 0x05 0x64 0x01 0x98 0x01 0x74 0xA6 0x42 0x2F 0x2D 0x9A 0xA2 0xA0 0x3E 0x3F 0xF6 0x16 
write to 0x0B ack data: 0x05 0x05 0x3D 0x51 0xA6 0x4A 0x64 
write to 0x0B ack data: 0x05 0x1F 0x40 0x51 0x2D 0x9C 0x68 0xE6 0x5A 0x00 0x90 0x1E 0x24 0xCA 0x01 0x31 0x32 0x11 0x2C 0x12 0x2E 0xA1 0x00 0xB1 0xE7 0x08 0x10 0xA6 0x12 0xC2 0x01 0x52 0xA1 
write to 0x0B ack data: 0x05 0x05 0x5D 0x51 0x60 0xDF 0xF2 
write to 0x0B ack data: 0x05 0x1F 0x60 0x51 0xB1 0x9F 0xE7 0x50 0x52 0x9D 0x60 0x10 0xF3 0xB0 0x60 0xDF 0xF2 0xB4 0x2F 0x2E 0xA0 0x0A 0x9A 0x3F 0x23 0x04 0x00 0xF6 0x12 0xE6 0x24 0x24 0xB5 
write to 0x0B ack data: 0x05 0x05 0x7D 0x51 0xD5 0x21 0x16 
write to 0x0B ack data: 0x05 0x1F 0x80 0x51 0x02 0x9C 0x71 0x64 0x0B 0x21 0xCA 0x01 0x9C 0x68 0x60 0x20 0xF3 0xB4 0x64 0x06 0x21 0x06 0x02 0x9C 0x68 0x24 0x5F 0x02 0x40 0x04 0xD0 0x02 0x84 
write to 0x0B ack data: 0x05 0x05 0x9D 0x51 0x04 0x62 0x01 
write to 0x0B ack data: 0x05 0x1F 0xA0 0x51 0x52 0x04 0x9F 0xC8 0x01 0x24 0xE2 0x45 0xF4 0xE1 0x00 0x94 0x03 0x9F 0xD0 0x56 0x2F 0x9A 0xA2 0xA0 0x3E 0x3F 0xA7 0x09 0xF6 0x16 0x40 0xA3 0x84 
write to 0x0B ack data: 0x05 0x05 0xBD 0x51 0x87 0xE4 0x60 
write to 0x0B ack data: 0x05 0x1F 0xC0 0x51 0xB4 0x80 0x82 0x24 0x4C 0x46 0x40 0x02 0xC0 0x08 0x90 0x79 0x24 0x97 0x02 0x01 0x00 0x11 0xC2 0x24 0x06 0x42 0x01 0x0D 0x11 0xC4 0x9F 0x6D 0x02 
write to 0x0B ack data: 0x05 0x05 0xDD 0x51 0x52 0xC6 0x98 
write to 0x0B ack data: 0x05 0x1F 0xE0 0x51 0x30 0x53 0xC7 0x73 0x53 0xC8 0xF4 0x64 0xC7 0x20 0x06 0x42 0xE8 0x24 0x01 0x09 0x11 0xC0 0xF6 0x82 0xF6 0x61 0x9F 0x56 0x50 0x4A 0xC6 0xA6 0xA6 
write to 0x0B ack data: 0x05 0x05 0xFD 0x51 0x24 0xCA 0x01 
write to 0x0B ack data: 0x05 0x1F 0x00 0x52 0x02 0x28 0x21 0x22 0x02 0x9F 0xE7 0x47 0xA6 0xA4 0x75 0xEA 0x64 0xEE 0x24 0x11 0x24 0x42 0xC6 0xB2 0x83 0x53 0xC6 0xD2 0x00 0x87 0xC6 0x23 0x04 
write to 0x0B ack data: 0x05 0x05 0x1D 0x52 0x00 0xF6 0x62 
write to 0x0B ack data: 0x05 0x1F 0x20 0x52 0xE6 0x24 0x24 0xB5 0xD5 0x21 0x12 0x02 0x9C 0x71 0x24 0x4C 0x46 0x40 0x02 0xC0 0x10 0x90 0x07 0xF6 0x61 0x9F 0x51 0x4F 0x98 0x03 0x79 0x59 0x9D 
write to 0x0B ack data: 0x05 0x05 0x3D 0x52 0x62 0x01 0x52 
write to 0x0B ack data: 0x05 0x1F 0x40 0x52 0xA3 0x60 0xFB 0xF2 0xB1 0x60 0x7F 0xF2 0xB4 0x40 0xA3 0x90 0x29 0xF6 0x61 0x9F 0x73 0x51 0x40 0x9D 0x90 0x04 0x60 0x08 0xF3 0xB1 0xF6 0x61 0x9F 
write to 0x0B ack data: 0x05 0x05 0x5D 0x52 0x30 0x4F 0x9F 
write to 0x0B ack data: 0x05 0x1F 0x60 0x52 0xE9 0x2F 0x24 0x0C 0x47 0x40 0x00 0xC0 0x08 0x90 0x05 0x21 0x16 0x02 0x98 0x03 0x21 0x12 0x02 0x9F 0xCD 0x65 0x60 0xFE 0xF2 0xB1 0xA5 0x09 0x2F 
write to 0x0B ack data: 0x05 0x05 0x7D 0x52 0x2E 0xA0 0x0A 
write to 0x0B ack data: 0x05 0x1F 0x80 0x52 0x9A 0x3D 0x3E 0x3F 0xA7 0x01 0xF6 0x16 0x54 0xC0 0x25 0x97 0x02 0x24 0xCA 0x01 0x01 0x40 0x11 0x2A 0x25 0x06 0x42 0x24 0x2A 0x02 0x01 0x55 0x02 
write to 0x0B ack data: 0x05 0x05 0x9D 0x52 0x57 0x11 0x1A 
write to 0x0B ack data: 0x05 0x1F 0xA0 0x52 0x12 0x1C 0x40 0x48 0xC0 0x04 0x90 0x10 0xA1 0x02 0xB1 0xE6 0x12 0x10 0x43 0xC0 0xD3 0x00 0x90 0x09 0xC2 0xFB 0x98 0x08 0xA1 0x02 0xB1 0xC2 0xEF 
write to 0x0B ack data: 0x05 0x05 0xBD 0x52 0xE6 0x12 0x04 
write to 0x0B ack data: 0x05 0x1F 0xC0 0x52 0xA3 0xB1 0x20 0x74 0xF6 0x61 0x9F 0x37 0x51 0x44 0xC0 0x54 0x9D 0x24 0x06 0x42 0x42 0x08 0xCA 0x0B 0xD0 0x0A 0x84 0x13 0xD4 0x00 0x90 0x0C 0x9F 
write to 0x0B ack data: 0x05 0x05 0xDD 0x52 0xE7 0x50 0xD2 
write to 0x0B ack data: 0x05 0x1F 0xE0 0x52 0x00 0x90 0x05 0x21 0x01 0x00 0x98 0x01 0x31 0x52 0x9D 0xF6 0x61 0x9F 0x8E 0x50 0x65 0x01 0x55 0xA3 0x24 0xCA 0x01 0x55 0x17 0xF6 0x61 0x9F 0x30 
write to 0x0B ack data: 0x05 0x05 0xFD 0x52 0x4F 0xF6 0x61 
write to 0x0B ack data: 0x05 0x1F 0x00 0x53 0x9F 0xB2 0x51 0x9F 0xD0 0x56 0x24 0x5F 0x02 0x72 0x52 0x04 0x64 0x01 0xF6 0x61 0x9F 0x37 0x51 0x60 0x08 0xF3 0xB4 0xA9 0x2F 0x2E 0x2D 0x9A 0x3D 
write to 0x0B ack data: 0x05 0x05 0x1D 0x53 0x3E 0x3F 0xA7 
write to 0x0B ack data: 0x05 0x1F 0x20 0x53 0x1D 0x11 0xD2 0x54 0xD4 0x24 0xCA 0x01 0x01 0x2C 0x02 0x2E 0x11 0xCD 0x12 0xCF 0x24 0x80 0x45 0x01 0x03 0x32 0xE0 0x55 0xD0 0x84 0x19 0xE0 0x54 
write to 0x0B ack data: 0x05 0x05 0x3D 0x53 0xCF 0x8C 0x70 
write to 0x0B ack data: 0x05 0x1F 0x40 0x53 0xE0 0x54 0xCF 0x84 0x0F 0xE0 0x53 0xCE 0x8C 0x66 0xE0 0x53 0xCE 0x84 0x05 0xE0 0x52 0xCD 0x8C 0x5C 0x9F 0x03 0x47 0xA1 0x00 0xB2 0xC0 0x10 0x90 
write to 0x0B ack data: 0x05 0x05 0x5D 0x53 0x3A 0xD2 0x00 
write to 0x0B ack data: 0x05 0x1F 0x60 0x53 0x84 0x36 0x24 0x4C 0x46 0x40 0x00 0xC0 0x08 0x90 0x2D 0x24 0xD9 0x45 0x01 0x00 0x22 0x0A 0x00 0x9C 0x77 0xE0 0x55 0xD0 0x8C 0x36 0xE0 0x55 0xD0 
write to 0x0B ack data: 0x05 0x05 0x7D 0x53 0x84 0x19 0xE0 
write to 0x0B ack data: 0x05 0x1F 0x80 0x53 0x54 0xCF 0x8C 0x2C 0xE0 0x54 0xCF 0x84 0x0F 0xE0 0x53 0xCE 0x8C 0x22 0xE0 0x53 0xCE 0x84 0x05 0xE0 0x52 0xCD 0x8C 0x18 0xA1 0x02 0xB2 0xC2 0xEF 
write to 0x0B ack data: 0x05 0x05 0x9D 0x53 0xA3 0xB2 0x20 
write to 0x0B ack data: 0x05 0x1F 0xA0 0x53 0x04 0xD2 0x40 0x23 0x90 0x03 0x9B 0x25 0x56 0x60 0xEF 0xF2 0xB0 0x9B 0x25 0x56 0x76 0x9B 0xC4 0x55 0x9F 0x6D 0x02 0x98 0x37 0xA6 0xC6 0x77 0xEB 
write to 0x0B ack data: 0x05 0x05 0xBD 0x53 0x65 0xED 0x65 
write to 0x0B ack data: 0x05 0x1F 0xC0 0x53 0xF4 0x25 0xD2 0xEB 0x64 0x20 0x97 0x02 0xE8 0x24 0x01 0x08 0xA6 0x30 0xA6 0x14 0xA6 0x15 0xF4 0x21 0x4C 0xF4 0x3A 0x4E 0x11 0x4C 0x12 0x4E 0x01 
write to 0x0B ack data: 0x05 0x05 0xDD 0x53 0x16 0xA6 0x30 
write to 0x0B ack data: 0x05 0x1F 0xE0 0x53 0xA6 0x14 0xA6 0x15 0xF4 0x21 0x54 0xF4 0x3A 0x56 0x11 0x54 0x12 0x56 0xA6 0xC2 0xB2 0x8C 0xD2 0x00 0x87 0xC3 0x5C 0xC6 0x04 0xD2 0xF4 0x91 0x1F 
write to 0x0B ack data: 0x05 0x05 0xFD 0x53 0x11 0x1F 0x25 
write to 0x0B ack data: 0x05 0x1F 0x00 0x54 0x80 0x45 0xF4 0xC9 0x58 0x85 0x54 0x9F 0x6D 0x02 0x52 0xC6 0x69 0x01 0x98 0x47 0xA6 0x36 0x77 0xEB 0x65 0xED 0x65 0xF4 0x25 0xD2 0xEB 0x91 0xE9 
write to 0x0B ack data: 0x05 0x05 0x1D 0x54 0x64 0xEC 0x64 
write to 0x0B ack data: 0x05 0x1F 0x20 0x54 0xF4 0x24 0xD2 0x01 0x4C 0x02 0x4E 0xF4 0xC9 0x00 0xF4 0xD2 0x02 0x13 0xDB 0x9F 0x5F 0x73 0x24 0x80 0x45 0x4A 0x1E 0x7B 0x36 0xE5 0xE0 0xD5 0x8C 
write to 0x0B ack data: 0x05 0x05 0x3D 0x54 0x18 0xBD 0x55 
write to 0x0B ack data: 0x05 0x1F 0x40 0x54 0x84 0x17 0xBC 0x54 0x8C 0x10 0xBC 0x54 0x84 0x0F 0xBB 0x53 0x8C 0x08 0xBB 0x53 0x84 0x07 0xBA 0x52 0x94 0x03 0x79 0x59 0xD1 0x42 0xC6 0xB2 0x83 
write to 0x0B ack data: 0x05 0x05 0x5D 0x54 0x53 0xC6 0xD2 
write to 0x0B ack data: 0x05 0x1F 0x60 0x54 0x00 0x87 0xAD 0x42 0xD1 0xD2 0x00 0x90 0x06 0x04 0xD2 0x40 0x1C 0x84 0x0F 0x01 0xCD 0x04 0xD2 0xF4 0xC9 0x02 0x24 0x80 0x45 0xF4 0x51 0x1A 0x80 
write to 0x0B ack data: 0x05 0x05 0x7D 0x54 0x94 0x24 0x97 
write to 0x0B ack data: 0x05 0x1F 0x80 0x54 0x02 0x01 0x00 0x11 0xC2 0x72 0x04 0xD2 0x52 0x21 0x9F 0xE7 0x50 0x04 0xD2 0x52 0x1D 0x01 0xCD 0x11 0x02 0x9F 0x6D 0x02 0x52 0xC6 0x22 0xFF 0x7F 
write to 0x0B ack data: 0x05 0x05 0x9D 0x54 0x12 0xCB 0x24 
write to 0x0B ack data: 0x05 0x1F 0xA0 0x54 0x00 0x80 0x14 0xC9 0x98 0x51 0x53 0xC7 0x79 0x59 0xC8 0xF4 0x61 0xC7 0xE9 0x61 0x02 0xD2 0xE9 0x22 0x12 0xD5 0x24 0x80 0x45 0x04 0x18 0x14 0xD7 
write to 0x0B ack data: 0x05 0x05 0xBD 0x54 0x31 0x11 0xD9 
write to 0x0B ack data: 0x05 0x1F 0xC0 0x54 0xF6 0x24 0x01 0x0C 0x02 0x0E 0x04 0xD7 0x05 0xD9 0x9C 0x7D 0xF6 0x16 0x11 0xC0 0x04 0xD5 0x01 0x14 0x02 0x16 0x04 0xD7 0x05 0xD9 0x9C 0x7D 0x11 
write to 0x0B ack data: 0x05 0x05 0xDD 0x54 0xC4 0xF6 0x61 
write to 0x0B ack data: 0x05 0x1F 0xE0 0x54 0x02 0xCB 0xEE 0xE2 0x94 0x02 0x16 0xCB 0x04 0xC9 0xE9 0xE4 0x88 0x02 0x11 0xC9 0xF6 0x82 0x01 0xD2 0x9F 0x56 0x50 0x42 0xC6 0xB2 0x83 0x53 0xC6 
write to 0x0B ack data: 0x05 0x05 0xFD 0x54 0xD2 0x00 0x87 
write to 0x0B ack data: 0x05 0x1F 0x00 0x55 0xA5 0x01 0xC9 0xF4 0xC9 0xCB 0x04 0xD2 0x11 0x2B 0x62 0x01 0x52 0x28 0x43 0xCD 0x53 0x22 0x42 0xD1 0x04 0xD2 0x52 0x1C 0xF6 0x45 0x20 0x0C 0x00 
write to 0x0B ack data: 0x05 0x05 0x1D 0x55 0xE8 0x25 0x23 
write to 0x0B ack data: 0x05 0x1F 0x20 0x55 0x08 0x00 0xF6 0x52 0x01 0xD2 0xE6 0x22 0x04 0xB3 0xD3 0x9C 0x71 0x64 0x10 0xF6 0x51 0x9C 0x68 0x31 0x04 0xD2 0x11 0x1F 0x98 0x21 0x04 0xD2 0x40 
write to 0x0B ack data: 0x05 0x05 0x3D 0x55 0x23 0x90 0x1B 
write to 0x0B ack data: 0x05 0x1F 0x40 0x55 0x01 0xCD 0x11 0x02 0x73 0x53 0x1C 0x64 0x10 0x01 0xD2 0xE6 0x22 0x0C 0xB3 0xD3 0x9C 0x68 0x31 0x04 0xD2 0x11 0x1F 0x60 0xDF 0xF2 0xB4 0x04 0xD2 
write to 0x0B ack data: 0x05 0x05 0x5D 0x55 0x40 0x28 0x90 
write to 0x0B ack data: 0x05 0x1F 0x60 0x55 0x4C 0x42 0xCD 0xE0 0xC2 0x22 0x24 0x80 0x45 0xE0 0x52 0x25 0x80 0x3F 0x72 0x04 0xD2 0x52 0x28 0x63 0x01 0x53 0x23 0x01 0xD2 0x9F 0x51 0x4F 0xD2 
write to 0x0B ack data: 0x05 0x05 0x7D 0x55 0x00 0x84 0x06 
write to 0x0B ack data: 0x05 0x1F 0x80 0x55 0x04 0xD2 0x40 0x1E 0x90 0x18 0x72 0x04 0xD2 0x52 0x1E 0xA4 0xB9 0x03 0x01 0xD2 0x9F 0x73 0x51 0x24 0x4C 0x46 0xE0 0x60 0x01 0x80 0x03 0x9F 0xA6 
write to 0x0B ack data: 0x05 0x05 0x9D 0x55 0x34 0xA1 0x02 
write to 0x0B ack data: 0x05 0x1F 0xA0 0x55 0xB1 0xC2 0xFB 0xE6 0x12 0x01 0xA3 0xB1 0x20 0x60 0x10 0xF3 0xB0 0x01 0xCD 0x04 0xD2 0xF4 0xC9 0x02 0x24 0x80 0x45 0xF4 0x51 0x1C 0x80 0x04 0x60 
write to 0x0B ack data: 0x05 0x05 0xBD 0x55 0xEF 0xF2 0xB0 
write to 0x0B ack data: 0x05 0x1F 0xC0 0x55 0x04 0xD2 0x46 0x21 0x01 0xCD 0x04 0xD2 0xF4 0xC9 0x00 0x24 0x80 0x45 0xF4 0x51 0x05 0x80 0x0E 0x01 0xCD 0x04 0xD2 0x11 0x00 0x63 0x01 0x53 0x1E 
write to 0x0B ack data: 0x05 0x05 0xDD 0x55 0x60 0xEF 0xF2 
write to 0x0B ack data: 0x05 0x1F 0xE0 0x55 0xB0 0x24 0xCD 0x45 0x01 0x00 0x32 0xE0 0x55 0xD0 0x84 0x19 0xE0 0x54 0xCF 0x8C 0x1E 0xE0 0x54 0xCF 0x84 0x0F 0xE0 0x53 0xCE 0x8C 0x14 0xE0 0x53 
write to 0x0B ack data: 0x05 0x05 0xFD 0x55 0xCE 0x84 0x05 
write to 0x0B ack data: 0x05 0x1F 0x00 0x56 0xE0 0x52 0xCD 0x8C 0x0A 0x25 0x97 0x02 0x24 0xCA 0x01 0x02 0x40 0x12 0x2A 0x45 0xD4 0xD5 0x00 0x90 0x0A 0xD6 0x00 0x90 0x06 0x60 0x20 0xF3 0xB1 
write to 0x0B ack data: 0x05 0x05 0x1D 0x56 0x98 0x0E 0x60 
write to 0x0B ack data: 0x05 0x1F 0x20 0x56 0xDF 0xF2 0xB1 0x98 0x08 0xA1 0x00 0x32 0x87 0x10 0x9B 0xB4 0x53 0xA5 0x1D 0x2F 0x2E 0x2D 0x9A 0x3D 0xA1 0x00 0x30 0x90 0x44 0x25 0x4A 0x02 0x24 
write to 0x0B ack data: 0x05 0x05 0x3D 0x56 0x97 0x02 0x01 
write to 0x0B ack data: 0x05 0x1F 0x40 0x56 0x04 0xA6 0x30 0xA6 0x14 0xA6 0x15 0xF4 0x21 0x40 0xF4 0x3A 0x42 0x11 0x40 0x12 0x42 0x01 0x1E 0xA6 0x30 0xA6 0x14 0xA6 0x15 0xF4 0x21 0x44 0xF4 
write to 0x0B ack data: 0x05 0x05 0x5D 0x56 0x3A 0x46 0x11 
write to 0x0B ack data: 0x05 0x1F 0x60 0x56 0x44 0x12 0x46 0x02 0x06 0x01 0x50 0xEA 0xE1 0x94 0x02 0x12 0x50 0x24 0x97 0x02 0x02 0x20 0x24 0x4A 0x02 0x01 0x12 0xEA 0xE1 0x94 0x02 0x12 0x12 
write to 0x0B ack data: 0x05 0x05 0x7D 0x56 0x2D 0x9A 0x3D 
write to 0x0B ack data: 0x05 0x1F 0x80 0x56 0x3E 0x3F 0xA7 0x02 0xF6 0x15 0xF6 0x26 0x13 0xC0 0xF6 0x34 0x07 0x00 0xF6 0x71 0xA6 0x30 0xA6 0x14 0xA6 0x15 0x9C 0x85 0x3A 0x39 0xF6 0x51 0xF6 
write to 0x0B ack data: 0x05 0x05 0x9D 0x56 0x62 0x9C 0x89 
write to 0x0B ack data: 0x05 0x1F 0xA0 0x56 0xAC 0xDA 0x00 0x8C 0x24 0x04 0xC0 0x07 0x02 0xF6 0x71 0xA6 0x30 0xA6 0x14 0xA6 0x15 0x9C 0x85 0x3A 0x39 0xF6 0x51 0xF6 0x62 0x9C 0x89 0xAC 0xDA 
write to 0x0B ack data: 0x05 0x05 0xBD 0x56 0x00 0x80 0x09 
write to 0x0B ack data: 0x05 0x1F 0xC0 0x56 0xF6 0x51 0xF6 0x62 0x9D 0xFF 0x7E 0xF6 0x17 0xF6 0x71 0xAA 0x2F 0x2E 0x2D 0x9A 0x3F 0x9F 0x6D 0x02 0x98 0x11 0xB2 0x82 0xA6 0x24 0x75 0xEA 0x64 
write to 0x0B ack data: 0x05 0x05 0xDD 0x56 0x20 0x5F 0x02 
write to 0x0B ack data: 0x05 0x1F 0xE0 0x56 0xE8 0x24 0x23 0xE8 0x03 0x13 0x00 0x24 0x5F 0x02 0xD2 0x00 0x87 0xE8 0xE0 0x80 0x04 0x84 0x03 0x77 0x57 0x04 0x2F 0x9A 0x3F 0x9F 0x6D 0x02 0x24 
write to 0x0B ack data: 0x05 0x05 0xFD 0x56 0x06 0x02 0x64 
write to 0x0B ack data: 0x05 0x1F 0x00 0x57 0x01 0x98 0x0C 0x40 0x01 0x84 0x01 0x74 0x20 0x03 0x00 0xE8 0x24 0xA6 0x32 0xB2 0x83 0xD2 0x00 0x87 0xEE 0xA6 0x42 0x2F 0x9A 0xA2 0xA0 0x3F 0x9F 
write to 0x0B ack data: 0x05 0x05 0x1D 0x57 0x6D 0x02 0xA6 
write to 0x0B ack data: 0x05 0x1F 0x20 0x57 0x2A 0x24 0x97 0x02 0x01 0x10 0xA6 0xA4 0x75 0x9C 0x7B 0xF6 0x17 0x98 0x21 0xBA 0x8A 0xA6 0xA4 0x75 0xEA 0x61 0xF6 0x14 0x20 0xBD 0x02 0xE8 0x24 
write to 0x0B ack data: 0x05 0x05 0x3D 0x57 0xF6 0x73 0xF4 
write to 0x0B ack data: 0x05 0x1F 0x40 0x57 0xCB 0x00 0xF6 0x14 0x20 0x4A 0x02 0xE8 0x24 0xF4 0xE3 0x08 0x94 0x02 0x13 0x08 0xE6 0x5A 0x00 0x87 0xDA 0x2F 0xA0 0x0A 0x9A 0x3D 0x3F 0x9F 0x6D 
write to 0x0B ack data: 0x05 0x05 0x5D 0x57 0x02 0xA6 0x27 
write to 0x0B ack data: 0x05 0x1F 0x60 0x57 0x6E 0x7F 0x98 0x19 0xB7 0x87 0xA6 0x72 0x73 0x22 0x03 0x00 0x9C 0x75 0xF6 0x14 0x20 0x06 0x02 0xE8 0x24 0x42 0x00 0xB2 0x5E 0x94 0x02 0xA6 0x2E 
write to 0x0B ack data: 0x05 0x05 0x7D 0x57 0xD7 0x00 0x87 
write to 0x0B ack data: 0x05 0x1F 0x80 0x57 0xE3 0x25 0xCA 0x01 0xE0 0x5E 0x73 0x94 0x36 0x24 0x80 0x45 0x02 0x00 0x33 0x42 0x6F 0xB7 0x52 0x80 0x2A 0xB7 0x52 0x84 0x1A 0x42 0x6E 0xB6 0x52 
write to 0x0B ack data: 0x05 0x05 0x9D 0x57 0x80 0x20 0xB6 
write to 0x0B ack data: 0x05 0x1F 0xA0 0x57 0x52 0x84 0x10 0x42 0x6D 0xB5 0x52 0x80 0x16 0xB5 0x52 0x84 0x06 0x42 0x6C 0xB4 0x52 0x80 0x0C 0x24 0xCA 0x01 0x5E 0x33 0x24 0x4A 0x02 0x60 0x04 
write to 0x0B ack data: 0x05 0x05 0xBD 0x57 0xF1 0x0F 0x24 
write to 0x0B ack data: 0x05 0x1F 0xC0 0x57 0x4A 0x02 0x42 0x0F 0xCA 0x0C 0xD0 0x04 0x90 0x03 0x72 0x98 0x06 0xC2 0xFB 0x52 0x0F 0x62 0x01 0x2F 0x2D 0x9A 0x3D 0x3F 0x9F 0x6D 0x02 0xA6 0x26 
write to 0x0B ack data: 0x05 0x05 0xDD 0x57 0x31 0x98 0x0F 
write to 0x0B ack data: 0x05 0x1F 0xE0 0x57 0xB6 0x86 0xA6 0x64 0x75 0xEA 0x64 0x20 0x4A 0x02 0xE8 0x24 0xF4 0x21 0x08 0xD6 0x00 0x87 0xED 0xB3 0x60 0x80 0x01 0x31 0x25 0x4A 0x02 0x4E 0x4E 
write to 0x0B ack data: 0x05 0x05 0xFD 0x57 0x90 0x0D 0x04 
write to 0x0B ack data: 0x05 0x1F 0x00 0x58 0x4C 0xEC 0xC1 0xA6 0xE4 0x75 0x9C 0x7B 0xE9 0x24 0x14 0x4C 0x25 0x4A 0x02 0xBE 0x92 0x52 0x4E 0x24 0xE6 0x45 0x02 0x00 0xB5 0x60 0x88 0x08 0x01 
write to 0x0B ack data: 0x05 0x05 0x1D 0x58 0x4C 0xEA 0xE1 
write to 0x0B ack data: 0x05 0x1F 0x20 0x58 0x88 0x02 0x12 0x4C 0x9F 0x6D 0x02 0x98 0x11 0xB2 0x82 0xA6 0x24 0x75 0xEA 0x64 0x20 0x4A 0x02 0xE8 0x24 0x23 0x01 0x80 0x13 0x08 0xD2 0x00 0x87 
write to 0x0B ack data: 0x05 0x05 0x3D 0x58 0xEB 0x2F 0x2D 
write to 0x0B ack data: 0x05 0x1F 0x40 0x58 0x9A 0x3D 0xA2 0xC0 0x3F 0xA7 0x20 0x9F 0x6D 0x02 0xA6 0x2C 0x98 0x3B 0xBC 0x8C 0xA6 0xC2 0x9F 0x59 0x48 0xF6 0x15 0x43 0x41 0x40 0x40 0xD0 0x55 
write to 0x0B ack data: 0x05 0x05 0x5D 0x58 0x84 0x2A 0xB3 
write to 0x0B ack data: 0x05 0x1F 0x60 0x58 0x82 0xD2 0xFD 0x8C 0x24 0xD3 0x05 0x90 0x20 0x23 0x20 0x00 0xF6 0x52 0xE6 0x24 0x80 0xB5 0xD5 0xF6 0x81 0x9C 0x71 0x62 0xFF 0x52 0xC1 0x62 0x55 
write to 0x0B ack data: 0x05 0x05 0x7D 0x58 0x52 0xC0 0x23 
write to 0x0B ack data: 0x05 0x1F 0x80 0x58 0x20 0x00 0xF6 0x82 0xF6 0x51 0x9F 0x86 0x6D 0xE6 0x5C 0x00 0x87 0xC0 0xA5 0x20 0x2F 0xA0 0x0C 0x2D 0x9A 0x3D 0xF6 0x15 0x24 0xCA 0x01 0x42 0x2C 
write to 0x0B ack data: 0x05 0x05 0x9D 0x58 0xE0 0x12 0x2D 
write to 0x0B ack data: 0x05 0x1F 0xA0 0x58 0xE0 0x12 0x2E 0xE0 0x12 0x2F 0xD2 0x00 0x90 0x09 0xD4 0x00 0x84 0x0A 0xE4 0xA0 0x2E 0x90 0x05 0x22 0x1F 0x42 0x98 0x03 0x22 0x5A 0x02 0x23 0x04 
write to 0x0B ack data: 0x05 0x05 0xBD 0x58 0x00 0xF6 0x51 
write to 0x0B ack data: 0x05 0x1F 0xC0 0x58 0x9C 0x71 0x2D 0x9A 0x3D 0x3E 0x3F 0xA7 0x02 0xF6 0x16 0x24 0xCA 0x01 0x4E 0x2C 0x4F 0x2D 0x42 0x2E 0x52 0xC0 0x42 0x2F 0x52 0xC1 0xE5 0x12 0xFE 
write to 0x0B ack data: 0x05 0x05 0xDD 0x58 0xE0 0x12 0xC0 
write to 0x0B ack data: 0x05 0x1F 0xE0 0x58 0xE0 0x12 0xC1 0xD2 0x00 0x90 0x2D 0xD4 0x00 0x84 0x05 0xE4 0xA0 0x2E 0x84 0x24 0x24 0x4A 0x02 0x01 0x04 0x02 0x06 0xA6 0xE8 0xA6 0xF9 0x05 0xC0 
write to 0x0B ack data: 0x05 0x05 0xFD 0x58 0x9C 0x7D 0x11 
write to 0x0B ack data: 0x05 0x1F 0x00 0x59 0x82 0x24 0x4A 0x02 0x01 0x00 0x02 0x02 0xA6 0xE8 0xA6 0xF9 0x05 0xC0 0x9C 0x7D 0x11 0x80 0x98 0x0A 0x23 0x04 0x00 0x22 0x15 0x42 0xF6 0x61 0x9C 
write to 0x0B ack data: 0x05 0x05 0x1D 0x59 0x71 0xAA 0x2F 
write to 0x0B ack data: 0x05 0x1F 0x20 0x59 0x2E 0x2D 0x9A 0x3D 0x3E 0x3F 0xA7 0x08 0x25 0x2A 0x02 0x00 0x50 0x38 0x00 0x4E 0x38 0x01 0x46 0x02 0x48 0x9C 0x73 0xAC 0x3A 0x39 0x9C 0x79 0xAC 
write to 0x0B ack data: 0x05 0x05 0x3D 0x59 0xF6 0x16 0xF6 
write to 0x0B ack data: 0x05 0x1F 0x40 0x59 0x27 0xF7 0x80 0x40 0xF7 0x00 0x00 0x01 0x4A 0x02 0x4C 0x9C 0x79 0xAC 0x03 0x4A 0x04 0x4C 0x3C 0x3B 0x9C 0x79 0xAC 0x3A 0x39 0xF6 0x61 0xF6 0x72 
write to 0x0B ack data: 0x05 0x05 0x5D 0x59 0x9C 0x72 0xAC 
write to 0x0B ack data: 0x05 0x1F 0x60 0x59 0x9C 0x6E 0x11 0xC0 0x12 0xC2 0x00 0x50 0x38 0x00 0x4E 0x38 0x01 0x46 0x02 0x48 0x9C 0x72 0xAC 0xF6 0x15 0xF6 0x26 0x7E 0x01 0xC0 0x02 0xC2 0x3A 
write to 0x0B ack data: 0x05 0x05 0x7D 0x59 0x39 0xF6 0x51 
write to 0x0B ack data: 0x05 0x1F 0x80 0x59 0xF6 0x62 0x9C 0x72 0xAC 0x11 0xC4 0x12 0xC6 0x02 0xC0 0x03 0xC2 0x3B 0x3A 0xF6 0x51 0xF6 0x62 0x9C 0x73 0xAC 0xF6 0x15 0xF6 0x26 0x24 0xCF 0x45 
write to 0x0B ack data: 0x05 0x05 0x9D 0x59 0x01 0x00 0xA6 
write to 0x0B ack data: 0x05 0x1F 0xA0 0x59 0x30 0xA6 0x14 0xA6 0x15 0x9C 0x85 0x3A 0x39 0xF6 0x51 0xF6 0x62 0x9C 0x79 0xAC 0x3A 0x39 0x01 0xC8 0x02 0xCA 0x9C 0x89 0xAC 0xDA 0x00 0x88 0x02 
write to 0x0B ack data: 0x05 0x05 0xBD 0x59 0x6E 0x01 0xA6 
write to 0x0B ack data: 0x05 0x1F 0xC0 0x59 0xE2 0xA8 0x2F 0x2E 0x2D 0x9A 0x3D 0x3E 0x3F 0xA7 0x1C 0x9F 0x23 0x59 0xD2 0x00 0x91 0x26 0x24 0x2A 0x02 0x01 0x06 0x02 0x08 0x11 0xD8 0x12 0xDA 
write to 0x0B ack data: 0x05 0x05 0xDD 0x59 0x01 0x0E 0x02 
write to 0x0B ack data: 0x05 0x1F 0xE0 0x59 0x10 0x11 0xCC 0x12 0xCE 0x01 0x0A 0x02 0x0C 0x11 0xC8 0x12 0xCA 0x01 0xCC 0x02 0xCE 0x3A 0x39 0x01 0xDC 0x02 0xDE 0x9C 0x79 0xAC 0xF6 0x15 0xF6 
write to 0x0B ack data: 0x05 0x05 0xFD 0x59 0x26 0x02 0xC8 
write to 0x0B ack data: 0x05 0x1F 0x00 0x5A 0x03 0xCA 0x3B 0x3A 0x01 0xCC 0x02 0xCE 0x9C 0x79 0xAC 0x3A 0x39 0xF6 0x51 0xF6 0x62 0x9C 0x73 0xAC 0x11 0xD0 0x12 0xD2 0x24 0x2A 0x02 0x03 0x12 
write to 0x0B ack data: 0x05 0x05 0x1D 0x5A 0x04 0x14 0x13 
write to 0x0B ack data: 0x05 0x1F 0x20 0x5A 0xC4 0x14 0xC6 0x24 0x2A 0x02 0x01 0x16 0x02 0x18 0x11 0xC0 0x12 0xC2 0x3A 0x39 0x01 0xDC 0x02 0xDE 0x9C 0x79 0xAC 0xF6 0x15 0xF6 0x26 0x01 0xC4 
write to 0x0B ack data: 0x05 0x05 0x3D 0x5A 0x02 0xC6 0x3A 
write to 0x0B ack data: 0x05 0x1F 0x40 0x5A 0x39 0x01 0xCC 0x02 0xCE 0x9C 0x79 0xAC 0x3A 0x39 0xF6 0x51 0xF6 0x62 0x9C 0x73 0xAC 0x03 0xD0 0x04 0xD2 0x3C 0x3B 0x9C 0x7F 0xAC 0x11 0xD4 0x12 
write to 0x0B ack data: 0x05 0x05 0x5D 0x5A 0xD6 0xF7 0x00 
write to 0x0B ack data: 0x05 0x1F 0x60 0x5A 0x00 0xF7 0x00 0x00 0x01 0xD8 0x02 0xDA 0x9C 0x89 0xAC 0xDA 0x00 0x94 0x89 0xF7 0x80 0x3F 0xF7 0x00 0x00 0x01 0xD8 0x02 0xDA 0x9C 0x89 0xAC 0xDA 
write to 0x0B ack data: 0x05 0x05 0x7D 0x5A 0x00 0x88 0x78 
write to 0x0B ack data: 0x05 0x1F 0x80 0x5A 0x01 0xC4 0x02 0xC6 0x3A 0x39 0x01 0xD0 0x02 0xD2 0x9C 0x79 0xAC 0xF6 0x15 0xF6 0x26 0x02 0xC0 0x03 0xC2 0x3B 0x3A 0x01 0xCC 0x02 0xCE 0x9C 0x79 
write to 0x0B ack data: 0x05 0x05 0x9D 0x5A 0xAC 0x3A 0x39 
write to 0x0B ack data: 0x05 0x1F 0xA0 0x5A 0xF6 0x51 0xF6 0x62 0x9C 0x73 0xAC 0x03 0xD0 0x04 0xD2 0x3C 0x3B 0x9C 0x7F 0xAC 0xF6 0x15 0xF6 0x26 0x01 0xD4 0x02 0xD6 0x3A 0x39 0x31 0x22 0x80 
write to 0x0B ack data: 0x05 0x05 0xBD 0x5A 0x3F 0x9C 0x73 
write to 0x0B ack data: 0x05 0x1F 0xC0 0x5A 0xAC 0x3A 0x39 0xF6 0x51 0xF6 0x62 0x9C 0x7F 0xAC 0xF7 0x80 0x43 0xF7 0x00 0x00 0x9C 0x79 0xAC 0x23 0xD1 0x45 0x9F 0x7F 0x56 0x24 0x2A 0x02 0x11 
write to 0x0B ack data: 0x05 0x05 0xDD 0x5A 0x1A 0x01 0xD4 
write to 0x0B ack data: 0x05 0x1F 0xE0 0x5A 0x02 0xD6 0x9C 0x70 0x3A 0x39 0x31 0x22 0x61 0xC3 0x9C 0x7F 0xAC 0x23 0xD5 0x45 0x9F 0x7F 0x56 0x24 0x2A 0x02 0x11 0x1C 0xA5 0x1C 0x2F 0x2E 0x2D 
write to 0x0B ack data: 0x05 0x05 0xFD 0x5A 0x9A 0x3F 0xA7 
write to 0x0B ack data: 0x05 0x1F 0x00 0x5B 0x0E 0x9F 0xF8 0x56 0xD2 0x00 0x90 0x33 0x64 0x01 0xF6 0x81 0x9F 0xC4 0x58 0x24 0x4A 0x02 0x01 0x0C 0x11 0xC4 0x9F 0xC6 0x59 0x24 0x2A 0x02 0x01 
write to 0x0B ack data: 0x05 0x05 0x1D 0x5B 0x1A 0x02 0x1C 
write to 0x0B ack data: 0x05 0x1F 0x20 0x5B 0x11 0xC6 0x12 0xC8 0x64 0x01 0xF6 0x81 0xE6 0x22 0x0A 0xB3 0xD3 0x9F 0x95 0x58 0x23 0x0E 0x00 0xF6 0x82 0x21 0x15 0x42 0x9F 0x86 0x6D 0xA5 0x0E 
write to 0x0B ack data: 0x05 0x05 0x3D 0x5B 0x2F 0x9A 0x3D 
write to 0x0B ack data: 0x05 0x1F 0x40 0x5B 0xA2 0xC0 0x3F 0xA6 0x2C 0xD2 0x0E 0x94 0x03 0x74 0x98 0x1B 0xA6 0x36 0x24 0xCA 0x01 0x02 0x00 0x21 0x16 0x02 0x9F 0xE7 0x47 0xF6 0x15 0xA6 0xC2 
write to 0x0B ack data: 0x05 0x05 0x5D 0x5B 0x9F 0xFC 0x48 
write to 0x0B ack data: 0x05 0x1F 0x60 0x5B 0x74 0xE9 0xE5 0x80 0x02 0x64 0x01 0xA6 0x42 0x2F 0xA0 0x0C 0x2D 0x9A 0x3D 0x3E 0x3F 0xA7 0x03 0xF6 0x16 0x12 0xC0 0x56 0xC2 0x62 0x03 0xE7 0x25 
write to 0x0B ack data: 0x05 0x05 0x7D 0x5B 0x60 0x20 0x06 
write to 0x0B ack data: 0x05 0x1F 0x80 0x5B 0x02 0xE8 0x25 0xD7 0x00 0x90 0x14 0x24 0x4C 0x46 0x40 0x02 0xC0 0x04 0x84 0x16 0x24 0x06 0x42 0x42 0x08 0xCA 0x03 0xD0 0x02 0x84 0x0B 0x43 0xC2 
write to 0x0B ack data: 0x05 0x05 0x9D 0x5B 0x42 0x40 0x9F 
write to 0x0B ack data: 0x05 0x1F 0xA0 0x5B 0x3F 0x5B 0xD2 0x00 0x90 0x5D 0xA1 0x02 0xB1 0xCA 0x14 0xD0 0x10 0x84 0x54 0x24 0x06 0x42 0x40 0x08 0xC0 0x03 0x90 0x4B 0x44 0x40 0xD4 0x0E 0x8C 
write to 0x0B ack data: 0x05 0x05 0xBD 0x5B 0x45 0x24 0x80 
write to 0x0B ack data: 0x05 0x1F 0xC0 0x5B 0x45 0x42 0x10 0x73 0xF4 0xE1 0x80 0x8C 0x1F 0xA6 0x42 0x9F 0xFC 0x48 0xF6 0x12 0xF6 0x61 0x9F 0xCB 0x75 0x04 0xC0 0x11 0x00 0x30 0xE8 0xE1 0x94 
write to 0x0B ack data: 0x05 0x05 0xDD 0x5B 0x04 0x6A 0x01 
write to 0x0B ack data: 0x05 0x1F 0xE0 0x5B 0x98 0x19 0x60 0x04 0xF3 0xB1 0x98 0x12 0x42 0xC2 0x73 0xE9 0x64 0x20 0x06 0x02 0xE8 0x24 0x31 0x11 0x18 0xE0 0x92 0x40 0x52 0x40 0x7A 0x64 0x0E 
write to 0x0B ack data: 0x05 0x05 0xFD 0x5B 0xF6 0x61 0x9C 
write to 0x0B ack data: 0x05 0x1F 0x00 0x5C 0x68 0x98 0x01 0x7A 0xA6 0xA2 0xAB 0x2F 0x2E 0x2D 0x9A 0x3D 0x3F 0x24 0xCA 0x01 0x31 0x32 0x11 0x2C 0x12 0x2E 0x60 0xEF 0xF2 0xB0 0xA1 0x00 0xB1 
write to 0x0B ack data: 0x05 0x05 0x1D 0x5C 0xE7 0x08 0x40 
write to 0x0B ack data: 0x05 0x1F 0x20 0x5C 0xA6 0x13 0xE6 0x43 0x01 0xC3 0x01 0xA1 0x02 0xB2 0xC2 0xFE 0xC3 0x01 0xB3 0x12 0xA3 0xB2 0x20 0x64 0x15 0x21 0x4A 0x02 0x9C 0x68 0x25 0x4A 0x02 
write to 0x0B ack data: 0x05 0x05 0x3D 0x5C 0x24 0x06 0x42 
write to 0x0B ack data: 0x05 0x1F 0x40 0x5C 0x02 0x13 0x12 0x4C 0x01 0x0F 0x02 0x11 0x11 0x50 0x12 0x52 0x2F 0x2D 0x9A 0x3D 0x3E 0x3F 0xA7 0x02 0x11 0xC0 0x64 0x14 0x9C 0x68 0x9F 0x6D 0x02 
write to 0x0B ack data: 0x05 0x05 0x5D 0x5C 0x98 0x22 0xB2 
write to 0x0B ack data: 0x05 0x1F 0x60 0x5C 0x82 0xA6 0x24 0x75 0xEA 0x64 0xEA 0x65 0xED 0x65 0xF4 0x25 0xC0 0xF6 0x46 0x20 0xBD 0x02 0xE8 0x26 0x03 0x80 0x13 0x42 0x20 0xC1 0x02 0xE8 0x24 
write to 0x0B ack data: 0x05 0x05 0x7D 0x5C 0x03 0x00 0x13 
write to 0x0B ack data: 0x05 0x1F 0x80 0x5C 0x4A 0xD2 0x00 0x87 0xDA 0x24 0x97 0x02 0x01 0x00 0x05 0xC0 0x11 0x52 0xAA 0x2F 0x2E 0x2D 0x9A 0x3D 0x3E 0x3F 0xA7 0x0A 0x11 0xC4 0xF6 0x25 0x26 
write to 0x0B ack data: 0x05 0x05 0x9D 0x5C 0x80 0x45 0x03 
write to 0x0B ack data: 0x05 0x1F 0xA0 0x5C 0x8E 0x34 0xA6 0x30 0xA6 0x14 0xA6 0x15 0x11 0xC0 0x12 0xC2 0x3C 0x3B 0x01 0xC4 0x02 0xC6 0x13 0xCA 0x14 0xCC 0x9C 0x78 0xAC 0xF6 0x16 0xF6 0x27 
write to 0x0B ack data: 0x05 0x05 0xBD 0x5C 0x03 0xC6 0x04 
write to 0x0B ack data: 0x05 0x1F 0xC0 0x5C 0xC8 0x21 0xE8 0x03 0x32 0xEB 0xC1 0xEC 0xD2 0x3A 0x39 0xF6 0x51 0xA6 0x30 0xA6 0x14 0xA6 0x15 0x9C 0x78 0xAC 0xEE 0x21 0xEF 0x32 0x24 0xE8 0x03 
write to 0x0B ack data: 0x05 0x05 0xDD 0x5C 0x35 0x9C 0x7D 
write to 0x0B ack data: 0x05 0x1F 0xE0 0x5C 0xF6 0x16 0x24 0x00 0x42 0x02 0x00 0x24 0x80 0x45 0x42 0x11 0x73 0x9F 0xB6 0x73 0xF6 0x14 0xA6 0x90 0xA6 0x1A 0xA6 0x1B 0xF4 0x24 0xC0 0xF4 0x3D 
write to 0x0B ack data: 0x05 0x05 0xFD 0x5C 0xC2 0xF6 0x62 
write to 0x0B ack data: 0x05 0x1F 0x00 0x5D 0xA6 0x50 0xA6 0x16 0xA6 0x17 0xE5 0xE0 0xB7 0x8C 0x18 0xBB 0x57 0x84 0x18 0xBA 0x56 0x8C 0x10 0xBA 0x56 0x84 0x10 0xB9 0x55 0x8C 0x08 0xB9 0x55 
write to 0x0B ack data: 0x05 0x05 0x1D 0x5D 0x84 0x08 0xB8 
write to 0x0B ack data: 0x05 0x1F 0x20 0x5D 0x54 0x94 0x04 0xF6 0x41 0x98 0x0C 0x02 0xC4 0xE9 0xC2 0xF6 0x21 0xEE 0xE2 0x88 0x02 0xF6 0x61 0xA5 0x0A 0x2F 0x2E 0x2D 0x9A 0x3D 0x3E 0x3F 0xA7 
write to 0x0B ack data: 0x05 0x05 0x3D 0x5D 0x25 0x11 0xE0 
write to 0x0B ack data: 0x05 0x1F 0x40 0x5D 0x54 0xE4 0xA6 0x42 0x9F 0x59 0x48 0xF6 0x14 0x40 0x01 0xD0 0x05 0x84 0x09 0xF6 0x16 0x20 0x80 0x00 0xE8 0x26 0x98 0x07 0x42 0xE4 0x9F 0x6C 0x48 
write to 0x0B ack data: 0x05 0x05 0x5D 0x5D 0xF6 0x16 0x23 
write to 0x0B ack data: 0x05 0x1F 0x60 0x5D 0x20 0x00 0xF6 0x62 0xF6 0x81 0x9C 0x71 0xA1 0x00 0xB1 0xC0 0x04 0x84 0xE2 0x62 0x03 0x40 0xE4 0xE7 0x25 0x00 0x20 0x06 0x02 0xE8 0x25 0x42 0x40 
write to 0x0B ack data: 0x05 0x05 0x7D 0x5D 0x73 0xE9 0x91 
write to 0x0B ack data: 0x05 0x1F 0x80 0x5D 0xE9 0x64 0xEE 0x24 0x01 0x00 0x11 0xE2 0x24 0x06 0x42 0x4C 0x08 0xE6 0xAC 0x03 0xD0 0x02 0x84 0x07 0x02 0xE0 0x9F 0x93 0x5C 0x11 0xE0 0x46 0xE4 
write to 0x0B ack data: 0x05 0x05 0x9D 0x5D 0x02 0xE2 0xF6 
write to 0x0B ack data: 0x05 0x1F 0xA0 0x5D 0x81 0xE6 0x22 0x20 0xB3 0xD3 0x9F 0xD2 0x36 0xD2 0x00 0x90 0xA0 0x02 0xE0 0x42 0x40 0x73 0xE9 0x91 0xE9 0x64 0xF6 0x80 0xE8 0x24 0x12 0x00 0x40 
write to 0x0B ack data: 0x05 0x05 0xBD 0x5D 0x40 0xA2 0x00 
write to 0x0B ack data: 0x05 0x1F 0xC0 0x5D 0x03 0xE3 0xF6 0x81 0xE6 0x22 0x03 0xB3 0xD3 0x9F 0x88 0x4A 0xA9 0x40 0x41 0x84 0x13 0x40 0x40 0xA2 0x00 0x03 0xE3 0x02 0xE1 0xF6 0x81 0xE6 0x22 
write to 0x0B ack data: 0x05 0x05 0xDD 0x5D 0x03 0xB3 0xD3 
write to 0x0B ack data: 0x05 0x1F 0xE0 0x5D 0x9F 0xC4 0x4A 0xA9 0xE6 0xAC 0x04 0x90 0x68 0x40 0x42 0x90 0x07 0xE6 0xAC 0x0B 0xD0 0x02 0x90 0x5D 0x44 0xE4 0xF6 0x81 0x9F 0x07 0x4B 0xE0 0x92 
write to 0x0B ack data: 0x05 0x05 0xFD 0x5D 0x40 0x52 0x40 
write to 0x0B ack data: 0x05 0x1F 0x00 0x5E 0x63 0x01 0x53 0x41 0x53 0x42 0x4C 0xE4 0x7D 0x03 0xE0 0xEE 0x61 0xF6 0x14 0x20 0x06 0x02 0xE8 0x24 0x13 0x18 0x24 0x5F 0x02 0xE0 0x80 0x04 0x84 
write to 0x0B ack data: 0x05 0x05 0x1D 0x5E 0x0D 0xF6 0x15 
write to 0x0B ack data: 0x05 0x1F 0x20 0x5E 0xEC 0x25 0x02 0xE2 0x01 0x40 0x9F 0x2F 0x77 0x11 0x40 0x77 0x24 0x80 0x45 0x4A 0x13 0x7B 0xF6 0x61 0x22 0x03 0x00 0x9C 0x75 0xF6 0x14 0x20 0x06 
write to 0x0B ack data: 0x05 0x05 0x3D 0x5E 0x02 0xE8 0x24 
write to 0x0B ack data: 0x05 0x1F 0x40 0x5E 0x42 0x00 0x73 0xE9 0x81 0xE9 0xC5 0x84 0x09 0x67 0x01 0x98 0x05 0x60 0x04 0xF3 0xB1 0x77 0xA6 0x72 0xA5 0x25 0x2F 0x2E 0x2D 0x9A 0x3D 0x3E 0x3F 
write to 0x0B ack data: 0x05 0x05 0x5D 0x5E 0xA7 0x04 0x11 
write to 0x0B ack data: 0x05 0x1F 0x60 0x5E 0xC2 0xA6 0x4D 0x9F 0x6D 0x02 0x24 0x4A 0x02 0x60 0xF7 0xF0 0x0F 0xA6 0x2C 0x98 0x2E 0xBC 0x8C 0x31 0x11 0xC0 0xA6 0xCA 0x7B 0xED 0x61 0xE9 0x61 
write to 0x0B ack data: 0x05 0x05 0x7D 0x5E 0xE9 0x61 0xE9 
write to 0x0B ack data: 0x05 0x1F 0x80 0x5E 0x61 0xA6 0xD7 0xA6 0xC6 0xF6 0x82 0xF4 0x21 0xC2 0x9F 0x6E 0x5B 0xD2 0x00 0x90 0x0E 0xA6 0xC4 0x01 0xC0 0x9F 0x39 0x5D 0x24 0x4A 0x02 0x60 0x08 
write to 0x0B ack data: 0x05 0x05 0x9D 0x5E 0xF1 0x0F 0xE6 
write to 0x0B ack data: 0x05 0x1F 0xA0 0x5E 0x5C 0x00 0x87 0xCD 0xAC 0x2F 0x2E 0x2D 0x9A 0x3D 0x3E 0x3F 0xA7 0x0D 0x24 0x4C 0x46 0xE0 0x60 0x00 0x80 0x09 0x24 0x06 0x42 0x40 0x08 0xC0 0x08 
write to 0x0B ack data: 0x05 0x05 0xBD 0x5E 0x90 0x09 0x24 
write to 0x0B ack data: 0x05 0x1F 0xC0 0x5E 0x4C 0x46 0x40 0x01 0xC0 0x01 0x90 0xCB 0x24 0x06 0x42 0x42 0x08 0xCA 0x07 0xD0 0x06 0x84 0xC0 0xA1 0x00 0xB1 0xC0 0x08 0x90 0xB9 0x26 0xCA 0x01 
write to 0x0B ack data: 0x05 0x05 0xDD 0x5E 0x40 0x97 0x84 
write to 0x0B ack data: 0x05 0x1F 0xE0 0x5E 0xB2 0x01 0x8D 0x9F 0x80 0x4C 0x11 0xCB 0x01 0x8B 0x9C 0x6A 0xF6 0x12 0x24 0x80 0x45 0x42 0x39 0x73 0x9F 0xC9 0x73 0xF6 0x10 0xF4 0x50 0xCB 0x94 
write to 0x0B ack data: 0x05 0x05 0xFD 0x5E 0x95 0x01 0x8B 
write to 0x0B ack data: 0x05 0x1F 0x00 0x5F 0x9C 0x6A 0x9F 0x53 0x4C 0xD2 0x00 0x90 0x8A 0x23 0x09 0x00 0x22 0x06 0x42 0xF6 0x81 0x9C 0x71 0x9F 0x6D 0x02 0xA6 0x2B 0x98 0x4D 0xBB 0x8B 0xA6 
write to 0x0B ack data: 0x05 0x05 0x1D 0x5F 0xB6 0x24 0xCA 
write to 0x0B ack data: 0x05 0x1F 0x20 0x5F 0x01 0x02 0x0B 0x21 0x1A 0x02 0x9F 0xE7 0x47 0x11 0xC9 0x22 0x00 0x40 0x24 0x80 0x45 0x42 0x28 0x73 0x9F 0xB6 0x73 0x02 0xC9 0xE9 0x52 0x94 0x2A 
write to 0x0B ack data: 0x05 0x05 0x3D 0x5F 0x24 0x06 0x42 
write to 0x0B ack data: 0x05 0x1F 0x40 0x5F 0x40 0x08 0xE7 0x08 0x20 0xA6 0x1A 0xE6 0x0A 0x01 0xA6 0xBC 0x7D 0xEE 0x61 0xE9 0x61 0x20 0xD9 0x01 0xE8 0x21 0x9C 0x6D 0xA6 0xA5 0xA6 0xB4 0x9F 
write to 0x0B ack data: 0x05 0x05 0x5D 0x5F 0xBB 0x4E 0xEE 
write to 0x0B ack data: 0x05 0x1F 0x60 0x5F 0x64 0xF6 0x80 0xE8 0x24 0x11 0x00 0xE6 0x5B 0x00 0x87 0xAE 0x66 0x09 0x22 0x06 0x42 0xF6 0x81 0x9F 0x62 0x76 0xFB 0x90 0x1A 0x25 0xCA 0x01 0x01 
write to 0x0B ack data: 0x05 0x05 0x7D 0x5F 0x4B 0x30 0xE8 
write to 0x0B ack data: 0x05 0x1F 0x80 0x5F 0xE1 0x94 0x10 0xF6 0x81 0x9F 0x35 0x4D 0xD2 0x00 0x90 0x07 0x69 0x01 0x59 0x57 0xA4 0xB9 0x03 0xA5 0x0D 0x2F 0x2E 0x2D 0x9A 0x3D 0x3E 0x3F 0xF6 
write to 0x0B ack data: 0x05 0x05 0x9D 0x5F 0x15 0x9F 0xFE 
write to 0x0B ack data: 0x05 0x1F 0xA0 0x5F 0x5A 0xA1 0x00 0xB0 0xE7 0x08 0x08 0xA6 0x14 0xC4 0x01 0xF6 0x51 0xE6 0x22 0x14 0xB3 0xD3 0x9F 0x5A 0x5E 0x9F 0xA9 0x5E 0x62 0x05 0x9F 0x95 0x4B 
write to 0x0B ack data: 0x05 0x05 0xBD 0x5F 0x60 0xDF 0xF2 
write to 0x0B ack data: 0x05 0x1F 0xC0 0x5F 0xB0 0x9F 0x6D 0x02 0xA6 0x2A 0x98 0x1A 0xBA 0x8A 0xA6 0xA6 0x24 0xCA 0x01 0x02 0x00 0x21 0x16 0x02 0x9F 0xE7 0x47 0x77 0xA6 0xA6 0x24 0x97 0x02 
write to 0x0B ack data: 0x05 0x05 0xDD 0x5F 0x02 0x00 0x9F 
write to 0x0B ack data: 0x05 0x1F 0xE0 0x5F 0x08 0x4A 0x26 0xCA 0x01 0xE6 0x5A 0x00 0x87 0xDE 0x74 0x01 0xB0 0x9F 0x59 0x49 0x24 0x99 0x46 0x4E 0x12 0x7F 0xE9 0x27 0x01 0xAC 0x02 0xAE 0xF6 
write to 0x0B ack data: 0x05 0x05 0xFD 0x5F 0x75 0x36 0xB5 
write to 0x0B ack data: 0x05 0x1F 0x00 0x60 0x5D 0x8C 0x18 0xB5 0x5D 0x84 0x1D 0xB4 0x5C 0x8C 0x10 0xB4 0x5C 0x84 0x15 0xB3 0x5B 0x8C 0x08 0xB3 0x5B 0x84 0x0D 0xB2 0x5E 0x94 0x09 0xE9 0xC7 
write to 0x0B ack data: 0x05 0x05 0x1D 0x60 0x24 0xCA 0x01 
write to 0x0B ack data: 0x05 0x1F 0x20 0x60 0x17 0x30 0x98 0x06 0x24 0xCA 0x01 0x31 0x11 0x30 0x2F 0x2E 0x2D 0x9A 0x3D 0x3E 0x3F 0xA7 0x0B 0x11 0xC3 0x26 0x80 0x45 0x01 0x94 0x11 0xC0 0x24 
write to 0x0B ack data: 0x05 0x05 0x3D 0x60 0x4C 0x46 0x40 
write to 0x0B ack data: 0x05 0x1F 0x40 0x60 0x01 0xC0 0x04 0x90 0x10 0x24 0x97 0x02 0x01 0x14 0x9F 0xA4 0x36 0xD2 0x00 0x90 0x04 0x04 0x96 0x14 0xC0 0x9F 0x6D 0x02 0x52 0xC2 0x98 0x41 0xE0 
write to 0x0B ack data: 0x05 0x05 0x5D 0x60 0x89 0xC2 0x59 
write to 0x0B ack data: 0x05 0x1F 0x60 0x60 0xC2 0xA6 0x9C 0x7D 0xEE 0x65 0xF6 0x51 0x20 0xBD 0x02 0xE8 0x21 0x11 0xC5 0xEE 0x64 0xEC 0x64 0x14 0xC9 0x03 0xC0 0xF6 0x14 0x02 0x00 0x01 0xC3 
write to 0x0B ack data: 0x05 0x05 0x7D 0x60 0xF4 0x21 0xC9 
write to 0x0B ack data: 0x05 0x1F 0x80 0x60 0x9F 0xDB 0x73 0x20 0xC1 0x02 0xE8 0x25 0x01 0xC9 0xE6 0x22 0x08 0xB3 0xD3 0x11 0xC9 0x03 0xC0 0x02 0x40 0x01 0xC3 0xF4 0x21 0xC9 0x9F 0xDB 0x73 
write to 0x0B ack data: 0x05 0x05 0x9D 0x60 0x43 0xC2 0xD3 
write to 0x0B ack data: 0x05 0x1F 0xA0 0x60 0x00 0x87 0xB9 0x03 0xC0 0x24 0x97 0x02 0x02 0x00 0x01 0xC3 0xE6 0x22 0x10 0xB3 0xD3 0x9F 0xDB 0x73 0xA5 0x0B 0x2F 0x2E 0x2D 0x9A 0x3D 0x3F 0xA7 
write to 0x0B ack data: 0x05 0x05 0xBD 0x60 0x02 0xF6 0x15 
write to 0x0B ack data: 0x05 0x1F 0xC0 0x60 0xA6 0x46 0x24 0xCA 0x01 0x02 0x00 0x21 0x16 0x02 0x9F 0xE7 0x47 0x11 0xC0 0xF6 0x81 0x9F 0x81 0x48 0xB2 0x92 0x52 0x40 0x73 0x53 0x41 0xAA 0x2F 
write to 0x0B ack data: 0x05 0x05 0xDD 0x60 0x2D 0x9A 0x3D 
write to 0x0B ack data: 0x05 0x1F 0xE0 0x60 0x3E 0x3F 0xF6 0x15 0x9F 0x6D 0x02 0xA6 0x2C 0x6D 0x7F 0x98 0x22 0xBC 0x8C 0x64 0x0E 0xF6 0x51 0x9C 0x68 0x64 0x03 0xE7 0xC1 0x40 0xA6 0xC4 0x20 
write to 0x0B ack data: 0x05 0x05 0xFD 0x60 0x06 0x02 0xE8 
write to 0x0B ack data: 0x05 0x1F 0x00 0x61 0x21 0x9F 0xBA 0x60 0xB2 0x5D 0x94 0x02 0xA6 0x2D 0x20 0x10 0x00 0xE8 0x25 0xE6 0x5C 0x00 0x87 0xD9 0x24 0xCA 0x01 0x5D 0x33 0x2F 0x2E 0x2D 0x9A 
write to 0x0B ack data: 0x05 0x05 0x1D 0x61 0x3D 0x3E 0x3F 
write to 0x0B ack data: 0x05 0x1F 0x20 0x61 0xA7 0x19 0xF6 0x15 0x12 0xD6 0x56 0xD8 0xA1 0x00 0xB1 0xE7 0x08 0x40 0xA6 0x13 0xE6 0x43 0x01 0xC3 0x01 0xA1 0x02 0xB2 0xC2 0xFE 0xC3 0x01 0xB3 
write to 0x0B ack data: 0x05 0x05 0x3D 0x61 0x12 0xA3 0xB2 
write to 0x0B ack data: 0x05 0x1F 0x40 0x61 0x20 0x56 0xC8 0x56 0xD4 0x72 0x52 0xD5 0xF4 0x66 0xD4 0xEE 0x66 0xF6 0x61 0xE6 0x22 0x08 0xB3 0xD3 0xED 0x21 0x9F 0x4D 0x74 0x11 0xC6 0xF6 0x51 
write to 0x0B ack data: 0x05 0x05 0x5D 0x61 0xE6 0x22 0x10 
write to 0x0B ack data: 0x05 0x1F 0x60 0x61 0xB3 0xD3 0x9F 0x4D 0x74 0x11 0xC4 0xF6 0x51 0xEE 0x21 0x9F 0x4D 0x74 0x11 0xC2 0xF6 0x82 0xEA 0x91 0xE9 0x91 0x9F 0xAD 0x47 0x11 0xCE 0x30 0xE8 
write to 0x0B ack data: 0x05 0x05 0x7D 0x61 0xE1 0x8C 0x05 
write to 0x0B ack data: 0x05 0x1F 0x80 0x61 0x75 0x55 0xCD 0x98 0x9E 0xE0 0xA2 0xC7 0xE7 0x28 0x02 0xA6 0x12 0xE6 0x42 0x01 0x52 0xCD 0xD2 0x00 0x90 0x8D 0x05 0xC6 0x26 0x80 0x45 0x24 0x29 
write to 0x0B ack data: 0x05 0x05 0x9D 0x61 0x46 0x02 0x00 
write to 0x0B ack data: 0x05 0x1F 0xA0 0x61 0x01 0xA9 0x9F 0xB6 0x73 0xE9 0xB1 0xE9 0xE5 0x94 0x78 0x46 0xD8 0x24 0xCA 0x01 0x02 0x0B 0x21 0x1A 0x02 0x9F 0xE7 0x47 0xF6 0x15 0x22 0x00 0x40 
write to 0x0B ack data: 0x05 0x05 0xBD 0x61 0x42 0xA7 0x73 
write to 0x0B ack data: 0x05 0x1F 0xC0 0x61 0x9F 0xB6 0x73 0xE9 0x55 0x94 0x5C 0x24 0xCA 0x01 0x05 0x0B 0x24 0x29 0x46 0x02 0x00 0x42 0xB7 0x73 0x9F 0xB6 0x73 0xE9 0xE5 0x80 0x48 0x66 0x01 
write to 0x0B ack data: 0x05 0x05 0xDD 0x61 0x45 0xC8 0x44 
write to 0x0B ack data: 0x05 0x1F 0xE0 0x61 0xB7 0x01 0xCE 0x9F 0xC6 0x4C 0xD2 0x00 0x90 0x39 0x4A 0xD8 0x7B 0xED 0x64 0x20 0x06 0x02 0xE8 0x24 0x02 0xCE 0xF4 0xCA 0x14 0x24 0xCA 0x01 0x01 
write to 0x0B ack data: 0x05 0x05 0xFD 0x61 0x0B 0x9F 0x1F 
write to 0x0B ack data: 0x05 0x1F 0x00 0x62 0x48 0xF6 0x12 0xED 0x64 0xEC 0x64 0x20 0xCA 0x01 0xE8 0x24 0xF8 0x10 0x84 0x04 0x11 0x10 0x98 0x0F 0xF4 0x61 0xD4 0xE9 0x61 0x46 0xA6 0x77 0x20 
write to 0x0B ack data: 0x05 0x05 0x1D 0x62 0xD9 0x01 0xE8 
write to 0x0B ack data: 0x05 0x1F 0x20 0x62 0x21 0x9C 0x6B 0x01 0xC6 0x9C 0x6A 0xF6 0x14 0x25 0x29 0x46 0x01 0x40 0x25 0x80 0x45 0x02 0x47 0x9C 0x7B 0xE9 0xE4 0x95 0x18 0x46 0xD8 0x24 0xCA 
write to 0x0B ack data: 0x05 0x05 0x3D 0x62 0x01 0x02 0x00 
write to 0x0B ack data: 0x05 0x1F 0x40 0x62 0x21 0x16 0x02 0x9F 0xE7 0x47 0x04 0xD6 0x11 0x0E 0x05 0xC6 0x06 0xC2 0x02 0xC4 0x9F 0x1C 0x47 0xF6 0x52 0xF6 0x63 0xE9 0xC3 0xF6 0x31 0x9F 0x7D 
write to 0x0B ack data: 0x05 0x05 0x5D 0x62 0x4A 0x11 0xD0 
write to 0x0B ack data: 0x05 0x1F 0x60 0x62 0x9C 0x6A 0x20 0xFF 0x7F 0xE9 0xC0 0x84 0x04 0x60 0x04 0xF3 0xB1 0x24 0x4C 0x46 0x40 0x00 0xC0 0x40 0x90 0x4A 0x01 0xC2 0x9F 0xA4 0x36 0xD2 0x00 
write to 0x0B ack data: 0x05 0x05 0x7D 0x62 0x90 0x41 0x77 
write to 0x0B ack data: 0x05 0x1F 0x80 0x62 0x46 0xD8 0x02 0xC4 0x04 0xD6 0x01 0x0E 0x9F 0x08 0x4A 0xF6 0x13 0x22 0xE8 0x03 0x01 0xD0 0x9F 0x2F 0x77 0xF6 0x12 0x24 0x5F 0x02 0xB3 0x60 0x80 
write to 0x0B ack data: 0x05 0x05 0x9D 0x62 0x0A 0x60 0x04 
write to 0x0B ack data: 0x05 0x1F 0xA0 0x62 0xF3 0xB1 0x62 0x02 0x52 0x04 0x98 0x18 0x40 0x04 0x84 0x04 0x63 0x01 0x53 0x04 0x42 0xD8 0x73 0xE9 0x64 0x20 0x5F 0x02 0xE8 0x24 0x12 0x00 0x60 
write to 0x0B ack data: 0x05 0x05 0xBD 0x62 0x01 0xF3 0xB9 
write to 0x0B ack data: 0x05 0x1F 0xC0 0x62 0x04 0xD6 0x04 0x0E 0x14 0xCB 0x49 0xD8 0x59 0xC9 0x72 0x52 0xCA 0x01 0xC9 0x22 0x03 0x00 0x9C 0x75 0xF6 0x15 0x20 0x06 0x02 0xE8 0x25 0xE0 0x82 
write to 0x0B ack data: 0x05 0x05 0xDD 0x62 0x40 0x9F 0xFC 
write to 0x0B ack data: 0x05 0x1F 0xE0 0x62 0x48 0x11 0xD2 0x42 0x40 0x9F 0xFC 0x48 0xF6 0x16 0xE0 0x82 0x40 0x9F 0xFC 0x48 0xF6 0x62 0xE9 0xC2 0x24 0x80 0x45 0x42 0x09 0x73 0x9F 0xB6 0x73 
write to 0x0B ack data: 0x05 0x05 0xFD 0x62 0x02 0xCB 0xF4 
write to 0x0B ack data: 0x05 0x1F 0x00 0x63 0xCA 0xD2 0xE9 0xE2 0x80 0x4B 0x04 0xD6 0x04 0x0E 0x14 0xC0 0xF6 0x81 0x9F 0x81 0x48 0x05 0xC0 0xA6 0x24 0x01 0xC4 0x9F 0xE4 0x48 0xF6 0x52 0x9F 
write to 0x0B ack data: 0x05 0x05 0x1D 0x63 0x47 0x48 0xE9 
write to 0x0B ack data: 0x05 0x1F 0x20 0x63 0xB2 0x01 0xC4 0x9F 0xF1 0x49 0xF6 0x15 0xF6 0x26 0x01 0xD0 0xA6 0x30 0xA6 0x14 0xA6 0x15 0x9C 0x85 0x3E 0x3D 0x9C 0x79 0xAC 0x9D 0xFF 0x7E 0xF4 
write to 0x0B ack data: 0x05 0x05 0x3D 0x63 0x64 0xC9 0x20 
write to 0x0B ack data: 0x05 0x1F 0x40 0x63 0x06 0x02 0xE8 0x24 0x11 0x18 0xF6 0x13 0x04 0xD6 0x02 0x0E 0xF6 0x41 0x9F 0x33 0x75 0x24 0x5F 0x02 0x40 0x04 0xD0 0x02 0x84 0x45 0x01 0xC2 0x9F 
write to 0x0B ack data: 0x05 0x05 0x5D 0x63 0xA4 0x36 0xD2 
write to 0x0B ack data: 0x05 0x1F 0x60 0x63 0x00 0x90 0x3C 0x49 0xCD 0xE6 0x59 0x00 0x90 0x35 0x4C 0xD8 0x7D 0xEE 0x65 0xF6 0x54 0x20 0x06 0x42 0xE8 0x24 0x02 0x00 0x24 0xCA 0x01 0xF4 0xB1 
write to 0x0B ack data: 0x05 0x05 0x7D 0x63 0x00 0x9F 0x1F 
write to 0x0B ack data: 0x05 0x1F 0x80 0x63 0x48 0x20 0x06 0x02 0xE8 0x25 0xF4 0x21 0xCE 0xB3 0x60 0x80 0x01 0x31 0x11 0x50 0xA4 0xB9 0x03 0xEE 0x64 0x20 0x5F 0x02 0xE8 0x24 0x21 0xE8 0x03 
write to 0x0B ack data: 0x05 0x05 0x9D 0x63 0x11 0x00 0xA5 
write to 0x0B ack data: 0x05 0x1F 0xA0 0x63 0x19 0x2F 0x2E 0x2D 0x9A 0x3D 0x3E 0x3F 0xA7 0x08 0xD2 0x00 0x90 0x1C 0x64 0x1A 0x21 0x2A 0x02 0x9C 0x68 0x24 0xCA 0x01 0x25 0x97 0x02 0x01 0x40 
write to 0x0B ack data: 0x05 0x05 0xBD 0x63 0xF4 0xC9 0x2A 
write to 0x0B ack data: 0x05 0x1F 0xC0 0x63 0x24 0x2A 0x02 0x11 0x00 0x9F 0x5D 0x39 0x98 0x25 0x24 0x2A 0x02 0x05 0x02 0x06 0x04 0x24 0x97 0x02 0x02 0x04 0x24 0x26 0x02 0x01 0x02 0x9F 0x49 
write to 0x0B ack data: 0x05 0x05 0xDD 0x63 0x36 0xA6 0x30 
write to 0x0B ack data: 0x05 0x1F 0xE0 0x63 0xA6 0x14 0xA6 0x15 0xED 0x21 0xEE 0x32 0x25 0x2A 0x02 0x11 0x42 0x12 0x44 0x25 0xCA 0x01 0x40 0x72 0x84 0xE0 0xA1 0x00 0x30 0x90 0xDB 0x24 0x97 
write to 0x0B ack data: 0x05 0x05 0xFD 0x63 0x02 0x07 0x00 
write to 0x0B ack data: 0x05 0x1F 0x00 0x64 0xF4 0xCF 0x6A 0xF6 0x71 0xA6 0x30 0xA6 0x14 0xA6 0x15 0x11 0xC4 0x12 0xC6 0x24 0x2A 0x02 0x01 0x02 0x02 0x04 0x24 0xE1 0x00 0x35 0x9C 0x7D 0xF6 
write to 0x0B ack data: 0x05 0x05 0x1D 0x64 0x12 0xA6 0x50 
write to 0x0B ack data: 0x05 0x1F 0x20 0x64 0xA6 0x16 0xA6 0x17 0x12 0xC0 0x13 0xC2 0x03 0xC4 0x04 0xC6 0x3C 0x3B 0x01 0xC4 0x02 0xC6 0x9C 0x78 0xAC 0x9C 0x85 0x3A 0x39 0x24 0x2A 0x02 0x01 
write to 0x0B ack data: 0x05 0x05 0x3D 0x64 0x12 0x02 0x14 
write to 0x0B ack data: 0x05 0x1F 0x40 0x64 0x9C 0x72 0xAC 0x25 0x2A 0x02 0x11 0x52 0x12 0x54 0x05 0x40 0xA6 0xB0 0xA6 0x1C 0xA6 0x1D 0x3E 0x3D 0x01 0xC8 0x02 0xCA 0x9C 0x78 0xAC 0x9C 0x85 
write to 0x0B ack data: 0x05 0x05 0x5D 0x64 0x3A 0x39 0x24 
write to 0x0B ack data: 0x05 0x1F 0x60 0x64 0x2A 0x02 0x01 0x16 0x02 0x18 0x9C 0x72 0xAC 0x24 0x2A 0x02 0x11 0x16 0x12 0x18 0x01 0xC0 0x02 0xC2 0x3A 0x39 0x01 0xC4 0x02 0xC6 0x9C 0x78 0xAC 
write to 0x0B ack data: 0x05 0x05 0x7D 0x64 0x9C 0x85 0x3A 
write to 0x0B ack data: 0x05 0x1F 0x80 0x64 0x39 0x24 0x2A 0x02 0x01 0x06 0x02 0x08 0x9C 0x72 0xAC 0x24 0x2A 0x02 0x11 0x06 0x12 0x08 0x3E 0x3D 0x01 0xC4 0x02 0xC6 0x9C 0x78 0xAC 0x9C 0x85 
write to 0x0B ack data: 0x05 0x05 0x9D 0x64 0x3A 0x39 0x24 
write to 0x0B ack data: 0x05 0x1F 0xA0 0x64 0x2A 0x02 0x01 0x0A 0x02 0x0C 0x9C 0x72 0xAC 0x24 0x2A 0x02 0x11 0x0A 0x12 0x0C 0x3E 0x3D 0xF6 0x51 0xF6 0x62 0x9C 0x78 0xAC 0x9C 0x85 0x3A 0x39 
write to 0x0B ack data: 0x05 0x05 0xBD 0x64 0x25 0x2A 0x02 
write to 0x0B ack data: 0x05 0x1F 0xC0 0x64 0x01 0x4E 0x02 0x50 0x9C 0x72 0xAC 0x11 0x4E 0x12 0x50 0x31 0x32 0x11 0x42 0x12 0x44 0x17 0x40 0x9F 0x5D 0x39 0xA8 0x2F 0x2E 0x2D 0x9A 0x3D 0x3E 
write to 0x0B ack data: 0x05 0x05 0xDD 0x64 0x3F 0xA7 0x01 
write to 0x0B ack data: 0x05 0x1F 0xE0 0x64 0xF6 0x16 0x9F 0x33 0x56 0xF6 0x61 0x9F 0x2E 0x60 0xA1 0x00 0x30 0x90 0x9D 0x24 0x80 0x45 0x02 0x00 0x33 0x24 0xCA 0x01 0x42 0x2F 0xB7 0x52 0x80 
write to 0x0B ack data: 0x05 0x05 0xFD 0x64 0x5A 0xB7 0x52 
write to 0x0B ack data: 0x05 0x1F 0x00 0x65 0x84 0x1A 0x42 0x2E 0xB6 0x52 0x80 0x50 0xB6 0x52 0x84 0x10 0x42 0x2D 0xB5 0x52 0x80 0x46 0xB5 0x52 0x84 0x06 0x42 0x2C 0xB4 0x52 0x80 0x3C 0xE0 
write to 0x0B ack data: 0x05 0x05 0x1D 0x65 0x92 0xB4 0x52 
write to 0x0B ack data: 0x05 0x1F 0x20 0x65 0xB4 0x24 0x80 0x45 0xE0 0x52 0x02 0x80 0x2F 0x72 0x52 0xB4 0x9F 0x6D 0x02 0xA6 0x27 0x98 0x21 0xB7 0x87 0xA6 0x7A 0x7B 0xED 0x61 0xE9 0x61 0xE9 
write to 0x0B ack data: 0x05 0x05 0x3D 0x65 0x61 0xE9 0x61 
write to 0x0B ack data: 0x05 0x1F 0x40 0x65 0xE6 0x22 0x14 0xB3 0xD3 0xA6 0x76 0xF6 0x62 0xE9 0x22 0xF6 0x61 0x57 0xC0 0x9F 0x1D 0x61 0x47 0xC0 0xD7 0x00 0x87 0xDB 0x74 0xF6 0x61 0xE6 0x22 
write to 0x0B ack data: 0x05 0x05 0x5D 0x65 0x14 0xB3 0xD3 
write to 0x0B ack data: 0x05 0x1F 0x60 0x65 0x9F 0x5A 0x5E 0x9F 0x19 0x57 0x9F 0x59 0x57 0xD2 0x00 0x90 0x10 0x60 0x01 0xF3 0xB9 0x60 0x08 0xF3 0xB4 0x9F 0xD6 0x57 0x9F 0xC6 0x59 0x98 0x0B 
write to 0x0B ack data: 0x05 0x05 0x7D 0x65 0x9F 0x82 0x42 
write to 0x0B ack data: 0x05 0x1F 0x80 0x65 0xD2 0x00 0x90 0x04 0x60 0x20 0xF3 0xB0 0x72 0x9F 0xA5 0x63 0xA9 0x2F 0x2E 0x2D 0x9A 0x3D 0x3F 0xF6 0x15 0x72 0x52 0x74 0x9F 0x0B 0x5C 0x62 0x01 
write to 0x0B ack data: 0x05 0x05 0x9D 0x65 0x9F 0xA5 0x63 
write to 0x0B ack data: 0x05 0x1F 0xA0 0x65 0xF6 0x51 0x9F 0x4F 0x5C 0xF6 0x51 0xE6 0x22 0x14 0xB3 0xD3 0x9F 0xDF 0x60 0x2F 0x2D 0x9A 0x3D 0xF6 0x15 0x24 0x0C 0x47 0x01 0x06 0x02 0x08 0x11 
write to 0x0B ack data: 0x05 0x05 0xBD 0x65 0x40 0x12 0x42 
write to 0x0B ack data: 0x05 0x1F 0xC0 0x65 0x2D 0x9A 0x23 0x0A 0x00 0x22 0x6C 0x02 0x9C 0x71 0x62 0x0A 0x9A 0x3D 0x3E 0x3F 0xA7 0x10 0x11 0xCA 0x64 0x0A 0x21 0x6C 0x02 0x9C 0x68 0x24 0x0C 
write to 0x0B ack data: 0x05 0x05 0xDD 0x65 0x47 0x40 0x00 
write to 0x0B ack data: 0x05 0x1F 0xE0 0x65 0xC0 0x01 0x90 0xC5 0x24 0x06 0x42 0x42 0x08 0xCA 0x04 0x90 0xBC 0xCA 0x03 0xD0 0x02 0x84 0x07 0xA1 0x00 0xB0 0xC0 0x02 0x84 0x04 0xCA 0x08 0x90 
write to 0x0B ack data: 0x05 0x05 0xFD 0x65 0xAB 0x23 0x04 
write to 0x0B ack data: 0x05 0x1F 0x00 0x66 0x00 0x02 0xCA 0x21 0x70 0x02 0x9C 0x71 0x9F 0xDC 0x3F 0x25 0x6C 0x02 0xE6 0x23 0x40 0x11 0x48 0x9F 0x6D 0x02 0x52 0xC8 0x52 0xC9 0x98 0x33 0xE0 
write to 0x0B ack data: 0x05 0x05 0x1D 0x66 0x82 0xC9 0x52 
write to 0x0B ack data: 0x05 0x1F 0x20 0x66 0xC9 0xA6 0x2C 0x7D 0xEE 0x65 0x04 0xCA 0xED 0x24 0x14 0xCE 0xF6 0x51 0x20 0x06 0x42 0xE8 0x21 0x11 0xCC 0x24 0x6C 0x02 0x03 0x08 0x04 0xCE 0xF4 
write to 0x0B ack data: 0x05 0x05 0x3D 0x66 0xCB 0x00 0x22 
write to 0x0B ack data: 0x05 0x1F 0x40 0x66 0x00 0x40 0xF6 0x14 0x01 0x00 0x9F 0x4D 0x3F 0xF6 0x80 0xE8 0x25 0x11 0x40 0x49 0xC9 0xE6 0x59 0x00 0x87 0xC6 0x44 0xC8 0xF6 0x81 0x9F 0x3A 0x76 
write to 0x0B ack data: 0x05 0x05 0x5D 0x66 0x11 0xC6 0x24 
write to 0x0B ack data: 0x05 0x1F 0x60 0x66 0x0C 0x47 0x07 0x01 0x01 0x03 0x11 0xC4 0x98 0x38 0x4C 0xC9 0x7D 0xEE 0x65 0xF6 0x84 0xED 0x24 0x01 0xC6 0xF4 0xC9 0x00 0xF6 0x14 0x21 0xFF 0xFF 
write to 0x0B ack data: 0x05 0x05 0x7D 0x66 0xF6 0x72 0x9C 
write to 0x0B ack data: 0x05 0x1F 0x80 0x66 0x7C 0x20 0x6C 0x02 0xE8 0x25 0xF6 0x10 0xEC 0x50 0x94 0x0A 0xF6 0x41 0xF6 0x72 0x9C 0x75 0x11 0x40 0x98 0x05 0x24 0xFF 0xFF 0x14 0x40 0xE0 0x99 
write to 0x0B ack data: 0x05 0x05 0x9D 0x66 0xC9 0x59 0xC9 
write to 0x0B ack data: 0x05 0x1F 0xA0 0x66 0x07 0xC4 0x42 0xC9 0xE0 0x52 0xC8 0x83 0xC1 0xA5 0x10 0x2F 0x2E 0x2D 0x9A 0x3D 0x3F 0xA1 0x00 0xB0 0xC0 0x10 0x90 0x49 0xE4 0x80 0xB3 0x84 0x08 
write to 0x0B ack data: 0x05 0x05 0xBD 0x66 0x25 0x6C 0x02 
write to 0x0B ack data: 0x05 0x1F 0xC0 0x66 0x22 0x02 0x00 0x98 0x22 0x9F 0xBB 0x35 0x24 0x0C 0x47 0xE0 0x52 0x0A 0x8F 0xED 0x98 0x2F 0x01 0x42 0x90 0x0B 0xB4 0x15 0xA1 0x00 0x30 0x90 0x04 
write to 0x0B ack data: 0x05 0x05 0xDD 0x66 0xE9 0x81 0x11 
write to 0x0B ack data: 0x05 0x1F 0xE0 0x66 0x42 0xB4 0xB4 0xED 0x85 0xED 0x85 0x20 0x68 0x02 0xED 0xC0 0x87 0xE4 0x24 0xCA 0x01 0xF4 0x90 0x06 0x10 0x06 0x30 0xF4 0x38 0x08 0x10 0x08 0xA3 
write to 0x0B ack data: 0x05 0x05 0xFD 0x66 0x32 0x50 0x98 
write to 0x0B ack data: 0x05 0x1F 0x00 0x67 0x03 0xA4 0x32 0x00 0x2F 0x2D 0x9A 0x3D 0x3E 0x3F 0xF6 0x15 0xF6 0x24 0x26 0x0C 0x47 0x4E 0x80 0xE6 0xAE 0x04 0x90 0x68 0x02 0x40 0x03 0x42 0xA6 
write to 0x0B ack data: 0x05 0x05 0x1D 0x67 0x42 0xB5 0x12 
write to 0x0B ack data: 0x05 0x1F 0x20 0x67 0xB6 0x12 0xB7 0x12 0xD2 0x00 0x90 0x24 0xEA 0x81 0xF6 0x32 0x30 0xE8 0xD2 0x11 0x40 0x12 0x42 0xA6 0x26 0xB3 0x16 0xB4 0x16 0xB5 0x16 0xD6 0x00 
write to 0x0B ack data: 0x05 0x05 0x3D 0x67 0x84 0x3E 0x60 
write to 0x0B ack data: 0x05 0x1F 0x40 0x67 0xEF 0xF2 0xB0 0x64 0x04 0x21 0x6C 0x02 0x9C 0x68 0x98 0x31 0xA1 0x00 0xB0 0xC0 0x10 0x90 0x2A 0x42 0x85 0x73 0xF4 0xE1 0x2B 0x88 0x17 0xE6 0xAE 
write to 0x0B ack data: 0x05 0x05 0x5D 0x67 0x10 0x84 0x05 
write to 0x0B ack data: 0x05 0x1F 0x60 0x67 0x21 0x12 0x02 0x98 0x0A 0xA1 0x00 0xB4 0xC0 0x20 0x90 0x14 0x21 0x16 0x02 0x9F 0xCD 0x65 0x24 0x0C 0x47 0x01 0x06 0x02 0x08 0x11 0x40 0x12 0x42 
write to 0x0B ack data: 0x05 0x05 0x7D 0x67 0x9F 0xAF 0x66 
write to 0x0B ack data: 0x05 0x1F 0x80 0x67 0x2F 0x2E 0x2D 0x9A 0x24 0x30 0x80 0x01 0x05 0x02 0x07 0x9A 0x3F 0x24 0x30 0x80 0x01 0x01 0x02 0x03 0x19 0xBD 0x1A 0xBF 0x24 0x92 0x80 0x60 0xDF 
write to 0x0B ack data: 0x05 0x05 0x9D 0x67 0xF0 0x00 0x21 
write to 0x0B ack data: 0x05 0x1F 0xA0 0x67 0x00 0x08 0x9C 0x47 0x2F 0x9A 0x3F 0x63 0x20 0x9F 0x2E 0x68 0x9F 0x02 0x68 0x32 0x21 0x00 0x08 0x9C 0x43 0x2F 0x9A 0x3D 0x3E 0x3F 0x25 0x90 0x80 
write to 0x0B ack data: 0x05 0x05 0xBD 0x67 0x26 0x30 0x80 
write to 0x0B ack data: 0x05 0x1F 0xC0 0x67 0x60 0x20 0xF1 0x42 0x21 0x00 0x08 0x9C 0x45 0x42 0x80 0xCA 0x01 0x87 0xF1 0x09 0xBD 0x0A 0xBF 0x2F 0x2E 0x2D 0x9A 0x3D 0x3F 0xA6 0x2A 0xA6 0x3B 
write to 0x0B ack data: 0x05 0x05 0xDD 0x67 0xD2 0xE9 0x84 
write to 0x0B ack data: 0x05 0x1F 0xE0 0x67 0x02 0xB2 0x9A 0x21 0x10 0x10 0x9F 0x2E 0x68 0xA6 0xA3 0x62 0x0C 0x9F 0xAC 0x6B 0x24 0x90 0x80 0x62 0xDF 0x52 0x00 0xE6 0x1B 0x01 0x24 0x30 0x80 
write to 0x0B ack data: 0x05 0x05 0xFD 0x67 0x5B 0x00 0x2F 
write to 0x0B ack data: 0x05 0x1F 0x00 0x68 0x2D 0x9A 0x3F 0x24 0x92 0x80 0x60 0xDF 0xF0 0x00 0x21 0x00 0x10 0x9F 0x2E 0x68 0x24 0x30 0x80 0x42 0x00 0xCA 0x01 0x87 0xFA 0x21 0x0C 0xE0 0x9F 
write to 0x0B ack data: 0x05 0x05 0x1D 0x68 0xAC 0x6B 0x24 
write to 0x0B ack data: 0x05 0x1F 0x20 0x68 0x30 0x80 0x72 0x52 0x00 0x24 0x90 0x80 0x62 0xDF 0x52 0x00 0x2F 0x9A 0x3D 0x3F 0xA6 0x2A 0xA6 0x3B 0x21 0x00 0x20 0x9C 0x45 0xBB 0xA3 0xE4 0x03 
write to 0x0B ack data: 0x05 0x05 0x3D 0x68 0xC5 0xBB 0x0A 
write to 0x0B ack data: 0x05 0x1F 0x40 0x68 0xBA 0x13 0xA3 0xC5 0x30 0x62 0x0B 0x9F 0xAC 0x6B 0x21 0x00 0x20 0x9C 0x47 0x2F 0x2D 0x9A 0x3D 0x3E 0x3F 0xA7 0x01 0xA6 0x2A 0xF6 0x26 0x42 0x80 
write to 0x0B ack data: 0x05 0x05 0x5D 0x68 0x52 0xC0 0xA6 
write to 0x0B ack data: 0x05 0x1F 0x60 0x68 0xA2 0x9F 0x06 0x6A 0x7B 0x43 0xC0 0xB2 0x53 0x84 0x04 0x6B 0x01 0x98 0x07 0x43 0x80 0xA6 0xA2 0x9F 0x4C 0x6B 0xA6 0xB2 0xA9 0x2F 0x2E 0x2D 0x9A 
write to 0x0B ack data: 0x05 0x05 0x7D 0x68 0x3D 0x3E 0x3F 
write to 0x0B ack data: 0x05 0x1F 0x80 0x68 0xA7 0x03 0xF5 0x91 0xC8 0x11 0xC0 0x21 0x00 0x20 0x9C 0x45 0x22 0xC3 0x00 0x62 0x05 0x9F 0x52 0x68 0x52 0xC2 0x22 0xC2 0x00 0x62 0x04 0x9F 0x52 
write to 0x0B ack data: 0x05 0x05 0x9D 0x68 0x68 0xA6 0x2A 
write to 0x0B ack data: 0x05 0x1F 0xA0 0x68 0x22 0xC4 0x00 0x62 0x0A 0x9F 0x52 0x68 0xA6 0x2C 0x22 0xC5 0x00 0x62 0x0B 0x9F 0x52 0x68 0xA6 0x2D 0x22 0xC6 0x00 0x62 0x0E 0x9F 0x52 0x68 0xA6 
write to 0x0B ack data: 0x05 0x05 0xBD 0x68 0x2B 0x22 0xC7 
write to 0x0B ack data: 0x05 0x1F 0xC0 0x68 0x00 0x62 0x0F 0x9F 0x52 0x68 0xE0 0x0A 0xC2 0xBC 0x0A 0xBD 0x0A 0xBB 0x0A 0xE5 0x0C 0x2A 0x6D 0x10 0xF4 0x95 0xC0 0x02 0xC0 0xA6 0xD2 0x9F 0x52 
write to 0x0B ack data: 0x05 0x05 0xDD 0x68 0x68 0xB2 0x0C 
write to 0x0B ack data: 0x05 0x1F 0xE0 0x68 0xBD 0x9D 0x15 0xC0 0xE6 0x5D 0x15 0x87 0xEB 0x21 0x00 0x20 0x9C 0x47 0xA6 0xC2 0xAB 0x2F 0x2E 0x2D 0x9A 0x3F 0x21 0x00 0x20 0x9C 0x45 0x21 0x03 
write to 0x0B ack data: 0x05 0x05 0xFD 0x68 0x00 0x9F 0x4C 
write to 0x0B ack data: 0x05 0x1F 0x00 0x69 0x6B 0x21 0x00 0xFD 0x9F 0x4C 0x6B 0x21 0x00 0x20 0x9C 0x47 0x2F 0x9A 0x9A 0xA1 0x02 0xC1 0xA1 0x03 0xC3 0xA3 0xC1 0x30 0x9A 0x3D 0x3E 0x3F 0xF6 
write to 0x0B ack data: 0x05 0x05 0x1D 0x69 0x15 0x22 0x00 
write to 0x0B ack data: 0x05 0x1F 0x20 0x69 0x20 0xF6 0x21 0x9C 0x43 0x21 0x00 0x20 0x9C 0x45 0x62 0x03 0x9F 0x06 0x6A 0x62 0x0B 0x9F 0x06 0x6A 0xA3 0xC5 0x20 0x62 0x0F 0x9F 0x06 0x6A 0xA3 
write to 0x0B ack data: 0x05 0x05 0x3D 0x69 0xC7 0x20 0xF9 
write to 0x0B ack data: 0x05 0x1F 0x40 0x69 0x50 0x90 0x55 0xED 0x96 0x1D 0xC8 0xA1 0x03 0xC3 0xC3 0x3F 0x42 0x40 0xC2 0xC0 0xB2 0x13 0xA3 0xC3 0x30 0x62 0x05 0x9F 0x06 0x6A 0xC2 0x0F 0x43 
write to 0x0B ack data: 0x05 0x05 0x5D 0x69 0x40 0xC3 0xC0 
write to 0x0B ack data: 0x05 0x1F 0x60 0x69 0xB2 0x13 0x62 0x05 0x9F 0x4C 0x6B 0xA4 0xC2 0x02 0xA4 0xC6 0x00 0xA4 0xC4 0x00 0x21 0x04 0x02 0x9F 0x4C 0x6B 0xA1 0x03 0xC6 0x62 0x0E 0x9F 0x4C 
write to 0x0B ack data: 0x05 0x05 0x7D 0x69 0x6B 0xA1 0x03 
write to 0x0B ack data: 0x05 0x1F 0x80 0x69 0xC4 0x62 0x0A 0x9F 0x4C 0x6B 0x6A 0x10 0x43 0x80 0xEE 0x96 0xA6 0xA2 0x9F 0x4C 0x6B 0xBA 0x9A 0xE6 0x5A 0x15 0x87 0xF0 0x21 0x00 0x20 0x9C 0x47 
write to 0x0B ack data: 0x05 0x05 0x9D 0x69 0x9F 0xF5 0x68 
write to 0x0B ack data: 0x05 0x1F 0xA0 0x69 0x2F 0x2E 0x2D 0x9A 0x3D 0x3F 0xA6 0x2A 0xA6 0x3B 0x21 0x00 0x20 0x9C 0x45 0xBB 0xA3 0xE4 0x03 0xC2 0xBB 0x0A 0xBA 0x13 0xA3 0xC2 0x30 0x62 0x04 
write to 0x0B ack data: 0x05 0x05 0xBD 0x69 0x9F 0x4C 0x6B 
write to 0x0B ack data: 0x05 0x1F 0xC0 0x69 0x21 0x00 0x20 0x9C 0x47 0x2F 0x2D 0x9A 0x3D 0x3F 0xA6 0x2A 0xA6 0x3B 0x21 0x00 0x20 0x9C 0x45 0xBB 0xA3 0xE4 0x03 0xC7 0xBB 0x0A 0xBA 0x13 0xA3 
write to 0x0B ack data: 0x05 0x05 0xDD 0x69 0xC7 0x30 0x62 
write to 0x0B ack data: 0x05 0x1F 0xE0 0x69 0x0F 0x9F 0xAC 0x6B 0x21 0x00 0x20 0x9C 0x47 0x2F 0x2D 0x9A 0xA2 0xA0 0x3F 0x21 0x00 0x20 0x9C 0x45 0x62 0x01 0x9F 0x06 0x6A 0xA6 0x2A 0x21 0x00 
write to 0x0B ack data: 0x05 0x05 0xFD 0x69 0x20 0x9C 0x47 
write to 0x0B ack data: 0x05 0x1F 0x00 0x6A 0xA6 0xA2 0x2F 0xA0 0x0A 0x9A 0x3D 0x3E 0x3F 0xA7 0x01 0x52 0xC0 0xD2 0x24 0x8C 0x42 0x36 0x98 0x37 0x42 0xC0 0x9F 0xA3 0x6B 0xA6 0x2A 0xD3 0x00 
write to 0x0B ack data: 0x05 0x05 0x1D 0x6A 0x84 0x27 0xE6 
write to 0x0B ack data: 0x05 0x1F 0x20 0x6A 0x5B 0x00 0x90 0x1C 0x42 0xC0 0xD2 0x00 0x90 0x04 0xD2 0x03 0x84 0x09 0xE5 0x12 0xAC 0xBA 0x52 0x84 0x06 0x98 0x20 0xBC 0x5A 0x90 0x1C 0xBD 0x9D 
write to 0x0B ack data: 0x05 0x05 0x3D 0x6A 0x9F 0xF2 0x00 
write to 0x0B ack data: 0x05 0x1F 0x40 0x6A 0xA6 0xAC 0x6B 0x01 0x98 0x06 0xBD 0x9D 0x9F 0xF2 0x00 0x7B 0x0C 0xC8 0xE0 0x5D 0x06 0x97 0xC1 0x62 0xFF 0x98 0x02 0xA6 0xA2 0xA9 0x2F 0x2E 0x2D 
write to 0x0B ack data: 0x05 0x05 0x5D 0x6A 0x9A 0xA2 0xA0 
write to 0x0B ack data: 0x05 0x1F 0x60 0x6A 0x3F 0xA6 0x2A 0x21 0x00 0x20 0x9C 0x45 0xA6 0xA2 0x9F 0x06 0x6A 0xA6 0x2A 0x21 0x00 0x20 0x9C 0x47 0xA6 0xA2 0x2F 0xA0 0x0A 0x9A 0x3D 0xA2 0xC0 
write to 0x0B ack data: 0x05 0x05 0x7D 0x6A 0x3F 0xF6 0x15 
write to 0x0B ack data: 0x05 0x1F 0x80 0x6A 0x21 0x00 0x20 0x9C 0x45 0x7C 0xA6 0xC2 0x9F 0x06 0x6A 0x52 0x40 0xED 0x95 0xBC 0x9C 0xE6 0x5C 0x15 0x87 0xF0 0x21 0x00 0x20 0x9C 0x47 0x2F 0xA0 
write to 0x0B ack data: 0x05 0x05 0x9D 0x6A 0x0C 0x2D 0x9A 
write to 0x0B ack data: 0x05 0x1F 0xA0 0x6A 0xA2 0xA0 0x3F 0x21 0x00 0x20 0x9C 0x45 0x62 0x03 0x9F 0x06 0x6A 0xA6 0x2A 0x21 0x00 0x20 0x9C 0x47 0xA6 0xA2 0x2F 0xA0 0x0A 0x9A 0x3F 0x21 0x02 
write to 0x0B ack data: 0x05 0x05 0xBD 0x6A 0x02 0x9F 0xC3 
write to 0x0B ack data: 0x05 0x1F 0xC0 0x6A 0x6A 0x2F 0x9A 0x3D 0x3F 0xA6 0x2A 0xA6 0x3B 0x21 0x00 0x20 0x9C 0x45 0xBB 0xA3 0xE4 0x03 0xC6 0xBB 0x0A 0xBA 0x13 0xA3 0xC6 0x30 0x62 0x0E 0x9F 
write to 0x0B ack data: 0x05 0x05 0xDD 0x6A 0x4C 0x6B 0x21 
write to 0x0B ack data: 0x05 0x1F 0xE0 0x6A 0x00 0x20 0x9C 0x47 0x2F 0x2D 0x9A 0xA2 0xA0 0x3F 0xCA 0x02 0x90 0x03 0xE6 0x12 0x04 0xA6 0x2A 0xE6 0x0A 0x05 0x60 0x0F 0xE4 0x00 0xC4 0xBA 0x50 
write to 0x0B ack data: 0x05 0x05 0xFD 0x6A 0x90 0x19 0x21 
write to 0x0B ack data: 0x05 0x1F 0x00 0x6B 0x00 0x20 0x9C 0x45 0xA1 0x03 0xC4 0xC3 0xF0 0xBA 0x13 0xA3 0xC4 0x30 0x62 0x0A 0x9F 0x4C 0x6B 0x21 0x00 0x20 0x9C 0x47 0x2F 0xA0 0x0A 0x9A 0x3D 
write to 0x0B ack data: 0x05 0x05 0x1D 0x6B 0x3F 0xA6 0x3A 
write to 0x0B ack data: 0x05 0x1F 0x20 0x6B 0xE5 0x0B 0x32 0xA6 0x32 0xE4 0x02 0xC3 0xB2 0x5B 0x90 0x1D 0x21 0x00 0x20 0x9C 0x45 0xBA 0xA3 0xE4 0x03 0xC3 0xBB 0x13 0xA3 0xC3 0x30 0xA6 0x30 
write to 0x0B ack data: 0x05 0x05 0x3D 0x6B 0xF3 0xC1 0x62 
write to 0x0B ack data: 0x05 0x1F 0x40 0x6B 0x05 0x9F 0x4C 0x6B 0x21 0x00 0x20 0x9C 0x47 0x2F 0x2D 0x9A 0x3D 0xA2 0xC0 0x3F 0xA6 0x2A 0xA6 0x3C 0xD2 0x24 0x8C 0x2C 0x7B 0x98 0x22 0xA6 0xC3 
write to 0x0B ack data: 0x05 0x05 0x5D 0x6B 0xA6 0xA2 0x9F 
write to 0x0B ack data: 0x05 0x1F 0x60 0x6B 0xAC 0x6B 0xD3 0x00 0x84 0x12 0xE6 0x5A 0x03 0x94 0x19 0xA6 0xA2 0x9F 0xA3 0x6B 0xD3 0x00 0x84 0x04 0xBC 0x52 0x90 0x0C 0xBB 0x9B 0x9F 0xF2 0x00 
write to 0x0B ack data: 0x05 0x05 0x7D 0x6B 0x0C 0xC8 0xE0 
write to 0x0B ack data: 0x05 0x1F 0x80 0x6B 0x5B 0x06 0x97 0xD7 0x2F 0xA0 0x0C 0x2D 0x9A 0x3D 0x3F 0xA6 0x2B 0xA6 0x3A 0x21 0x00 0x20 0x9C 0x45 0xA6 0xA3 0xA6 0xB2 0x9F 0x4C 0x6B 0x21 0x00 
write to 0x0B ack data: 0x05 0x05 0x9D 0x6B 0x20 0x9C 0x47 
write to 0x0B ack data: 0x05 0x1F 0xA0 0x6B 0x2F 0x2D 0x9A 0x3F 0xFC 0x60 0x9C 0x61 0xFC 0x50 0x2F 0x9A 0x3F 0xFC 0x60 0x9C 0x62 0xFC 0x50 0x2F 0x9A 0x3D 0xA2 0xC0 0x3F 0xA6 0x2C 0xA6 0x3B 
write to 0x0B ack data: 0x05 0x05 0xBD 0x6B 0xA6 0x4A 0xFC 
write to 0x0B ack data: 0x05 0x1F 0xC0 0x6B 0x60 0x9F 0xA3 0x6B 0xA6 0x24 0xD3 0x00 0x84 0x10 0xE5 0x02 0xAB 0xBA 0xA3 0xB4 0x03 0xB2 0x13 0xA6 0xC2 0x9F 0xAC 0x6B 0xA6 0x24 0xFC 0x50 0xA6 
write to 0x0B ack data: 0x05 0x05 0xDD 0x6B 0x42 0x2F 0xA0 
write to 0x0B ack data: 0x05 0x1F 0xE0 0x6B 0x0C 0x2D 0x9A 0x3D 0x3F 0xA6 0x2B 0xA6 0x3A 0x21 0x00 0x20 0x9C 0x45 0xE6 0x5A 0x00 0x84 0x11 0xA1 0x03 0xC3 0xC3 0xC0 0xA6 0xB2 0xC2 0x0F 0xB3 
write to 0x0B ack data: 0x05 0x05 0xFD 0x6B 0x12 0xA3 0xC3 
write to 0x0B ack data: 0x05 0x1F 0x00 0x6C 0x20 0xA3 0xC1 0xB0 0xA1 0x03 0xC3 0x62 0x05 0x9F 0x4C 0x6B 0x21 0x00 0x20 0x9C 0x47 0xA1 0x02 0xC3 0xC2 0x0F 0x2F 0x2D 0x9A 0x3F 0x64 0x80 0xA1 
write to 0x0B ack data: 0x05 0x05 0x1D 0x6C 0x03 0xCA 0x62 
write to 0x0B ack data: 0x05 0x1F 0x20 0x6C 0x09 0x9F 0xB5 0x6B 0xA1 0x03 0xC6 0xE6 0x13 0x10 0x62 0x0E 0x9F 0xAC 0x6B 0x21 0x00 0x7F 0x9F 0xAC 0x6B 0x2F 0x9A 0x3D 0x3F 0xA1 0x00 0xCA 0xC0 
write to 0x0B ack data: 0x05 0x05 0x3D 0x6C 0x10 0x90 0x05 
write to 0x0B ack data: 0x05 0x1F 0x40 0x6C 0x21 0x01 0x00 0x98 0x1D 0x62 0x03 0x9F 0x06 0x6A 0xA6 0x2A 0x7B 0xBB 0xBB 0xBA 0xEA 0xBB 0xBB 0xBA 0xEA 0xBB 0xBB 0xBA 0xEA 0xBB 0xBB 0xBA 0xEA 
write to 0x0B ack data: 0x05 0x05 0x5D 0x6C 0x21 0x01 0x00 
write to 0x0B ack data: 0x05 0x1F 0x60 0x6C 0xED 0x01 0x2F 0x2D 0x9A 0x3D 0x3F 0xA6 0x2B 0xA1 0x0A 0xCA 0x62 0x03 0x9F 0x06 0x6A 0xBA 0x12 0xC2 0x10 0xA6 0xB3 0xC3 0xC0 0xB3 0x12 0xA3 0xCA 
write to 0x0B ack data: 0x05 0x05 0x7D 0x6C 0x20 0x64 0x80 
write to 0x0B ack data: 0x05 0x1F 0x80 0x6C 0x21 0x09 0x00 0x9F 0xB5 0x6B 0x21 0x00 0x80 0x9F 0xA4 0x69 0x21 0x03 0xEF 0x9F 0xAC 0x6B 0x21 0x00 0x7F 0x9F 0xAC 0x6B 0x63 0x03 0xA6 0xB2 0x9F 
write to 0x0B ack data: 0x05 0x05 0x9D 0x6C 0xC8 0x69 0xA1 
write to 0x0B ack data: 0x05 0x1F 0xA0 0x6C 0x00 0xCA 0xC0 0x40 0x90 0x07 0x63 0x80 0xA6 0x32 0x9F 0xA4 0x69 0x64 0x80 0xA1 0x03 0xCA 0x62 0x09 0x9F 0xB5 0x6B 0x2F 0x2D 0x9A 0x3F 0x24 0x92 
write to 0x0B ack data: 0x05 0x05 0xBD 0x6C 0x80 0x60 0x10 
write to 0x0B ack data: 0x05 0x1F 0xC0 0x6C 0xF1 0x00 0x21 0x00 0x04 0x9C 0x45 0x09 0xCB 0x2F 0x9A 0x3F 0x24 0x40 0x80 0x01 0x01 0x19 0xCB 0x24 0x92 0x80 0x60 0xEF 0xF0 0x00 0x21 0x00 0x04 
write to 0x0B ack data: 0x05 0x05 0xDD 0x6C 0x9C 0x47 0x2F 
write to 0x0B ack data: 0x05 0x1F 0xE0 0x6C 0x9A 0x3F 0x9F 0x0D 0x6D 0x32 0x21 0x00 0x04 0x9C 0x43 0x2F 0x9A 0x3F 0x21 0x01 0x03 0x9F 0x2E 0x68 0x24 0x40 0x80 0x62 0x01 0x52 0x00 0x2F 0x9A 
write to 0x0B ack data: 0x05 0x05 0xFD 0x6C 0x3F 0x21 0x03 
write to 0x0B ack data: 0x05 0x1F 0x00 0x6D 0x03 0x9F 0x2E 0x68 0x24 0x40 0x80 0x62 0x01 0x52 0x00 0x2F 0x9A 0x3D 0x3F 0x25 0x90 0x80 0x60 0xEF 0xF0 0x42 0x21 0x00 0x03 0x9F 0x2E 0x68 0x24 
write to 0x0B ack data: 0x05 0x05 0x1D 0x6D 0x40 0x80 0x72 
write to 0x0B ack data: 0x05 0x1F 0x20 0x6D 0x52 0x00 0x62 0xEF 0x52 0x40 0x2F 0x2D 0x9A 0x3D 0x3F 0xF6 0x15 0x9F 0x07 0x01 0xD2 0x00 0x90 0x0E 0x9F 0xE4 0x6D 0xFC 0x60 0xF6 0x51 0x9C 0x58 
write to 0x0B ack data: 0x05 0x05 0x3D 0x6D 0xFC 0x50 0x9F 
write to 0x0B ack data: 0x05 0x1F 0x40 0x6D 0xB9 0x6D 0x2F 0x2D 0x9A 0x3D 0x3E 0x3F 0xA7 0x01 0xF6 0x16 0xF6 0x25 0x56 0xC0 0x9F 0x07 0x01 0xD2 0x00 0x90 0x24 0x9F 0xE4 0x6D 0x46 0xC0 0xF6 
write to 0x0B ack data: 0x05 0x05 0x5D 0x6D 0x52 0xF6 0x61 
write to 0x0B ack data: 0x05 0x1F 0x60 0x6D 0x9F 0xDB 0x78 0x46 0xC0 0xF6 0x52 0xF6 0x61 0x9F 0x62 0x76 0xFB 0x90 0x09 0x46 0xC0 0xF6 0x52 0xF6 0x61 0x9F 0x12 0x6E 0x9F 0xB9 0x6D 0xA9 0x2F 
write to 0x0B ack data: 0x05 0x05 0x7D 0x6D 0x2E 0x2D 0x9A 
write to 0x0B ack data: 0x05 0x1F 0x80 0x6D 0x3D 0x3F 0x05 0xC4 0x98 0x05 0x3D 0x3F 0x25 0x80 0x4F 0x39 0x3A 0x3B 0x9F 0x07 0x01 0xD2 0x00 0x90 0x0D 0x9F 0xE4 0x6D 0x2B 0x2A 0x29 0x1D 0xD1 
write to 0x0B ack data: 0x05 0x05 0x9D 0x6D 0x2F 0x2D 0x9B 
write to 0x0B ack data: 0x05 0x1F 0xA0 0x6D 0x8E 0x7A 0x21 0x00 0x00 0xAE 0x2F 0x2D 0x9A 0x3F 0xA1 0x00 0xCE 0x90 0x08 0xA4 0xCE 0x00 0x21 0x00 0x10 0x9C 0x47 0x2F 0x9A 0x3F 0xA1 0x00 0xCE 
write to 0x0B ack data: 0x05 0x05 0xBD 0x6D 0x84 0x05 0x21 
write to 0x0B ack data: 0x05 0x1F 0xC0 0x6D 0x00 0x10 0x9C 0x47 0x2F 0x9A 0x3F 0xA1 0x00 0xCE 0x84 0x15 0x21 0x00 0x10 0x9C 0x44 0xFB 0x90 0x0D 0x9F 0xF1 0x71 0xE6 0x12 0x80 0xA3 0xCE 0x20 
write to 0x0B ack data: 0x05 0x05 0xDD 0x6D 0x62 0x01 0x98 
write to 0x0B ack data: 0x05 0x1F 0xE0 0x6D 0x01 0x72 0x2F 0x9A 0x3F 0xA1 0x00 0xCE 0x90 0x0C 0x9F 0xF1 0x71 0x60 0x7F 0xE4 0x00 0xCE 0xB2 0x50 0x90 0x05 0x21 0x00 0x10 0x9C 0x45 0x2F 0x9A 
write to 0x0B ack data: 0x05 0x05 0xFD 0x6D 0x3D 0x3F 0x9F 
write to 0x0B ack data: 0x05 0x1F 0x00 0x6E 0xE4 0x6D 0xFC 0x60 0x9C 0x50 0xF6 0x15 0xFC 0x50 0x9F 0xB9 0x6D 0xF6 0x51 0x2F 0x2D 0x9A 0x9B 0xAF 0x7B 0x3D 0x3F 0xF6 0x15 0x9F 0x07 0x01 0xD2 
write to 0x0B ack data: 0x05 0x05 0x1D 0x6E 0x00 0x90 0x0E 
write to 0x0B ack data: 0x05 0x1F 0x20 0x6E 0x9F 0xE4 0x6D 0xFC 0x60 0xF6 0x51 0x9C 0x55 0xFC 0x50 0x9F 0xB9 0x6D 0x2F 0x2D 0x9A 0x3D 0x3E 0x3F 0xA7 0x01 0xF6 0x16 0xF6 0x25 0x56 0xC0 0x9F 
write to 0x0B ack data: 0x05 0x05 0x3D 0x6E 0x07 0x01 0xD2 
write to 0x0B ack data: 0x05 0x1F 0x40 0x6E 0x00 0x90 0x12 0x9F 0xE4 0x6D 0xFC 0x60 0x46 0xC0 0xF6 0x52 0xF6 0x61 0x9C 0x54 0xFC 0x50 0x9F 0xB9 0x6D 0xA9 0x2F 0x2E 0x2D 0x9A 0x3F 0xA7 0x01 
write to 0x0B ack data: 0x05 0x05 0x5D 0x6E 0x66 0x01 0xF6 
write to 0x0B ack data: 0x05 0x1F 0x60 0x6E 0x82 0x9F 0x78 0x6E 0x42 0xC0 0xA9 0x2F 0x9A 0x3F 0xA7 0x02 0x66 0x02 0xF6 0x82 0x9F 0x78 0x6E 0x01 0xC0 0xAA 0x2F 0x9A 0x3F 0xFC 0x60 0x9C 0x53 
write to 0x0B ack data: 0x05 0x05 0x7D 0x6E 0xFC 0x50 0x2F 
write to 0x0B ack data: 0x05 0x1F 0x80 0x6E 0x9A 0xFC 0x60 0x24 0x90 0x80 0x72 0x52 0x00 0x52 0x01 0x52 0x02 0x52 0x03 0x52 0x04 0x52 0x05 0x62 0xFF 0x52 0x07 0x9A 0x3F 0xE4 0x60 0x00 0x88 
write to 0x0B ack data: 0x05 0x05 0x9D 0x6E 0x02 0x9C 0x10 
write to 0x0B ack data: 0x05 0x1F 0xA0 0x6E 0x2F 0x9A 0x3D 0x3F 0xA6 0x2B 0xA6 0x3A 0xA1 0x02 0x19 0x9F 0xF3 0x6F 0xD2 0x00 0x90 0x05 0xA1 0x02 0xCF 0x98 0x0E 0xA6 0xA2 0xA3 0xCF 0xA0 0xA1 
write to 0x0B ack data: 0x05 0x05 0xBD 0x6E 0x00 0x19 0xC0 
write to 0x0B ack data: 0x05 0x1F 0xC0 0x6E 0x01 0x84 0x02 0xA6 0xB2 0x2F 0x2D 0x9A 0x3D 0x3F 0x25 0x10 0x80 0x52 0x40 0x9F 0x97 0x70 0x42 0x43 0x73 0xCA 0x4C 0xD0 0x40 0x84 0x02 0x63 0x01 
write to 0x0B ack data: 0x05 0x05 0xDD 0x6E 0xA6 0x32 0x2F 
write to 0x0B ack data: 0x05 0x1F 0xE0 0x6E 0x2D 0x9A 0xA2 0xA0 0x3E 0x3F 0xA7 0x05 0xF6 0x16 0x12 0xC1 0x13 0xC3 0xF6 0x81 0x9C 0x16 0xA6 0x2A 0x9F 0xD8 0x6F 0xE6 0x5A 0x02 0x84 0x1E 0x42 
write to 0x0B ack data: 0x05 0x05 0xFD 0x6E 0xC0 0xF6 0x60 
write to 0x0B ack data: 0x05 0x1F 0x00 0x6F 0x9E 0x00 0x00 0xD2 0x00 0x90 0x13 0x9C 0x10 0x98 0x07 0x42 0xC0 0x00 0xC3 0x9E 0x00 0x00 0xF6 0x81 0x9C 0x16 0xD2 0x02 0x93 0xF1 0x9C 0x21 0xD2 
write to 0x0B ack data: 0x05 0x05 0x1D 0x6F 0x00 0x90 0x0A 
write to 0x0B ack data: 0x05 0x1F 0x20 0x6F 0x00 0xC1 0x9E 0x00 0x00 0x9F 0xC8 0x6E 0x99 0xF2 0x24 0x10 0x80 0x42 0x07 0x52 0xC0 0xCA 0x20 0x90 0x06 0x21 0x00 0x04 0x9F 0xA6 0x70 0x62 0x01 
write to 0x0B ack data: 0x05 0x05 0x3D 0x6F 0x9C 0x14 0x42 
write to 0x0B ack data: 0x05 0x1F 0x40 0x6F 0xC0 0x24 0x10 0x80 0x52 0x07 0xAD 0x2F 0x2E 0xA0 0x0A 0x9A 0xA1 0x02 0x19 0xE4 0x52 0x18 0x80 0x04 0xA4 0x19 0x00 0x9A 0xB2 0x92 0xA3 0x19 0x20 
write to 0x0B ack data: 0x05 0x05 0x5D 0x6F 0x9A 0x3D 0xA2 
write to 0x0B ack data: 0x05 0x1F 0x60 0x6F 0xC0 0x3F 0xA6 0x3C 0x25 0x10 0x80 0x73 0x53 0x44 0x24 0xD0 0x80 0x53 0x02 0x9C 0x1E 0xA1 0x02 0x00 0xE6 0x12 0x01 0xC2 0xFD 0xA3 0x00 0x20 0xDA 
write to 0x0B ack data: 0x05 0x05 0x7D 0x6F 0x00 0x88 0x06 
write to 0x0B ack data: 0x05 0x1F 0x80 0x6F 0x60 0xA0 0xF3 0x07 0x98 0x02 0x5C 0x46 0x31 0x19 0x16 0xA4 0x18 0x00 0xA4 0x19 0x00 0xA4 0x1A 0x01 0x32 0x21 0x00 0xC0 0x9C 0x43 0x2F 0xA0 0x0C 
write to 0x0B ack data: 0x05 0x05 0x9D 0x6F 0x2D 0x9A 0x3D 
write to 0x0B ack data: 0x05 0x1F 0xA0 0x6F 0xF6 0x25 0x90 0x11 0xA1 0x04 0x19 0xB2 0x54 0x80 0x0A 0x75 0x73 0xE9 0xC2 0xEA 0x25 0x42 0x40 0x98 0x01 0x72 0x2D 0x9A 0x3D 0x3F 0xF6 0x25 0x90 
write to 0x0B ack data: 0x05 0x05 0xBD 0x6F 0x16 0xA1 0x04 
write to 0x0B ack data: 0x05 0x1F 0xC0 0x6F 0x19 0xB2 0x54 0x80 0x0F 0x75 0x73 0xE9 0xC2 0xC4 0xFE 0xEA 0x25 0x01 0x40 0x9F 0xA2 0x6E 0x98 0x01 0x72 0x2F 0x2D 0x9A 0x3F 0xE4 0x60 0x00 0x88 
write to 0x0B ack data: 0x05 0x05 0xDD 0x6F 0x02 0x9C 0x13 
write to 0x0B ack data: 0x05 0x1F 0xE0 0x6F 0x2F 0x9A 0x19 0x16 0xA3 0x18 0x40 0x9A 0x73 0xE4 0x52 0x18 0x8C 0x02 0x63 0x01 0xA6 0x32 0x9A 0xA6 0x23 0xC2 0xFE 0xE4 0x52 0x1A 0x90 0x02 0x72 
write to 0x0B ack data: 0x05 0x05 0xFD 0x6F 0x9A 0xA6 0x32 
write to 0x0B ack data: 0x05 0x1F 0x00 0x70 0xC2 0x01 0x9A 0x3F 0xA6 0x2E 0xA6 0x32 0xF6 0x24 0x90 0x14 0xA1 0x06 0x19 0xB3 0x56 0x80 0x0D 0x77 0x73 0xE9 0xC3 0xA6 0xE4 0xF6 0x41 0xEB 0x21 
write to 0x0B ack data: 0x05 0x05 0x1D 0x70 0x9F 0x97 0x72 
write to 0x0B ack data: 0x05 0x1F 0x20 0x70 0x62 0x01 0x2F 0x9A 0x3D 0x3E 0x3F 0xA7 0x02 0x11 0xC0 0xF6 0x26 0xA1 0x02 0x19 0xE6 0x12 0x80 0x9F 0xF3 0x6F 0xD2 0x00 0x90 0x2B 0x43 0xC0 0x72 
write to 0x0B ack data: 0x05 0x05 0x3D 0x70 0xA1 0x0A 0xCF 
write to 0x0B ack data: 0x05 0x1F 0x40 0x70 0x7B 0xE9 0x15 0xF9 0x60 0x90 0x19 0xA1 0x06 0x19 0xE0 0x56 0xC1 0x80 0x11 0x77 0x42 0xC1 0x73 0xE9 0xC3 0xC6 0xFE 0xF6 0x52 0xF6 0x61 0xEB 0x21 
write to 0x0B ack data: 0x05 0x05 0x5D 0x70 0x9F 0xA1 0x72 
write to 0x0B ack data: 0x05 0x1F 0x60 0x70 0xF6 0x51 0x9F 0xC0 0x21 0x42 0xC0 0xA3 0xCF 0x20 0x62 0x01 0xAA 0x2F 0x2E 0x2D 0x9A 0x3F 0x24 0x93 0x80 0x60 0xFB 0xF0 0x00 0x21 0x00 0x40 0x9C 
write to 0x0B ack data: 0x05 0x05 0x7D 0x70 0x47 0x2F 0x9A 
write to 0x0B ack data: 0x05 0x1F 0x80 0x70 0x24 0x14 0x80 0x60 0xF7 0xF0 0x00 0x9A 0x3F 0x24 0x92 0x80 0x60 0x7F 0xF0 0x00 0x21 0x00 0x80 0x9C 0x47 0x2F 0x9A 0x3F 0x24 0x92 0x80 0x60 0x80 
write to 0x0B ack data: 0x05 0x05 0x9D 0x70 0xF1 0x00 0x21 
write to 0x0B ack data: 0x05 0x1F 0xA0 0x70 0x00 0x80 0x9C 0x46 0x2F 0x9A 0x3F 0xA6 0x24 0xC4 0x18 0xC3 0x07 0xB3 0x14 0x24 0x10 0x80 0x54 0x07 0x65 0x80 0xA6 0x24 0x21 0x14 0x80 0x9F 0x66 
write to 0x0B ack data: 0x05 0x05 0xBD 0x70 0x72 0x2F 0x9A 
write to 0x0B ack data: 0x05 0x1F 0xC0 0x70 0x24 0x14 0x80 0x60 0x08 0xF1 0x00 0x9A 0xD2 0x00 0x90 0x08 0x24 0x50 0x80 0x60 0x08 0xF1 0x00 0x9A 0x24 0x50 0x80 0x60 0xF7 0xF0 0x00 0x9A 0xA6 
write to 0x0B ack data: 0x05 0x05 0xDD 0x70 0x24 0xA6 0x35 
write to 0x0B ack data: 0x05 0x1F 0xE0 0x70 0xA1 0x00 0xD0 0x90 0x05 0x21 0x01 0x00 0x98 0x15 0x24 0x60 0x80 0x42 0x00 0x73 0xB3 0xB3 0xB2 0xE2 0xB3 0xB3 0xB2 0xE2 0xB3 0xB3 0xB2 0xE2 0x73 
write to 0x0B ack data: 0x05 0x05 0xFD 0x70 0xC2 0x01 0xA3 
write to 0x0B ack data: 0x05 0x1F 0x00 0x71 0xD0 0x20 0x24 0x60 0x80 0x62 0x01 0x52 0x00 0x54 0x01 0xD4 0x00 0x90 0x0C 0x62 0x04 0x52 0x00 0xD5 0x00 0x90 0x04 0x60 0x02 0xF1 0x00 0x9A 0xA1 
write to 0x0B ack data: 0x05 0x05 0x1D 0x71 0x00 0xD0 0x90 
write to 0x0B ack data: 0x05 0x1F 0x20 0x71 0x04 0x21 0x01 0x00 0x9A 0x24 0x60 0x80 0x42 0x00 0x73 0xB3 0xB3 0xB2 0xE2 0xB3 0xB3 0xB2 0xE2 0xB3 0xB3 0xB2 0xE2 0x73 0xC2 0x01 0x9A 0x24 0x60 
write to 0x0B ack data: 0x05 0x05 0x3D 0x71 0x80 0x60 0x01 
write to 0x0B ack data: 0x05 0x1F 0x40 0x71 0xF1 0x00 0x24 0x90 0x80 0x62 0xFB 0x52 0x00 0x9A 0x3D 0xFC 0x60 0x24 0x50 0x80 0x44 0x00 0xC4 0xF8 0xE6 0x14 0x01 0xA1 0x00 0x13 0x84 0x30 0xA1 
write to 0x0B ack data: 0x05 0x05 0x5D 0x71 0x03 0x12 0x90 
write to 0x0B ack data: 0x05 0x1F 0x60 0x71 0x2B 0x24 0x90 0x80 0x03 0x04 0xA6 0x42 0xC2 0xFE 0xD3 0x02 0x84 0x03 0xE6 0x12 0x02 0xE6 0x12 0x04 0x25 0x50 0x80 0x52 0x40 0x24 0x90 0x80 0x01 
write to 0x0B ack data: 0x05 0x05 0x7D 0x71 0x02 0xEB 0x11 
write to 0x0B ack data: 0x05 0x1F 0x80 0x71 0x11 0x04 0xFC 0xA0 0x13 0x04 0x54 0x40 0xFC 0x40 0x98 0x07 0x24 0x50 0x80 0x54 0x00 0xFC 0x80 0x2D 0x9A 0xFC 0x60 0xA6 0x20 0xF3 0x13 0xFC 0x50 
write to 0x0B ack data: 0x05 0x05 0x9D 0x71 0x9A 0xFC 0x60 
write to 0x0B ack data: 0x05 0x1F 0xA0 0x71 0xB2 0xA2 0xE4 0x02 0x13 0xA3 0x13 0x20 0xFC 0x50 0x9A 0x3F 0x21 0xD3 0x00 0x19 0x14 0x21 0x05 0x00 0x9C 0x3F 0x2F 0x9A 0x9C 0x42 0xFC 0x60 0x20 
write to 0x0B ack data: 0x05 0x05 0xBD 0x71 0xD3 0x00 0x18 
write to 0x0B ack data: 0x05 0x1F 0xC0 0x71 0x14 0x30 0x18 0x0C 0x62 0x04 0x9D 0xEB 0x71 0x9C 0x4B 0xB2 0x82 0x8B 0xF7 0xA1 0x00 0x10 0xA3 0x11 0x00 0x9C 0x42 0x32 0x9C 0x48 0x9C 0x49 0xF6 
write to 0x0B ack data: 0x05 0x05 0xDD 0x71 0x25 0x9D 0xEB 
write to 0x0B ack data: 0x05 0x1F 0xE0 0x71 0x71 0xF9 0x50 0x90 0x02 0xF6 0x52 0x9C 0x4B 0x9C 0x42 0xE7 0x28 0x02 0x9E 0x73 0x00 0x0A 0x0C 0x84 0x02 0x72 0x9A 0x21 0xD3 0x00 0xF6 0x23 0xE9 
write to 0x0B ack data: 0x05 0x05 0xFD 0x71 0xC3 0xF6 0x31 
write to 0x0B ack data: 0x05 0x1F 0x00 0x72 0x22 0xCD 0xCC 0x9C 0x75 0x9A 0x31 0x24 0x96 0x02 0x22 0x2C 0x03 0x98 0x07 0xF4 0x21 0x00 0xEC 0x94 0xEC 0x94 0xEA 0x54 0x83 0xF5 0xE9 0xA1 0x9A 
write to 0x0B ack data: 0x05 0x05 0x1D 0x72 0x3F 0xFC 0x60 
write to 0x0B ack data: 0x05 0x1F 0x20 0x72 0x9F 0x06 0x72 0xE9 0xA1 0x24 0x2C 0x03 0x11 0x00 0xFC 0x50 0x2F 0x9A 0x3D 0x3F 0xFC 0x60 0x24 0x2C 0x03 0x05 0x00 0x9F 0x06 0x72 0xFC 0x50 0x74 
write to 0x0B ack data: 0x05 0x05 0x3D 0x72 0xE9 0xC5 0x84 
write to 0x0B ack data: 0x05 0x1F 0x40 0x72 0x02 0x64 0x01 0xA6 0x42 0x2F 0x2D 0x9A 0x3F 0xFC 0x60 0x9F 0x2E 0x72 0xD2 0x00 0x84 0x10 0x22 0x98 0x00 0x21 0x96 0x02 0x9C 0x69 0x9F 0x06 0x72 
write to 0x0B ack data: 0x05 0x05 0x5D 0x72 0x24 0x2C 0x03 
write to 0x0B ack data: 0x05 0x1F 0x60 0x72 0x11 0x00 0xFC 0x50 0x2F 0x9A 0x9D 0xDE 0x7C 0xB5 0x04 0xB5 0xA5 0xE0 0x05 0x00 0xB0 0x14 0x9D 0xE4 0x7C 0x9D 0x0B 0x7D 0x9A 0x3F 0xF6 0x57 0xF6 
write to 0x0B ack data: 0x05 0x05 0x7D 0x72 0x25 0xA6 0x65 
write to 0x0B ack data: 0x05 0x1F 0x80 0x72 0x9D 0xDE 0x7C 0x98 0x07 0x44 0x40 0xED 0x95 0x9D 0xE4 0x7C 0xB5 0x85 0x8B 0xF5 0x9D 0x0B 0x7D 0xF6 0x75 0x2F 0x9A 0x9D 0xDE 0x7C 0x9D 0xE4 0x7C 
write to 0x0B ack data: 0x05 0x05 0x9D 0x72 0x9D 0x0B 0x7D 
write to 0x0B ack data: 0x05 0x1F 0xA0 0x72 0x9A 0x9D 0xDE 0x7C 0x9D 0xE4 0x7C 0xA6 0x54 0x9D 0xE4 0x7C 0x9D 0x0B 0x7D 0x9A 0x3D 0x3F 0x9C 0x60 0x21 0x15 0x39 0x9F 0xAC 0x6B 0xA6 0x3B 0x64 
write to 0x0B ack data: 0x05 0x05 0xBD 0x72 0x80 0xA6 0x43 
write to 0x0B ack data: 0x05 0x1F 0xC0 0x72 0x62 0x19 0x9F 0xB5 0x6B 0xD3 0x00 0x90 0x03 0x7A 0x98 0x08 0x7A 0xE6 0x5B 0x00 0x84 0x02 0x6A 0x01 0x21 0x15 0x00 0x9F 0xAC 0x6B 0xD3 0x00 0x90 
write to 0x0B ack data: 0x05 0x05 0xDD 0x72 0x01 0x7A 0xA6 
write to 0x0B ack data: 0x05 0x1F 0xE0 0x72 0xA2 0x2F 0x2D 0x9A 0x3F 0x9F 0xB0 0x72 0x2F 0x9A 0x3F 0xA7 0x01 0x66 0x01 0xF6 0x82 0x21 0x08 0x01 0x9F 0x78 0x6E 0x42 0xC0 0xA9 0x2F 0x9A 0x3F 
write to 0x0B ack data: 0x05 0x05 0xFD 0x72 0xA7 0x02 0x66 
write to 0x0B ack data: 0x05 0x1F 0x00 0x73 0x02 0xF6 0x82 0x21 0x04 0x00 0x9F 0x78 0x6E 0x01 0xC0 0xAA 0x2F 0x9A 0x3F 0x9F 0xFC 0x72 0x74 0xE9 0xA0 0x90 0x02 0x64 0x01 0xA6 0x42 0x2F 0x9A 
write to 0x0B ack data: 0x05 0x05 0x1D 0x73 0x3F 0xA7 0x02 
write to 0x0B ack data: 0x05 0x1F 0x20 0x73 0x9F 0x0E 0x73 0xD2 0x00 0x84 0x0F 0x21 0x20 0x26 0x11 0xC0 0x66 0x02 0xF6 0x82 0x21 0x04 0x00 0x9F 0x31 0x6E 0xAA 0x2F 0x9A 0x3F 0xA7 0x02 0x66 
write to 0x0B ack data: 0x05 0x05 0x3D 0x73 0x02 0xF6 0x82 
write to 0x0B ack data: 0x05 0x1F 0x40 0x73 0x21 0x02 0x00 0x9F 0x78 0x6E 0x01 0xC0 0xAA 0x2F 0x9A 0x3D 0x3F 0xF6 0x15 0x66 0x0A 0xF6 0x12 0x21 0x09 0x00 0x9F 0x78 0x6E 0x72 0x52 0x4A 0x2F 
write to 0x0B ack data: 0x05 0x05 0x5D 0x73 0x2D 0x9A 0xDD 
write to 0x0B ack data: 0x05 0x1F 0x60 0x73 0x00 0x88 0x04 0xE9 0xB1 0xEA 0xF2 0x9A 0xA6 0x24 0x21 0x00 0x01 0xA6 0x40 0xB3 0x00 0x84 0x0A 0xB2 0x92 0xD2 0x08 0x90 0x04 0xB3 0x63 0x99 0xF0 
write to 0x0B ack data: 0x05 0x05 0x7D 0x73 0x9A 0x3F 0xF6 
write to 0x0B ack data: 0x05 0x1F 0x80 0x73 0x23 0x22 0x64 0x00 0x9F 0x92 0x77 0x20 0x64 0x00 0xE8 0x51 0x94 0x03 0x21 0x64 0x00 0x2F 0x9A 0x3D 0xF6 0x25 0xD6 0x00 0x90 0x09 0xEA 0x51 0x80 
write to 0x0B ack data: 0x05 0x05 0x9D 0x73 0x05 0x21 0x64 
write to 0x0B ack data: 0x05 0x1F 0xA0 0x73 0x00 0x98 0x11 0x22 0x64 0x00 0x9C 0x77 0xED 0x83 0x34 0xEB 0x21 0xEC 0x32 0xF6 0x54 0x35 0x9C 0x7E 0x2D 0x9A 0x3D 0x9C 0x77 0x20 0x32 0x00 0xE8 
write to 0x0B ack data: 0x05 0x05 0xBD 0x73 0x21 0x30 0xE8 
write to 0x0B ack data: 0x05 0x1F 0xC0 0x73 0x32 0x24 0x64 0x00 0x35 0x9C 0x7D 0x2D 0x9A 0x3F 0x23 0xE8 0x03 0x9F 0x92 0x77 0x2F 0x9A 0x3F 0x23 0x10 0x27 0x9F 0x2F 0x77 0x2F 0x9A 0x3D 0x3E 
write to 0x0B ack data: 0x05 0x05 0xDD 0x73 0x3F 0xA7 0x0A 
write to 0x0B ack data: 0x05 0x1F 0xE0 0x73 0xF6 0x15 0x12 0xC4 0x13 0xC0 0x31 0x11 0xC2 0x4D 0x40 0x4E 0x41 0x4F 0x42 0x4C 0x43 0xA6 0xD2 0xA6 0xE3 0x32 0x3A 0x39 0x01 0xC4 0x02 0xC6 0x9C 
write to 0x0B ack data: 0x05 0x05 0xFD 0x73 0x78 0xAC 0x66 
write to 0x0B ack data: 0x05 0x1F 0x00 0x74 0x10 0x9C 0x82 0x11 0xC6 0x12 0xC8 0x66 0x10 0xA6 0xD2 0xA6 0xE3 0xA6 0xF4 0xA6 0xC5 0x9C 0x81 0x3A 0x39 0x01 0xC4 0x02 0xC6 0x9C 0x78 0xAC 0xF4 
write to 0x0B ack data: 0x05 0x05 0x1D 0x74 0x21 0xC6 0xF4 
write to 0x0B ack data: 0x05 0x1F 0x20 0x74 0x3A 0xC8 0x11 0xC6 0x12 0xC8 0x01 0xC4 0xA6 0x30 0xA6 0x14 0xA6 0x15 0x3A 0x39 0x31 0x22 0x01 0x00 0xF4 0xC9 0xC4 0xF4 0xD2 0xC6 0x9C 0x78 0xAC 
write to 0x0B ack data: 0x05 0x05 0x3D 0x74 0xF4 0x21 0xC6 
write to 0x0B ack data: 0x05 0x1F 0x40 0x74 0xF4 0x3A 0xC8 0x11 0x40 0x12 0x42 0xA5 0x0A 0x2F 0x2E 0x2D 0x9A 0xF6 0x14 0x01 0x00 0x02 0x02 0x66 0x10 0x20 0x00 0x80 0xE8 0x21 0x30 0xE8 0x32 
write to 0x0B ack data: 0x05 0x05 0x5D 0x74 0x9C 0x81 0x9A 
write to 0x0B ack data: 0x05 0x1F 0x60 0x74 0xF6 0x14 0x01 0x00 0xE9 0xA0 0x90 0x04 0xE9 0x91 0x11 0x00 0x9A 0x3D 0x3E 0x3F 0xA7 0x0C 0x11 0xC6 0x12 0xC8 0x13 0xCA 0xEB 0x52 0x94 0x04 0x12 
write to 0x0B ack data: 0x05 0x05 0x7D 0x74 0xCA 0x13 0xC8 
write to 0x0B ack data: 0x05 0x1F 0x80 0x74 0x02 0xD4 0x01 0xC8 0x00 0xC6 0x9E 0x00 0x00 0xF6 0x15 0xF4 0xCD 0xD2 0xF9 0x50 0x90 0x99 0x02 0xD4 0x01 0xCA 0x00 0xC6 0x9E 0x00 0x00 0xF4 0xC9 
write to 0x0B ack data: 0x05 0x05 0x9D 0x74 0xD2 0xFB 0x84 
write to 0x0B ack data: 0x05 0x1F 0xA0 0x74 0x04 0x01 0xCA 0x98 0x84 0xED 0x41 0xB3 0x60 0x80 0x77 0xBB 0x60 0x80 0x10 0x06 0xCA 0xF4 0xCE 0xC8 0x02 0xC8 0x12 0xC2 0x21 0x01 0x00 0x11 0xC4 
write to 0x0B ack data: 0x05 0x05 0xBD 0x74 0x98 0x09 0x06 
write to 0x0B ack data: 0x05 0x1F 0xC0 0x74 0xC8 0xF4 0xCE 0xCA 0x02 0xCA 0x99 0xEE 0xBD 0x60 0x88 0x04 0xEE 0x91 0x98 0x02 0xEE 0x81 0xB3 0x60 0x80 0x02 0xE9 0x91 0xE5 0x7D 0x30 0xB2 0xEC 
write to 0x0B ack data: 0x05 0x05 0xDD 0x74 0x01 0xC2 0xEE 
write to 0x0B ack data: 0x05 0x1F 0xE0 0x74 0x21 0xF4 0x51 0xCA 0x94 0x02 0x01 0xCA 0xF6 0x15 0x00 0xC8 0xE9 0x50 0x94 0x02 0x05 0xC8 0x02 0xD4 0xF6 0x51 0x00 0xC6 0x9E 0x00 0x00 0xF4 0xC9 
write to 0x0B ack data: 0x05 0x05 0xFD 0x74 0xD2 0x11 0xC0 
write to 0x0B ack data: 0x05 0x1F 0x00 0x75 0x30 0xE8 0xE1 0x8C 0x02 0x15 0xC2 0xF6 0x61 0x9C 0x6A 0x20 0x01 0x00 0xE8 0xE1 0x94 0x15 0xF8 0xC0 0x90 0x11 0xF4 0x91 0xC4 0x11 0xC4 0x20 0x29 
write to 0x0B ack data: 0x05 0x05 0x1D 0x75 0x00 0xE9 0xC0 
write to 0x0B ack data: 0x05 0x1F 0x20 0x75 0x87 0xA6 0x32 0x12 0xC8 0x98 0x04 0x01 0xC2 0x11 0xC8 0x01 0xC8 0xA5 0x0C 0x2F 0x2E 0x2D 0x9A 0x3D 0x3E 0x3F 0xA7 0x06 0xF6 0x16 0xF6 0x27 0xF4 
write to 0x0B ack data: 0x05 0x05 0x3D 0x75 0xCF 0x82 0xF4 
write to 0x0B ack data: 0x05 0x1F 0x40 0x75 0xCB 0x84 0x13 0xC0 0x05 0x80 0xF6 0x71 0xA6 0x30 0xA6 0x14 0xA6 0x15 0x11 0xC2 0x12 0xC4 0x3A 0x39 0x01 0xC6 0x02 0xC8 0x9C 0x78 0xAC 0xF6 0x53 
write to 0x0B ack data: 0x05 0x05 0x5D 0x75 0xA6 0x70 0xA6 
write to 0x0B ack data: 0x05 0x1F 0x60 0x75 0x18 0xA6 0x19 0x3C 0x3B 0x9C 0x78 0xAC 0xED 0x95 0xF6 0x54 0xA6 0x90 0xA6 0x1A 0xA6 0x1B 0x9C 0x7D 0x03 0x86 0x04 0x88 0xE9 0x23 0xEA 0x34 0x13 
write to 0x0B ack data: 0x05 0x05 0x7D 0x75 0x86 0x14 0x88 
write to 0x0B ack data: 0x05 0x1F 0x80 0x75 0x05 0x80 0x01 0xC0 0xF6 0x52 0x9C 0x76 0x03 0xC2 0x04 0xC4 0x3C 0x3B 0x9C 0x78 0xAC 0xED 0x95 0xF6 0x54 0xA6 0x90 0xA6 0x1A 0xA6 0x1B 0x9C 0x7D 
write to 0x0B ack data: 0x05 0x05 0x9D 0x75 0x03 0x8A 0x04 
write to 0x0B ack data: 0x05 0x1F 0xA0 0x75 0x8C 0xE9 0x23 0xEA 0x34 0x13 0x8A 0x14 0x8C 0xF4 0x94 0x80 0x14 0x80 0xF6 0x71 0xF6 0x42 0x9C 0x7B 0x02 0x82 0xE9 0x22 0x12 0x82 0x01 0xC0 0xF6 
write to 0x0B ack data: 0x05 0x05 0xBD 0x75 0x42 0x9C 0x7B 
write to 0x0B ack data: 0x05 0x1F 0xC0 0x75 0x02 0x84 0xE9 0x22 0x12 0x84 0xAE 0x2F 0x2E 0x2D 0x9A 0x3D 0x3E 0x3F 0xA7 0x06 0xF6 0x15 0x12 0xC0 0x42 0x46 0x52 0xC2 0x43 0x47 0x53 0xC3 0x42 
write to 0x0B ack data: 0x05 0x05 0xDD 0x75 0x48 0x52 0xC4 
write to 0x0B ack data: 0x05 0x1F 0xE0 0x75 0x43 0x49 0x53 0xC5 0x42 0xC2 0xE0 0x12 0xC3 0xE0 0x12 0xC4 0xB3 0x12 0xD2 0x00 0x90 0x41 0x01 0x4A 0x02 0x4C 0x9C 0x85 0xF6 0x16 0xF6 0x27 0x01 
write to 0x0B ack data: 0x05 0x05 0xFD 0x75 0xC0 0xF4 0xC9 
write to 0x0B ack data: 0x05 0x1F 0x00 0x76 0x42 0x11 0xC0 0xA6 0x30 0xA6 0x14 0xA6 0x15 0x9C 0x85 0x3A 0x39 0xF6 0x61 0xF6 0x72 0x9C 0x79 0xAC 0xF6 0x16 0xF6 0x27 0x42 0xC2 0x43 0xC3 0x44 
write to 0x0B ack data: 0x05 0x05 0x1D 0x76 0xC4 0x45 0xC5 
write to 0x0B ack data: 0x05 0x1F 0x20 0x76 0x9C 0x85 0x3A 0x39 0xF6 0x61 0xF6 0x72 0x9C 0x7F 0xAC 0x9D 0xFF 0x7E 0xF4 0x21 0x44 0x98 0x02 0x01 0x44 0xAE 0x2F 0x2E 0x2D 0x9A 0xA2 0xA0 0x3E 
write to 0x0B ack data: 0x05 0x05 0x3D 0x76 0xF6 0x16 0xA6 
write to 0x0B ack data: 0x05 0x1F 0x40 0x76 0x4A 0x22 0x00 0x80 0x98 0x11 0xBA 0x8A 0xA6 0xA6 0x77 0xEB 0x64 0xEE 0x24 0x01 0x00 0xE9 0xE2 0x88 0x02 0xF6 0x12 0xE6 0x5A 0x00 0x87 0xEA 0xF6 
write to 0x0B ack data: 0x05 0x05 0x5D 0x76 0x21 0x2E 0xA0 
write to 0x0B ack data: 0x05 0x1F 0x60 0x76 0x0A 0x9A 0x77 0x3F 0xF6 0x57 0xF6 0x14 0xF6 0x25 0x31 0xEB 0x83 0x80 0x10 0x42 0x00 0xE0 0xC2 0x40 0x84 0x06 0xEC 0x94 0xED 0x95 0x99 0xEF 0xE5 
write to 0x0B ack data: 0x05 0x05 0x7D 0x76 0xD3 0x33 0xF6 
write to 0x0B ack data: 0x05 0x1F 0x80 0x76 0x75 0x2F 0x9A 0x9C 0x76 0x66 0x10 0x20 0x00 0x80 0xE8 0x21 0x30 0xE8 0x32 0x9C 0x81 0x9A 0x3D 0xA2 0xC0 0x3F 0xA7 0x02 0xF6 0x14 0x12 0xC0 0xA6 
write to 0x0B ack data: 0x05 0x05 0x9D 0x76 0x6C 0x01 0x00 
write to 0x0B ack data: 0x05 0x1F 0xA0 0x76 0xF6 0x45 0x98 0x0E 0xF6 0x12 0x01 0xC0 0x9F 0x19 0x7D 0xF4 0x21 0x42 0xED 0x95 0xED 0x95 0xBC 0x8C 0xE6 0x5C 0x00 0x87 0xEB 0xAA 0x2F 0xA0 0x0C 
write to 0x0B ack data: 0x05 0x05 0xBD 0x76 0x2D 0x9A 0x3D 
write to 0x0B ack data: 0x05 0x1F 0xC0 0x76 0x3E 0xF6 0x15 0xF6 0x26 0xF7 0x00 0x00 0xF7 0x00 0x00 0x9C 0x89 0xAC 0xDA 0x00 0x94 0x0E 0xF7 0x00 0x3F 0xF7 0x00 0x00 0xF6 0x51 0xF6 0x62 0x9C 
write to 0x0B ack data: 0x05 0x05 0xDD 0x76 0x72 0x98 0x0C 
write to 0x0B ack data: 0x05 0x1F 0xE0 0x76 0xF7 0x00 0x3F 0xF7 0x00 0x00 0xF6 0x51 0xF6 0x62 0x9C 0x73 0xAC 0x9D 0xFF 0x7E 0x2E 0x2D 0x9A 0x66 0x10 0x20 0x00 0x80 0xE8 0x21 0x30 0xE8 0x32 
write to 0x0B ack data: 0x05 0x05 0xFD 0x76 0x9C 0x81 0x9A 
write to 0x0B ack data: 0x05 0x1F 0x00 0x77 0x3F 0x9F 0x02 0x68 0x9F 0x0D 0x6D 0x72 0x9F 0xA5 0x78 0xFC 0x60 0x31 0x9F 0xDC 0x70 0x24 0x92 0x80 0x72 0x52 0x00 0x24 0x91 0x80 0x52 0x00 0x24 
write to 0x0B ack data: 0x05 0x05 0x1D 0x77 0x90 0x80 0x52 
write to 0x0B ack data: 0x05 0x1F 0x20 0x77 0x00 0x9F 0x1D 0x72 0x2F 0x9A 0x3F 0xFC 0x60 0x9C 0x5F 0xFC 0x50 0x2F 0x9A 0x3D 0x3E 0x3F 0xA7 0x06 0x11 0xC0 0x12 0xC2 0x13 0xC4 0xF9 0x30 0x90 
write to 0x0B ack data: 0x05 0x05 0x3D 0x77 0x1D 0x9C 0x6A 
write to 0x0B ack data: 0x05 0x1F 0x40 0x77 0xF6 0x16 0x01 0xC2 0x9C 0x6A 0xF6 0x15 0x01 0xC4 0x9C 0x6A 0xF6 0x13 0xF6 0x52 0xF6 0x61 0x9F 0x92 0x77 0xF6 0x12 0xB3 0x60 0x80 0x03 0x22 0xFF 
write to 0x0B ack data: 0x05 0x05 0x5D 0x77 0x7F 0x01 0xC2 
write to 0x0B ack data: 0x05 0x1F 0x60 0x77 0xF4 0x41 0xC4 0xF4 0x41 0xC0 0xB3 0x60 0x80 0x02 0xEA 0xB2 0xF6 0x21 0xAE 0x2F 0x2E 0x2D 0x9A 0x3F 0xFC 0x60 0xD2 0x00 0x84 0x03 0x9B 0x19 0x00 
write to 0x0B ack data: 0x05 0x05 0x7D 0x77 0x73 0x9F 0xDC 
write to 0x0B ack data: 0x05 0x1F 0x80 0x77 0x70 0x99 0xFE 0x9C 0x77 0x66 0x10 0x20 0x00 0x80 0xE8 0x21 0x30 0xE8 0x32 0x9C 0x81 0x9A 0x3D 0xF6 0x35 0x90 0x22 0x9C 0x77 0xBB 0xB7 0xBA 0xE6 
write to 0x0B ack data: 0x05 0x05 0x9D 0x77 0x34 0xEB 0x21 
write to 0x0B ack data: 0x05 0x1F 0xA0 0x77 0xEC 0x32 0xF6 0x54 0x35 0x9C 0x7E 0xA6 0x27 0xA6 0x36 0xB5 0x14 0xD4 0x00 0x84 0x08 0xA6 0x74 0xA6 0x65 0xF6 0x21 0x98 0x03 0x21 0xFF 0xFF 0x2D 
write to 0x0B ack data: 0x05 0x05 0xBD 0x77 0x9A 0x3D 0x3E 
write to 0x0B ack data: 0x05 0x1F 0xC0 0x77 0x3F 0xA7 0x13 0xF6 0x16 0x12 0xCF 0x62 0x01 0x52 0xCC 0x32 0x12 0xCD 0x12 0xCA 0x98 0xB0 0x02 0x82 0x23 0x0A 0x00 0xF4 0x22 0xCA 0xF6 0x81 0x9C 
write to 0x0B ack data: 0x05 0x05 0xDD 0x77 0x71 0x05 0xC2 
write to 0x0B ack data: 0x05 0x1F 0xE0 0x77 0x90 0x21 0xE0 0x60 0xC0 0x80 0x09 0xF6 0x81 0xF6 0x50 0x9E 0x00 0x00 0x98 0x11 0x40 0xC1 0xC0 0x08 0x90 0x09 0x45 0x40 0x55 0xC2 0x78 0x58 0xC3 
write to 0x0B ack data: 0x05 0x05 0xFD 0x77 0x98 0x04 0x01 
write to 0x0B ack data: 0x05 0x1F 0x00 0x78 0x40 0x11 0xC2 0x02 0xC4 0x90 0x0F 0x40 0xC0 0xC0 0x40 0x90 0x09 0xF6 0x81 0xF6 0x20 0x9E 0x00 0x00 0x11 0xC4 0x42 0xC0 0x9F 0x8F 0x78 0xA6 0x26 
write to 0x0B ack data: 0x05 0x05 0x1D 0x78 0xF8 0xCF 0x90 
write to 0x0B ack data: 0x05 0x1F 0x20 0x78 0x09 0x42 0xCC 0x04 0xCF 0xE0 0x02 0x00 0x84 0x0F 0x02 0x84 0x90 0x11 0xE5 0x2A 0x46 0xB5 0xDB 0x40 0x40 0xB3 0x00 0x84 0x06 0x42 0xC1 0xC2 0xF8 
write to 0x0B ack data: 0x05 0x05 0x3D 0x78 0x52 0xC1 0xE0 
write to 0x0B ack data: 0x05 0x1F 0x40 0x78 0x64 0xCC 0x54 0xCC 0xD4 0x00 0x84 0x0D 0xF8 0xCF 0x90 0x09 0xF4 0x94 0xCF 0x14 0xCF 0x69 0x01 0x59 0xCC 0x40 0xC1 0xA2 0x00 0xA2 0x30 0x56 0xD3 
write to 0x0B ack data: 0x05 0x05 0x5D 0x78 0x72 0x52 0xD4 
write to 0x0B ack data: 0x05 0x1F 0x60 0x78 0xF4 0x61 0xD3 0xF4 0x21 0x86 0x39 0x00 0xCC 0x38 0x03 0xC8 0x02 0xCC 0x01 0xCA 0x9F 0x28 0x7D 0xF4 0x92 0xD3 0x12 0xD3 0x01 0xD0 0xE6 0x22 0x0A 
write to 0x0B ack data: 0x05 0x05 0x7D 0x78 0xB3 0xD3 0x11 
write to 0x0B ack data: 0x05 0x1F 0x80 0x78 0xD0 0xAE 0x02 0xCD 0xF4 0x52 0x80 0x83 0x49 0xA5 0x13 0x2F 0x2E 0x2D 0x9A 0x63 0x01 0xA6 0x27 0xC7 0x07 0x98 0x02 0xB3 0x63 0xB7 0x87 0x8B 0xFA 
write to 0x0B ack data: 0x05 0x05 0x9D 0x78 0xC2 0x3F 0xE7 
write to 0x0B ack data: 0x05 0x1F 0xA0 0x78 0x28 0x20 0xA6 0x12 0x9A 0x3F 0x74 0xD2 0x00 0x90 0x02 0x64 0x01 0x63 0x0F 0xA6 0x42 0x9F 0x1C 0x6B 0x21 0x02 0xFF 0x9F 0xA4 0x69 0x21 0x00 0x20 
write to 0x0B ack data: 0x05 0x05 0xBD 0x78 0x9C 0x45 0x21 
write to 0x0B ack data: 0x05 0x1F 0xC0 0x78 0x08 0x07 0x9F 0x4C 0x6B 0x21 0x09 0x00 0x9F 0x4C 0x6B 0xA4 0xC4 0x00 0x21 0x0A 0x00 0x9F 0x4C 0x6B 0x21 0x00 0x20 0x9C 0x47 0x2F 0x9A 0x3D 0x3E 
write to 0x0B ack data: 0x05 0x05 0xDD 0x78 0x3F 0xA7 0x04 
write to 0x0B ack data: 0x05 0x1F 0xE0 0x78 0x56 0xC3 0x12 0xC1 0xA6 0x24 0xA6 0x35 0xF6 0x26 0xC2 0x1F 0xE6 0xF2 0x20 0x98 0x34 0x43 0xC3 0x53 0xC0 0xB2 0x53 0x94 0x02 0x52 0xC0 0x4A 0xC0 
write to 0x0B ack data: 0x05 0x05 0xFD 0x78 0x7B 0xF6 0x53 
write to 0x0B ack data: 0x05 0x1F 0x00 0x79 0x02 0xC1 0x21 0x76 0x02 0x9C 0x71 0xFC 0x60 0x46 0xC0 0x22 0x76 0x02 0xF6 0x61 0x9C 0x57 0xFC 0x50 0xED 0x26 0x01 0xC1 0xED 0x21 0x11 0xC1 0x43 
write to 0x0B ack data: 0x05 0x05 0x1D 0x79 0xC3 0xE0 0xC3 
write to 0x0B ack data: 0x05 0x1F 0x20 0x79 0xC0 0x53 0xC3 0x62 0x20 0x43 0xC3 0xD3 0x00 0x87 0xC6 0xAC 0x2F 0x2E 0x2D 0x9A 0x3D 0x0D 0xD1 0x20 0x40 0x00 0xE8 0x25 0x01 0x40 0x20 0xC0 0xFF 
write to 0x0B ack data: 0x05 0x05 0x3D 0x79 0xE8 0x25 0xE9 
write to 0x0B ack data: 0x05 0x1F 0x40 0x79 0xA0 0x90 0x14 0x20 0x42 0x00 0xE8 0x25 0xF4 0x21 0x40 0x20 0xBE 0xFF 0xE8 0x25 0xE9 0xA0 0x90 0x03 0x31 0x98 0x2E 0x76 0xF6 0x54 0x20 0x44 0x00 
write to 0x0B ack data: 0x05 0x05 0x5D 0x79 0xE8 0x24 0x20 
write to 0x0B ack data: 0x05 0x1F 0x60 0x79 0x48 0x00 0xE8 0x25 0x01 0x40 0x02 0x42 0xF4 0x21 0x00 0xF4 0x3A 0x02 0xD2 0xFE 0x84 0x0C 0xD3 0xFF 0x84 0x08 0xD4 0xFF 0x84 0x04 0xD5 0xFF 0x90 
write to 0x0B ack data: 0x05 0x05 0x7D 0x79 0x02 0x66 0x01 
write to 0x0B ack data: 0x05 0x1F 0x80 0x79 0xE6 0x46 0x01 0xA6 0x62 0x2D 0x9A 0x3D 0x3F 0xA7 0x04 0x0C 0xD1 0x20 0x44 0x00 0xE8 0x24 0xF4 0x90 0x00 0x10 0xC0 0x30 0xF4 0x38 0x02 0x10 0xC2 
write to 0x0B ack data: 0x05 0x05 0x9D 0x79 0x25 0x76 0x02 
write to 0x0B ack data: 0x05 0x1F 0xA0 0x79 0x23 0x20 0x00 0xF6 0x42 0xE6 0x24 0x1C 0xB5 0xD5 0xF6 0x51 0x9C 0x71 0xFC 0x60 0x09 0xD1 0xE6 0x22 0x40 0xB3 0xD3 0x9C 0x58 0xFC 0x50 0x66 0x20 
write to 0x0B ack data: 0x05 0x05 0xBD 0x79 0xF6 0x52 0x09 
write to 0x0B ack data: 0x05 0x1F 0xC0 0x79 0xD1 0xE6 0x22 0x60 0xB3 0xD3 0x9F 0xDB 0x78 0x66 0x04 0xF6 0x82 0x09 0xD1 0xE6 0x22 0x44 0xB3 0xD3 0x9F 0xDB 0x78 0x21 0xFE 0xFF 0x22 0xFF 0xFF 
write to 0x0B ack data: 0x05 0x05 0xDD 0x79 0xF4 0xC9 0xC0 
write to 0x0B ack data: 0x05 0x1F 0xE0 0x79 0xF4 0xD2 0xC2 0x11 0xC0 0x12 0xC2 0x66 0x04 0xF6 0x82 0x09 0xD1 0xE6 0x22 0x48 0xB3 0xD3 0x9F 0xDB 0x78 0xAC 0x2F 0x2D 0x9A 0x3D 0x3F 0x25 0x76 
write to 0x0B ack data: 0x05 0x05 0xFD 0x79 0x02 0xC2 0xC0 
write to 0x0B ack data: 0x05 0x1F 0x00 0x7A 0x11 0x40 0xE9 0xA1 0x11 0x42 0x66 0x04 0xF6 0x52 0x09 0xD1 0xE6 0x22 0x40 0xB3 0xD3 0x9F 0xDB 0x78 0x0C 0xD1 0x20 0x40 0x00 0xE8 0x24 0x00 0x40 
write to 0x0B ack data: 0x05 0x05 0x1D 0x7A 0xF4 0xC8 0x00 
write to 0x0B ack data: 0x05 0x1F 0x20 0x7A 0x84 0x0B 0x9F 0x30 0x79 0xD2 0x00 0x90 0x04 0x62 0x01 0x98 0x04 0x9F 0x87 0x79 0x72 0x2F 0x2D 0x9A 0x3D 0x3F 0x9F 0x30 0x79 0xD2 0x00 0x90 0x3C 
write to 0x0B ack data: 0x05 0x05 0x3D 0x7A 0x0C 0xD1 0x20 
write to 0x0B ack data: 0x05 0x1F 0x40 0x7A 0x40 0x00 0xE8 0x24 0x05 0x00 0xF6 0x51 0xE6 0x23 0xC0 0x20 0xFF 0x1F 0xE8 0x51 0x8C 0x20 0xFC 0x60 0xF6 0x51 0x9C 0x58 0x66 0x40 0x0A 0xD1 0xF6 
write to 0x0B ack data: 0x05 0x05 0x5D 0x7A 0x51 0x9F 0xDB 
write to 0x0B ack data: 0x05 0x1F 0x60 0x7A 0x78 0x66 0x40 0x0A 0xD1 0xF6 0x51 0x9F 0x62 0x76 0xFC 0x50 0xFB 0x90 0x0A 0x72 0x98 0x19 0x72 0xED 0xA0 0x84 0x14 0x98 0x10 0x9F 0x87 0x79 0x72 
write to 0x0B ack data: 0x05 0x05 0x7D 0x7A 0x0C 0xD1 0x20 
write to 0x0B ack data: 0x05 0x1F 0x80 0x7A 0x40 0x00 0xE8 0x24 0xF4 0xA0 0x00 0x84 0x02 0x62 0x01 0x2F 0x2D 0x9A 0x3D 0x3E 0x3F 0xA7 0x0E 0xF6 0x15 0x12 0xC8 0x13 0xCA 0x9F 0x34 0x7A 0xD2 
write to 0x0B ack data: 0x05 0x05 0x9D 0x7A 0x00 0x90 0xD2 
write to 0x0B ack data: 0x05 0x1F 0xA0 0x7A 0x21 0xC0 0xFF 0xED 0x01 0x11 0xC3 0xE6 0x0A 0x3F 0x98 0xF4 0x6B 0x40 0xE5 0xCB 0xAB 0x5B 0xCC 0x73 0x53 0xCD 0x01 0xCC 0xF4 0x51 0xCA 0x8C 0x04 
write to 0x0B ack data: 0x05 0x05 0xBD 0x7A 0x5B 0xC2 0x98 
write to 0x0B ack data: 0x05 0x1F 0xC0 0x7A 0x04 0x43 0xCA 0x53 0xC2 0x5A 0xC6 0x74 0x54 0xC7 0x46 0xC2 0x02 0xC8 0x01 0xC3 0xF4 0x21 0xC6 0x9F 0x62 0x76 0xFB 0x90 0xA8 0xFC 0x60 0x09 0xD1 
write to 0x0B ack data: 0x05 0x05 0xDD 0x7A 0x9C 0x58 0xFC 
write to 0x0B ack data: 0x05 0x1F 0xE0 0x7A 0x50 0xA6 0xA6 0x02 0xC3 0x09 0xD1 0x9F 0xDB 0x78 0xA6 0xA6 0x02 0xC3 0x09 0xD1 0x9F 0x62 0x76 0x0C 0xD1 0xFB 0x90 0x0F 0xA6 0xA6 0x02 0xC3 0xF6 
write to 0x0B ack data: 0x05 0x05 0xFD 0x7A 0x41 0x9F 0x12 
write to 0x0B ack data: 0x05 0x1F 0x00 0x7B 0x6E 0x9F 0xB9 0x6D 0x72 0x98 0xA2 0x46 0xC2 0x02 0xC8 0x01 0xC6 0xEC 0x21 0x9F 0xDB 0x78 0x46 0xC2 0x02 0xC8 0x09 0xD1 0xF4 0x21 0xC6 0x9F 0x62 
write to 0x0B ack data: 0x05 0x05 0x1D 0x7B 0x76 0x0C 0xD1 
write to 0x0B ack data: 0x05 0x1F 0x20 0x7B 0xFB 0x90 0x0A 0x46 0xC2 0x02 0xC8 0x01 0xC6 0xEC 0x21 0x99 0xD1 0xE0 0xCB 0xC2 0x5B 0xC5 0x44 0xC2 0x01 0xC6 0xE5 0x2A 0x24 0xB3 0xDB 0x06 0xC3 
write to 0x0B ack data: 0x05 0x05 0x3D 0x7B 0xED 0x26 0x46 
write to 0x0B ack data: 0x05 0x1F 0x40 0x7B 0xC5 0xF6 0x62 0xF6 0x41 0xED 0x21 0x9F 0xDB 0x78 0x46 0xC5 0xF6 0x62 0x09 0xD1 0xED 0x21 0x9F 0x62 0x76 0xFB 0x90 0x0A 0x46 0xC5 0xF6 0x62 0x09 
write to 0x0B ack data: 0x05 0x05 0x5D 0x7B 0xD1 0xED 0x21 
write to 0x0B ack data: 0x05 0x1F 0x60 0x7B 0x99 0x9C 0x01 0xC3 0x9F 0xF9 0x79 0xD2 0x00 0x93 0x96 0x9F 0x34 0x7A 0xD2 0x00 0x84 0x0F 0x0C 0xD1 0x66 0x40 0xF6 0x42 0x20 0x40 0x00 0xE8 0x24 
write to 0x0B ack data: 0x05 0x05 0x7D 0x7B 0x01 0x00 0x99 
write to 0x0B ack data: 0x05 0x1F 0x80 0x7B 0x7D 0x42 0xC2 0x52 0xC0 0x73 0x53 0xC1 0x01 0xCA 0xF4 0xC9 0xC0 0x11 0xCA 0x01 0xC8 0xF4 0x21 0xC0 0x11 0xC8 0x01 0xC3 0xE6 0x22 0x40 0xB3 0xD3 
write to 0x0B ack data: 0x05 0x05 0x9D 0x7B 0x11 0xC3 0x7A 
write to 0x0B ack data: 0x05 0x1F 0xA0 0x7B 0xF8 0xCA 0x87 0x08 0x9F 0xB9 0x6D 0x62 0x01 0xA5 0x0E 0x2F 0x2E 0x2D 0x9A 0x3D 0x3E 0x3F 0xA7 0x03 0x11 0xC0 0xF6 0x26 0x56 0xC2 0x24 0xE0 0x4F 
write to 0x0B ack data: 0x05 0x05 0xBD 0x7B 0x40 0x15 0xD0 
write to 0x0B ack data: 0x05 0x1F 0xC0 0x7B 0x96 0x90 0x5D 0x25 0x76 0x02 0x23 0x0C 0x00 0x22 0xC0 0x4F 0xF6 0x51 0x9C 0x71 0x01 0xC0 0x11 0x4C 0x16 0x50 0x24 0x40 0x43 0x14 0x4E 0x21 0x80 
write to 0x0B ack data: 0x05 0x05 0xDD 0x7B 0x43 0x11 0x52 
write to 0x0B ack data: 0x05 0x1F 0xE0 0x7B 0x43 0xC2 0x53 0x54 0x68 0xFF 0x58 0x55 0x66 0x16 0xF6 0x52 0x21 0xE0 0x4F 0x9F 0xDB 0x78 0x4A 0xC2 0xE6 0x5A 0x40 0x94 0x02 0x6A 0x40 0xA6 0xA6 
write to 0x0B ack data: 0x05 0x05 0xFD 0x7B 0xF6 0x62 0x21 
write to 0x0B ack data: 0x05 0x1F 0x00 0x7C 0x80 0x43 0x9F 0xDB 0x78 0xA6 0xA6 0x02 0xC0 0x21 0x40 0x43 0x9F 0xDB 0x78 0x24 0x76 0x02 0x62 0x96 0x52 0x00 0x66 0x01 0xF6 0x42 0x21 0xF5 0x4F 
write to 0x0B ack data: 0x05 0x05 0x1D 0x7C 0x9F 0xDB 0x78 
write to 0x0B ack data: 0x05 0x1F 0x20 0x7C 0x60 0x03 0xF3 0xCD 0xAB 0x2F 0x2E 0x2D 0x9A 0x38 0xF6 0x90 0xA2 0x00 0x39 0x3A 0x3B 0x3C 0x3D 0x3E 0x3F 0xFC 0x20 0x3F 0x26 0x90 0x80 0x4A 0x80 
write to 0x0B ack data: 0x05 0x05 0x3D 0x7C 0xE0 0x0A 0x82 
write to 0x0B ack data: 0x05 0x1F 0x40 0x7C 0x40 0x80 0xC0 0x08 0x90 0x0D 0x60 0xF7 0x50 0x80 0x40 0x82 0xC0 0x08 0x90 0x03 0x9F 0x92 0x7C 0xA6 0xA0 0xC0 0x10 0x90 0x07 0x60 0xEF 0x50 0x80 
write to 0x0B ack data: 0x05 0x05 0x5D 0x7C 0x9F 0x62 0x01 
write to 0x0B ack data: 0x05 0x1F 0x60 0x7C 0xA6 0xA0 0xC0 0x20 0x90 0x07 0x60 0xDF 0x50 0x80 0x9F 0x5E 0x01 0xA6 0xA0 0xC0 0x04 0x90 0x07 0x60 0xFB 0x50 0x80 0x9F 0x9A 0x7C 0xA6 0xA0 0xC0 
write to 0x0B ack data: 0x05 0x05 0x7D 0x7C 0x01 0x90 0x07 
write to 0x0B ack data: 0x05 0x1F 0x80 0x7C 0x60 0xFE 0x50 0x80 0x9F 0x8A 0x7C 0x9B 0xB8 0x71 0x24 0x92 0x80 0x60 0xFE 0xF0 0x00 0x9A 0x24 0x92 0x80 0x60 0xF7 0xF0 0x00 0x9A 0x24 0x92 0x80 
write to 0x0B ack data: 0x05 0x05 0x9D 0x7C 0x60 0xFB 0xF0 
write to 0x0B ack data: 0x05 0x1F 0xA0 0x7C 0x00 0x9A 0x38 0xF6 0x90 0xA2 0x00 0x39 0x3A 0x3B 0x3C 0x3D 0x3E 0x3F 0xFC 0x20 0x3F 0x26 0x90 0x80 0x05 0x80 0xF4 0x05 0x82 0xC0 0x40 0x90 0x0B 
write to 0x0B ack data: 0x05 0x05 0xBD 0x7C 0x60 0xFE 0xF0 
write to 0x0B ack data: 0x05 0x1F 0xC0 0x7C 0x86 0x60 0xBF 0x50 0x80 0x9F 0xDD 0x7C 0xA6 0xB0 0xC0 0x02 0x90 0x03 0x9F 0x53 0x7E 0xA6 0xB0 0xC0 0x01 0x90 0x03 0x9F 0xA7 0x00 0x9B 0xB8 0x71 
write to 0x0B ack data: 0x05 0x05 0xDD 0x7C 0x9A 0xF6 0x14 
write to 0x0B ack data: 0x05 0x1F 0xE0 0x7C 0x33 0xFC 0x60 0xFD 0x21 0x96 0x02 0xE9 0x54 0x80 0x1B 0x21 0x2E 0x03 0xE9 0x54 0x88 0x14 0x42 0x00 0x73 0xE5 0xC2 0x42 0xE5 0xD3 0x33 0xA6 0x80 
write to 0x0B ack data: 0x05 0x05 0xFD 0x7C 0xC0 0x01 0x90 
write to 0x0B ack data: 0x05 0x1F 0x00 0x7D 0x03 0xA6 0x23 0x72 0xE9 0x23 0x54 0x00 0xEC 0x94 0xFD 0x24 0x2C 0x03 0xF4 0x23 0x00 0x13 0x00 0xFC 0x50 0xFD 0x62 0x01 0x9A 0x9C 0x76 0x66 0x0F 
write to 0x0B ack data: 0x05 0x05 0x1D 0x7D 0x20 0x00 0x40 
write to 0x0B ack data: 0x05 0x1F 0x20 0x7D 0xE8 0x21 0x30 0xE8 0x32 0x9C 0x81 0x9A 0x3D 0x3E 0x3F 0xF6 0x24 0x4F 0xCA 0x4C 0xCB 0xF6 0x15 0x84 0x03 0x31 0x98 0x15 0xE6 0xAC 0x40 0x90 0x04 
write to 0x0B ack data: 0x05 0x05 0x3D 0x7D 0xF6 0x51 0x98 
write to 0x0B ack data: 0x05 0x1F 0x40 0x7D 0x0C 0xE6 0xAC 0x08 0x90 0x05 0x42 0x40 0x73 0x98 0x02 0x01 0x40 0xF8 0xC6 0x84 0x05 0xE6 0x0C 0xEF 0x98 0x14 0xF9 0x40 0x84 0x06 0x6D 0x01 0x6E 
write to 0x0B ack data: 0x05 0x05 0x5D 0x7D 0x01 0x98 0x0D 
write to 0x0B ack data: 0x05 0x1F 0x60 0x7D 0x7D 0x05 0xC6 0x40 0x40 0xE0 0x50 0x00 0x80 0x02 0x6D 0x01 0x7E 0xA6 0xCA 0x7B 0x22 0x06 0x00 0xED 0x02 0x24 0x20 0x00 0xED 0x04 0x20 0x02 0x00 
write to 0x0B ack data: 0x05 0x05 0x7D 0x7D 0xEA 0xC0 0x84 
write to 0x0B ack data: 0x05 0x1F 0x80 0x7D 0x19 0xF9 0x40 0x90 0x02 0xEB 0xB3 0xE6 0xAA 0x07 0xD0 0x02 0x84 0x06 0xE9 0xE3 0x8C 0xA5 0x98 0x43 0xE9 0xE3 0x80 0x9F 0x98 0x3D 0xF9 0x40 0x90 
write to 0x0B ack data: 0x05 0x05 0x9D 0x7D 0x02 0xE9 0x03 
write to 0x0B ack data: 0x05 0x1F 0xA0 0x7D 0x20 0x04 0x00 0xEA 0xC0 0x84 0x0A 0x32 0xE9 0xC3 0x90 0x18 0x22 0x01 0x00 0x98 0x13 0x20 0x06 0x00 0xEA 0xC0 0x90 0x03 0x32 0x98 0x09 0xF6 0x31 
write to 0x0B ack data: 0x05 0x05 0xBD 0x7D 0x90 0x03 0x21 
write to 0x0B ack data: 0x05 0x1F 0xC0 0x7D 0x01 0x00 0xF6 0x12 0xE6 0xAA 0x01 0x90 0x0A 0x31 0xF9 0x20 0x84 0x03 0x21 0x01 0x00 0xF6 0x12 0xF9 0x20 0x90 0x60 0x04 0xC8 0x42 0x01 0xA6 0x20 
write to 0x0B ack data: 0x05 0x05 0xDD 0x7D 0xBF 0x00 0x90 
write to 0x0B ack data: 0x05 0x1F 0xE0 0x7D 0x07 0xE6 0xEC 0x00 0x88 0x56 0x98 0x05 0xE6 0xEC 0x00 0x80 0x58 0xE6 0x5D 0x00 0x90 0x2E 0xBF 0xA3 0xE6 0xEC 0x00 0x88 0x08 0xB3 0x02 0x04 0xC8 
write to 0x0B ack data: 0x05 0x05 0xFD 0x7D 0x52 0x01 0x98 
write to 0x0B ack data: 0x05 0x1F 0x00 0x7E 0x0E 0xFC 0x60 0xBF 0x12 0x04 0xC8 0x52 0x01 0xA6 0x30 0xF0 0x00 0xFC 0x50 0xE6 0x5E 0x00 0x90 0x31 0x04 0xC6 0x42 0x00 0xD2 0xFF 0x90 0x29 0xB2 
write to 0x0B ack data: 0x05 0x05 0x1D 0x7E 0x92 0x98 0x23 
write to 0x0B ack data: 0x05 0x1F 0x20 0x7E 0xE6 0xEC 0x00 0x80 0x06 0x04 0xC8 0xA6 0xF0 0xF1 0x00 0xE6 0xAA 0x10 0x90 0x1F 0x05 0xC6 0xE0 0x92 0x40 0x98 0x16 0xE6 0xEC 0x00 0x80 0x09 0xBF 
write to 0x0B ack data: 0x05 0x05 0x3D 0x7E 0xA2 0x04 0xC8 
write to 0x0B ack data: 0x05 0x1F 0x40 0x7E 0xE0 0x02 0x00 0x52 0x00 0xE6 0xAA 0x10 0x90 0x05 0x72 0x05 0xC6 0x52 0x40 0x2F 0x2E 0x2D 0x9A 0x24 0x92 0x80 0x60 0xFD 0xF0 0x00 0x9A 0xA2 0xA0 
write to 0x0B ack data: 0x05 0x05 0x5D 0x7E 0xF6 0x14 0x01 
write to 0x0B ack data: 0x05 0x1F 0x60 0x7E 0xC1 0x44 0xC3 0x47 0xC4 0xE0 0x60 0xC3 0xB7 0x77 0x90 0x90 0xB7 0xA0 0x90 0x7D 0xE6 0xC7 0x7F 0x80 0x87 0xD7 0x30 0x94 0x08 0x47 0xC4 0xCF 0x80 
write to 0x0B ack data: 0x05 0x05 0x7D 0x7E 0x84 0x69 0x98 
write to 0x0B ack data: 0x05 0x1F 0x80 0x7E 0x6C 0xE6 0x14 0x80 0x75 0x76 0xD7 0x17 0x8C 0x4B 0x90 0x18 0xE5 0xB7 0x00 0xB4 0xB4 0xB3 0xE3 0xB2 0xE2 0xB6 0xE6 0xB7 0x87 0x87 0xF4 0xB6 0x66 
write to 0x0B ack data: 0x05 0x05 0x9D 0x7E 0xB2 0xD2 0xB3 
write to 0x0B ack data: 0x05 0x1F 0xA0 0x7E 0xD3 0xB4 0xD4 0x76 0x77 0x40 0xC4 0xC8 0x80 0x84 0x10 0xF4 0x21 0x00 0xF4 0x3A 0x02 0xE0 0x36 0x04 0xE0 0x37 0x05 0x88 0x34 0x98 0x39 0xF4 0xC9 
write to 0x0B ack data: 0x05 0x05 0xBD 0x7E 0x00 0xF4 0xD2 
write to 0x0B ack data: 0x05 0x1F 0xC0 0x7E 0x02 0xE0 0xD6 0x04 0xE0 0xD7 0x05 0x88 0x1F 0xE9 0xB1 0xB4 0xF4 0xB5 0xF5 0xB6 0xF6 0xB7 0xF7 0x98 0x1F 0xA6 0x0A 0x77 0xE9 0x61 0xB4 0x74 0xB5 
write to 0x0B ack data: 0x05 0x05 0xDD 0x7E 0x75 0xB6 0x76 
write to 0x0B ack data: 0x05 0x1F 0xE0 0x7E 0xB7 0x77 0xBA 0x8A 0x87 0xF2 0x99 0xBD 0x23 0x00 0x00 0x98 0x03 0x23 0xFF 0xFF 0xF6 0x31 0xF6 0x32 0x11 0x00 0x12 0x02 0x56 0x04 0x57 0x05 0xA0 
write to 0x0B ack data: 0x05 0x05 0xFD 0x7E 0x0A 0x9A 0x77 
write to 0x0B ack data: 0x05 0x1F 0x00 0x7F 0x98 0x04 0x67 0x80 0x98 0x00 0xB5 0x60 0xB7 0xE7 0xD7 0xC0 0x90 0x50 0xB4 0x60 0xB5 0x76 0x90 0x4A 0xE6 0xC6 0x7E 0x80 0x45 0x90 0x43 0xE6 0x14 
write to 0x0B ack data: 0x05 0x05 0x1D 0x7F 0x80 0xA6 0x32 
write to 0x0B ack data: 0x05 0x1F 0x20 0x7F 0xA6 0x43 0xE6 0xF6 0x10 0x80 0x2A 0x90 0x15 0xD6 0x08 0x80 0x09 0xA6 0x06 0xA6 0x32 0x73 0xA6 0x60 0x90 0x08 0xB3 0xB3 0xB2 0xE2 0xB6 0x86 0x87 
write to 0x0B ack data: 0x05 0x05 0x3D 0x7F 0xF8 0xCF 0x40 
write to 0x0B ack data: 0x05 0x1F 0x40 0x7F 0x90 0x01 0xFD 0xB7 0x60 0x80 0x02 0xE9 0xB1 0xE5 0x40 0x73 0xC0 0x80 0x84 0x01 0xFD 0x21 0xFF 0xFF 0xB7 0x60 0x88 0x09 0xE6 0x20 0x80 0xB0 0x43 
write to 0x0B ack data: 0x05 0x05 0x5D 0x7F 0xFD 0x73 0x72 
write to 0x0B ack data: 0x05 0x1F 0x60 0x7F 0xFD 0x63 0x80 0x99 0xFA 0xFF 0xFF 0xFF 0xFF 0xFF 0xFF 0xFF 0xFF 0xFF 0xFF 0xFF 0xFF 0xFF 0xFF 0xFF 0xFF 0xFF 0xFF 0xFF 0xFF 0xFF 0xFF 0xFF 0xFF 
write to 0x0B ack data: 0x05 0x05 0x7D 0x7F 0xFF 0xFF 0xFF 
write to 0x0B ack data: 0x12 read to 0x0B ack data: 0xC8 0x7B 0xA5
write to 0x0B ack data: 0x00 0x20 0x00 
write to 0x0B ack data: 0x1A 0xDE 0x83 
write to 0x0B ack data: 0x05 0x1F 0x20 0x00 0xFF 0xFF 0xFF 0xFF 0xFF 0xFF 0xFF 0xFF 0xFF 0xFF 0xFF 0xFF 0xFF 0xFF 0xFF 0xFF 0xFF 0xFF 0xFF 0xFF 0xFF 0xFF 0xFF 0xFF 0xFF 0xFF 0xFF 0xFF 0xFF 
write to 0x0B ack data: 0x1A 0xDE 0x83 
write to 0x0B ack data: 0x05 0x05 0x3D 0x00 0xFF 0xFF 0xFF 
write to 0x0B ack data: 0x00 0x20 0x00 
write to 0x0B ack data: 0x1A 0xDE 0x83 
write to 0x0B ack data: 0x13 read to 0x0B ack data: 0x26 0xEB 0xDF
write to 0x0B ack data: 0x00 0x40 0x00 
write to 0x0B ack data: 0x1A 0xDE 0x83 
write to 0x0B ack data: 0x05 0x1F 0x40 0x00 0xFF 0xFF 0xFF 0xFF 0xFF 0xFF 0xFF 0xFF 0xFF 0xFF 0xFF 0xFF 0xFF 0xFF 0xFF 0xFF 0xFF 0xFF 0xFF 0xFF 0xFF 0xFF 0xFF 0xFF 0xFF 0xFF 0xFF 0xFF 0xFF 
write to 0x0B ack data: 0x1A 0xDE 0x83 
write to 0x0B ack data: 0x05 0x05 0x5D 0x00 0xFF 0xFF 0xFF 
write to 0x0B ack data: 0x00 0x40 0x00 
write to 0x0B ack data: 0x1A 0xDE 0x83 
write to 0x0B ack data: 0x13 read to 0x0B ack data: 0x26 0xEB 0xDF
write to 0x0B ack data: 0x00 0x60 0x00 
write to 0x0B ack data: 0x1A 0xDE 0x83 
write to 0x0B ack data: 0x05 0x1F 0x60 0x00 0xFF 0xFF 0xFF 0xFF 0xFF 0xFF 0xFF 0xFF 0xFF 0xFF 0xFF 0xFF 0xFF 0xFF 0xFF 0xFF 0xFF 0xFF 0xFF 0xFF 0xFF 0xFF 0xFF 0xFF 0xFF 0xFF 0xFF 0xFF 0xFF 
write to 0x0B ack data: 0x1A 0xDE 0x83 
write to 0x0B ack data: 0x05 0x05 0x7D 0x00 0xFF 0xFF 0xFF 
write to 0x0B ack data: 0x00 0x60 0x00 
write to 0x0B ack data: 0x1A 0xDE 0x83 
write to 0x0B ack data: 0x13 read to 0x0B ack data: 0x26 0xEB 0xDF
write to 0x0B ack data: 0x00 0x00 0x00 
write to 0x0B ack data: 0x1A 0xDE 0x83 
write to 0x0B ack data: 0x05 0x1F 0x00 0x00 0xFF 0xFF 0xC8 0x7B 0xFF 0xFF 0x19 0x10 0x47 0x26 0x20 0x01 0x01 0x00 0x03 0x00 0x03 0x85 0x02 0x0A 0x00 0x00 0xFF 0xFF 0x00 0x00 0x90 0x02 0x03 
write to 0x0B ack data: 0x1A 0xDE 0x83 
write to 0x0B ack data: 0x05 0x05 0x1D 0x00 0x12 0x00 0x70 
write to 0x0B ack data: 0x1A 0xDE 0x83 
write to 0x0B ack data: 0x00 0x00 0x00 
write to 0x0B ack data: 0x00 0x00 0x00 
write to 0x0B ack data: 0x1A 0xDE 0x83 
write to 0x0B ack data: 0x13 read to 0x0B ack data: 0x5D 0x61 0x55
write to 0x0B ack data: 0x00 0x80 0x00 
write to 0x0B ack data: 0x1A 0xDE 0x83 
write to 0x0B ack data: 0x05 0x1F 0x80 0x00 0x01 0x23 0x45 0x67 0x89 0xAB 0xCD 0xEF 0xFE 0xDC 0xBA 0x98 0x76 0x54 0x32 0x10 0x14 0x04 0x72 0x36 0xFF 0xFF 0xFF 0xFF 0xFF 0xFF 0xFF 0xFF 0xFF 
write to 0x0B ack data: 0x1A 0xDE 0x83 
write to 0x0B ack data: 0x05 0x05 0x9D 0x00 0xFF 0xFF 0xFF 
write to 0x0B ack data: 0x00 0x80 0x00 
write to 0x0B ack data: 0x1A 0xDE 0x83 
write to 0x0B ack data: 0x13 read to 0x0B ack data: 0x77 0xBB 0x71
write to 0x0B ack data: 0x00 0xA0 0x00 
write to 0x0B ack data: 0x1A 0xDE 0x83 
write to 0x0B ack data: 0x05 0x1F 0xA0 0x00 0xFF 0xFF 0xFF 0xFF 0xFF 0xFF 0xFF 0xFF 0xFF 0xFF 0xFF 0xFF 0xFF 0xFF 0xFF 0xFF 0xFF 0xFF 0xFF 0xFF 0xFF 0xFF 0xFF 0xFF 0xFF 0xFF 0xFF 0xFF 0xFF 
write to 0x0B ack data: 0x1A 0xDE 0x83 
write to 0x0B ack data: 0x05 0x05 0xBD 0x00 0xFF 0xFF 0xFF 
write to 0x0B ack data: 0x00 0xA0 0x00 
write to 0x0B ack data: 0x1A 0xDE 0x83 
write to 0x0B ack data: 0x13 read to 0x0B ack data: 0x26 0xEB 0xDF
write to 0x0B ack data: 0x00 0xC0 0x00 
write to 0x0B ack data: 0x1A 0xDE 0x83 
write to 0x0B ack data: 0x05 0x1F 0xC0 0x00 0xFF 0xFF 0xFF 0xFF 0xFF 0xFF 0xFF 0xFF 0xFF 0xFF 0xFF 0xFF 0xFF 0xFF 0xFF 0xFF 0xFF 0xFF 0xFF 0xFF 0xFF 0xFF 0xFF 0xFF 0xFF 0xFF 0xFF 0xFF 0xFF 
write to 0x0B ack data: 0x1A 0xDE 0x83 
write to 0x0B ack data: 0x05 0x05 0xDD 0x00 0xFF 0xFF 0xFF 
write to 0x0B ack data: 0x00 0xC0 0x00 
write to 0x0B ack data: 0x1A 0xDE 0x83 
write to 0x0B ack data: 0x13 read to 0x0B ack data: 0x26 0xEB 0xDF
write to 0x0B ack data: 0x00 0xE0 0x00 
write to 0x0B ack data: 0x1A 0xDE 0x83 
write to 0x0B ack data: 0x05 0x1F 0xE0 0x00 0xFF 0xFF 0xFF 0xFF 0xFF 0xFF 0xFF 0xFF 0xFF 0xFF 0xFF 0xFF 0xFF 0xFF 0xFF 0xFF 0xFF 0xFF 0xFF 0xFF 0xFF 0xFF 0xFF 0xFF 0xFF 0xFF 0xFF 0xFF 0xFF 
write to 0x0B ack data: 0x1A 0xDE 0x83 
write to 0x0B ack data: 0x05 0x05 0xFD 0x00 0xFF 0xFF 0xFF 
write to 0x0B ack data: 0x00 0xE0 0x00 
write to 0x0B ack data: 0x1A 0xDE 0x83 
write to 0x0B ack data: 0x13 read to 0x0B ack data: 0x26 0xEB 0xDF
write to 0x0B ack data: 0x14 read to 0x0B ack data: 0x66 0x61 0x59
write to 0x0B ack data: 0x00 0x00 0x00 
write to 0x0B ack data: 0x1A 0xDE 0x83 
write to 0x0B ack data: 0x05 0x04 0x00 0x00 0xAF 0x5A 
write to 0x0B ack data: 0x1A 0xDE 0x83 
write to 0x0B ack data: 0x00 0x00 0x00 
write to 0x0B ack data: 0x1A 0xDE 0x83 
write to 0x0B ack data: 0x03 read to 0x0B ack data: 0x20 0xAF 0x5A 0xC8 0x7B 0xFF 0xFF 0x19 0x10 0x47 0x26 0x20 0x01 0x01 0x00 0x03 0x00 0x03 0x85 0x02 0x0A 0x00 0x00 0xFF 0xFF 0x00 0x00 0x90 0x02 0x03 0x12 0x00 0x70
write to 0x0B ack data: 0x09 0x00 0x00 
write to 0x0B ack data: 0x0B read to 0x0B ack data: 0x0A 0x00 0xC5
write to 0x0B ack data: 0x0A 0x0A 0x00 
write to 0x0B ack data: 0x09 0x02 0x00 
write to 0x0B ack data: 0x0A 0x00 0x00 
write to 0x0B ack data: 0x08 0x11 
