write to 0x56 nak                                                           // no connection
write to 0x55 ack data: 0x3E 0x02 0xEE 0x00 0x00                            // ??????????????????????
                                    //get Bq28z620MacSubcmdOperationStatus
write to 0x55 ack data: 0x3E read to 0x55 ack data: 0x54 0x00 0x06 0x01 0x40 0x00 0x00 0x00 0x00 0x00 0x00 0x00 0x00 0x00 0x00 0x00 0x00 0x00 0x00 0x00 0x00 0x00
write to 0x55 ack data: 0x00 0x01 0x00                                      //set Bq28z620MacSubcmdDeviceType
write to 0x55 ack data: 0x00 read to 0x55 ack data: 0xA5 0xFF               // get Bq28z620StdCmdManufacturerAccessAndControlStatus
write to 0x55 ack data: 0x00 0x02 0x00                                      //set Bq28z620MacSubcmdFirmwareVersion  
                                                                            //get Bq28z620MacSubcmdFirmwareVersion
write to 0x55 ack data: 0x40 read to 0x55 ack data: 0x26 0x20 0x01 0x01 0x00 0x03 0x00 0x03 0x85 0x02 0x00 0x00 0x00 0x00 0x00 0x00 0x00 0x00 0x00 0x00 0x00 0x00 0x00 0x00 0x00 0x00 0x00 0x00 0x00 0x00 0x00 0x00 0x28 0x0F 0x01 0x02
write to 0x55 ack data: 0x3E read to 0x55 ack data: 0x02 0x00               //get current Bq28z620MacSubcmd  
write to 0x55 ack data: 0x02 read to 0x55 ack data: 0x00 0x00               //get Bq28z620StdCmdAtRate
write to 0x55 ack data: 0x04 read to 0x55 ack data: 0xFF 0xFF               //get Bq28z620StdCmdAtRateTimeToEmpty
write to 0x55 ack data: 0x06 read to 0x55 ack data: 0xAC 0x0B               //get Bq28z620StdCmdTemperature
write to 0x55 ack data: 0x08 read to 0x55 ack data: 0x47 0x1E               //get Bq28z620StdCmdVoltage    
write to 0x55 ack data: 0x0C read to 0x55 ack data: 0x00 0x00               //get Bq28z620StdCmdCurrent
write to 0x55 ack data: 0x0E read to 0x55 ack data: 0x64 0x00               //get ????????????????
write to 0x55 ack data: 0x14 read to 0x55 ack data: 0x00 0x00               //get Bq28z620StdCmdAverageCurrent
write to 0x55 ack data: 0x22 read to 0x55 ack data: 0x00 0x00               //get Bq28z620StdCmdAveragePower
write to 0x55 ack data: 0x24 read to 0x55 ack data: 0xFF 0xFF               // get ??????????????
write to 0x55 ack data: 0x26 read to 0x55 ack data: 0xFF 0xFF               // get ??????????????
write to 0x55 ack data: 0x2C read to 0x55 ack data: 0x35 0x00               //get Bq28z620StdCmdRelativeStateOfCharge
write to 0x55 ack data: 0x10 read to 0x55 ack data: 0xA9 0x08               //get Bq28z620StdCmdRemainingCapacity
write to 0x55 ack data: 0x12 read to 0x55 ack data: 0x9E 0x10               //get Bq28z620StdCmdFullChargeCapacity
write to 0x55 ack data: 0x16 read to 0x55 ack data: 0xFF 0xFF               //get Bq28z620StdCmdAverageTimeToEmpty
write to 0x55 ack data: 0x18 read to 0x55 ack data: 0xFF 0xFF               //get Bq28z620StdCmdAverageTimeToFull   
write to 0x55 ack data: 0x1A read to 0x55 ack data: 0x00 0x00               //get Bq28z620StdCmdStandbyCurrent
write to 0x55 ack data: 0x1C read to 0x55 ack data: 0xFF 0xFF               //get Bq28z620StdCmdStandbyTimeToEmpty
write to 0x55 ack data: 0x1E read to 0x55 ack data: 0x0C 0xFE               //get Bq28z620StdCmdMaxLoadCurrent
write to 0x55 ack data: 0x20 read to 0x55 ack data: 0x0A 0x01               //get Bq28z620StdCmdMaxLoadTimeToEmpty
write to 0x55 ack data: 0x32 read to 0x55 ack data: 0xA4 0x0F               //get Bq28z620StdCmdChargeCurrent
write to 0x55 ack data: 0x30 read to 0x55 ack data: 0x60 0x22               //get Bq28z620StdCmdChargeVoltage
write to 0x55 ack data: 0x0A read to 0x55 ack data: 0xC0 0x00               //get Bq28z620StdCmdBatteryStatus
write to 0x55 ack data: 0x2A read to 0x55 ack data: 0x00 0x00               //get Bq28z620StdCmdCycleCount
write to 0x55 ack data: 0x2E read to 0x55 ack data: 0x64 0x00               //get Bq28z620StdCmdStateOfHealth  
write to 0x55 ack data: 0x00 0x54 0x00                                      //set Bq28z620MacSubcmdOperationStatus
write to 0x55 ack data: 0x40 read to 0x55 ack data: 0x06 0x01 0x40 0x00     //get Bq28z620MacSubcmdOperationStatus
write to 0x55 ack data: 0x00 0x55 0x00                                      //set Bq28z620MacSubcmdChargingStatus       
write to 0x55 ack data: 0x40 read to 0x55 ack data: 0x10 0x04 0x00          //get Bq28z620MacSubcmdChargingStatus
write to 0x55 ack data: 0x00 0x56 0x00                                      //set Bq28z620MacSubcmdGaugingStatus
write to 0x55 ack data: 0x40 read to 0x55 ack data: 0xD0 0x11 0x00          //get Bq28z620MacSubcmdGaugingStatus
write to 0x55 ack data: 0x00 0x57 0x00                                      //set Bq28z620MacSubcmdManufacturingStatus
write to 0x55 ack data: 0x40 read to 0x55 ack data: 0x18 0x00               //get Bq28z620MacSubcmdManufacturingStatus   
write to 0x55 ack data: 0x00 0x50 0x00                                      //set Bq28z620MacSubcmdSafetyAlert
write to 0x55 ack data: 0x40 read to 0x55 ack data: 0x00 0x00 0x00 0x00     //get Bq28z620MacSubcmdSafetyAlert
write to 0x55 ack data: 0x00 0x51 0x00                                      //set Bq28z620MacSubcmdSafetyStatus
write to 0x55 ack data: 0x40 read to 0x55 ack data: 0x00 0x00 0x00 0x00     //get Bq28z620MacSubcmdSafetyStatus
write to 0x55 ack data: 0x00 0x52 0x00                                      //set Bq28z620MacSubcmdPFAlert
write to 0x55 ack data: 0x40 read to 0x55 ack data: 0x00 0x00 0x00 0x00     //get Bq28z620MacSubcmdPFAlert
write to 0x55 ack data: 0x00 0x53 0x00                                      //set Bq28z620MacSubcmdPFStatus
write to 0x55 ack data: 0x40 read to 0x55 ack data: 0x00 0x00 0x00 0x00     //get Bq28z620MacSubcmdPFStatus
write to 0x55 ack data: 0x00 0x71 0x00                             //set Bq28z620MacSubcmdDAStatus1
                                                                   //get Bq28z620MacSubcmdDAStatus1
write to 0x55 ack data: 0x40 read to 0x55 ack data: 0x24 0x0F 0x23 0x0F 0x00 0x00 0x00 0x00 0x5F 0x1E 0xD4 0x1E 0x00 0x00 0x00 0x00 0x00 0x00 0x00 0x00 0x00 0x00 0x00 0x00 0x00 0x00 0x00 0x00 0x00 0x00 0x00 0x00
write to 0x55 ack data: 0x00 0x72 0x00                              //set Bq28z620MacSubcmdDAStatus2
                                                                    //get Bq28z620MacSubcmdDAStatus2 
write to 0x55 ack data: 0x40 read to 0x55 ack data: 0x93 0x0B 0xAC 0x0B 0x00 0x00 0x00 0x00 0x00 0x00 0xAC 0x0B 0x00 0x00
write to 0x55 ack data: 0x00 0x78 0x00                              //set ??????????????????????
                                                                    //get ???????????????????????
write to 0x55 ack data: 0x40 read to 0x55 ack data: 0xA9 0x08 0x28 0x06 0x9E 0x10 0x57 0x0C
write to 0x55 ack data: 0x00 0x73 0x00                              //set Bq28z620MacSubcmdITStatus1
                                                                    //get Bq28z620MacSubcmdITStatus1
write to 0x55 ack data: 0x40 read to 0x55 ack data: 0xAD 0x08 0x28 0x06 0xF9 0x07 0x2F 0x06 0xA6 0x10 0x57 0x0C 0xBB 0x0B 0xAB 0x0B 0xE8 0x03 0xE8 0x03 0x00 0x00 0x00 0x00
write to 0x55 ack data: 0x00 0x74 0x00                              //set Bq28z620MacSubcmdITStatus2
                                                                    //get Bq28z620MacSubcmdITStatus2
write to 0x55 ack data: 0x40 read to 0x55 ack data: 0x00 0x04 0x00 0x00 0xF9 0x07 0xEA 0x03 0x00 0x00 0x30 0x1E 0x30 0x1E 0x00 0x00 0x00 0x00 0x05 0x00 0x80 0x00 0x80 0x00 0x00 0x00 0x00 0x00 0x00 0x00 0x00 0x00
write to 0x55 ack data: 0x00 0x75 0x00                              //set Bq28z620MacSubcmdITStatus3
                                                                    //get Bq28z620MacSubcmdITStatus3
write to 0x55 ack data: 0x40 read to 0x55 ack data: 0x30 0x11 0x30 0x11 0x30 0x1E 0x30 0x1E 0x00 0x00 0x05 0x00 0x64 0x00 0xE8 0x03 0x34 0x1E 0x34 0x1E
write to 0x55 ack data: 0x00 0x76 0x00                              //set Bq28z620MacSubcmdITStatus4
                                                                    //get Bq28z620MacSubcmdITStatus4
write to 0x55 ack data: 0x40 read to 0x55 ack data: 0x00 0x00 0x00 0x00 0x00 0x00 0x00 0x00 0x00 0x00
write to 0x55 ack data: 0x06 read to 0x55 ack data: 0xAC 0x0B                //get Bq28z620StdCmdTemperature
write to 0x55 ack data: 0x08 read to 0x55 ack data: 0x47 0x1E                //get Bq28z620StdCmdVoltage
write to 0x55 ack data: 0x0C read to 0x55 ack data: 0x00 0x00                //get Bq28z620StdCmdCurrent
write to 0x55 ack data: 0x2C read to 0x55 ack data: 0x35 0x00                //get Bq28z620StdCmdRelativeStateOfCharge
write to 0x55 ack data: 0x2E read to 0x55 ack data: 0x64 0x00                //get Bq28z620StdCmdStateOfHealth 
write to 0x55 ack data: 0x00 0x54 0x00                              //set Bq28z620MacSubcmdOperationStatus
                                                                    //get Bq28z620MacSubcmdOperationStatus
write to 0x55 ack data: 0x40 read to 0x55 ack data: 0x06 0x01 0x40 0x00
write to 0x55 ack data: 0x00 0x54 0x00                              //set Bq28z620MacSubcmdOperationStatus
                                                                    //get Bq28z620MacSubcmdOperationStatus
write to 0x55 ack data: 0x40 read to 0x55 ack data: 0x06 0x01 0x40 0x00
write to 0x55 ack data: 0x3E 0x02 0xEE 0x00 0x00                    // ??????????????????????
                                                                    //get Bq28z620MacSubcmdOperationStatus
write to 0x55 ack data: 0x3E read to 0x55 ack data: 0x54 0x00 0x06 0x01 0x40 0x00 0x00 0x00 0x00 0x00 0x00 0x00 0x00 0x00 0x00 0x00 0x00 0x00 0x00 0x00 0x00 0x00 0x00 0x00  
write to 0x55 ack data: 0x00 0x01 0x00                             //set Bq28z620MacSubcmdDeviceType
                                                                   //get Bq28z620StdCmdManufacturerAccessAndControlStatus
write to 0x55 ack data: 0x00 read to 0x55 ack data: 0xA5 0xFF
write to 0x55 ack data: 0x00 0x02 0x00                             //set Bq28z620MacSubcmdFirmwareVersion
                                                                   //get Bq28z620MacSubcmdFirmwareVersion               
write to 0x55 ack data: 0x40 read to 0x55 ack data: 0x26 0x20 0x01 0x01 0x00 0x03 0x00 0x03 0x85 0x02 0x00 0x00 0x00 0x00 0x00 0x00 0x00 0x00 0x00 0x00 0x00 0x00 0x00 0x00 0x00 0x00 0x00 0x00 0x00 0x00 0x00 0x00 0x28 0x0F 0x01 0x02
write to 0x55 ack data: 0x06 read to 0x55 ack data: 0xAC 0x0B           //get Bq28z620StdCmdTemperature
write to 0x55 ack data: 0x08 read to 0x55 ack data: 0x47 0x1E           //get Bq28z620StdCmdVoltage
write to 0x55 ack data: 0x0C read to 0x55 ack data: 0x00 0x00           //get Bq28z620StdCmdCurrent 
write to 0x55 ack data: 0x2C read to 0x55 ack data: 0x35 0x00           //get Bq28z620StdCmdRelativeStateOfCharge
write to 0x55 ack data: 0x2E read to 0x55 ack data: 0x64 0x00           //get Bq28z620StdCmdStateOfHealth
write to 0x55 ack data: 0x00 0x54 0x00                              //set Bq28z620MacSubcmdOperationStatus
                                                                    //get Bq28z620MacSubcmdOperationStatus  
write to 0x55 ack data: 0x40 read to 0x55 ack data: 0x06 0x01 0x40 0x00
write to 0x55 ack data: 0x00 0x54 0x00                              //set Bq28z620MacSubcmdOperationStatus
                                                                    //get Bq28z620MacSubcmdOperationStatus
write to 0x55 ack data: 0x40 read to 0x55 ack data: 0x06 0x01 0x40 0x00